!Agilent Technologies,N5230C,MY48100320,A.08.04.10
!Agilent N5230C: A.08.04.10
!Date: Wednesday, October 05, 2016 23:47:01
!Correction: S11(Full 2 Port(1,2)) 
!S21(Full 2 Port(1,2)) 
!S12(Full 2 Port(1,2)) 
!S22(Full 2 Port(1,2)) 
!S2P File: Measurements: S11, S21, S12, S22:
# Hz S  dB   R 50
300000 -2.679323e+001 7.879802e+001 -7.024655e-002 -2.848577e+000 -6.674608e-002 -2.796012e+000 -2.526806e+001 7.766649e+001
17174625 -5.381711e+001 1.086027e+002 6.875940e-003 -9.943516e-001 3.149543e-003 -9.906493e-001 -5.153677e+001 8.192138e+001
34049250 -6.200350e+001 7.896866e+001 -1.150188e-003 -1.737597e+000 -6.148577e-003 -1.733067e+000 -5.907719e+001 6.665630e+001
50923875 -5.620808e+001 4.198761e+001 -6.169360e-003 -2.570306e+000 -1.296309e-002 -2.557401e+000 -5.846814e+001 3.095205e+001
67798500 -5.450713e+001 3.120914e+001 -8.027639e-003 -3.415462e+000 -9.535847e-003 -3.395949e+000 -5.956503e+001 5.601536e+001
84673125 -5.322908e+001 2.444678e+001 -8.648085e-003 -4.246298e+000 -1.228401e-002 -4.237317e+000 -5.507908e+001 4.729198e+001
101547750 -5.596914e+001 8.088499e+000 -9.102616e-003 -5.095835e+000 -1.229647e-002 -5.105600e+000 -5.367666e+001 5.107355e+001
118422375 -5.423789e+001 1.510922e+001 -9.227959e-003 -5.937318e+000 -1.508578e-002 -5.935822e+000 -5.336551e+001 4.443935e+001
135297000 -5.515697e+001 1.280832e+001 -1.213345e-002 -6.758123e+000 -1.944318e-002 -6.790403e+000 -5.427653e+001 3.269512e+001
152171625 -5.491231e+001 -1.719667e+001 -1.076451e-002 -7.613832e+000 -1.476256e-002 -7.551402e+000 -5.621240e+001 6.013807e+001
169046250 -5.336674e+001 1.727848e+000 -1.339476e-002 -8.405670e+000 -1.649260e-002 -8.437719e+000 -5.313554e+001 4.888636e+001
185920875 -5.494647e+001 2.574933e+001 -1.637597e-002 -9.234619e+000 -1.674276e-002 -9.230205e+000 -5.464685e+001 4.622778e+001
202795500 -5.658860e+001 2.869825e+001 -1.299610e-002 -1.008937e+001 -1.815070e-002 -1.009033e+001 -5.115402e+001 3.510554e+001
219670125 -5.683020e+001 4.105539e+001 -1.753258e-002 -1.091913e+001 -1.783456e-002 -1.092232e+001 -5.234857e+001 3.166950e+001
236544750 -5.565331e+001 1.661518e+001 -1.455110e-002 -1.178370e+001 -1.976999e-002 -1.176524e+001 -5.044448e+001 3.933173e+001
253419375 -5.556046e+001 2.453909e+001 -1.346607e-002 -1.261661e+001 -2.030456e-002 -1.258985e+001 -4.939631e+001 3.942682e+001
270294000 -5.928731e+001 1.627155e+001 -1.675348e-002 -1.341156e+001 -2.127441e-002 -1.342315e+001 -4.920204e+001 4.038914e+001
287168625 -5.878609e+001 3.817061e+001 -1.608660e-002 -1.426077e+001 -1.904932e-002 -1.427713e+001 -4.849940e+001 4.296569e+001
304043250 -6.136035e+001 3.724116e+001 -1.617017e-002 -1.508147e+001 -2.152736e-002 -1.508689e+001 -4.915089e+001 5.158259e+001
320917875 -5.749753e+001 4.408154e+001 -1.836374e-002 -1.591981e+001 -1.673632e-002 -1.593387e+001 -4.993130e+001 4.314864e+001
337792500 -5.611025e+001 4.007643e+001 -1.452629e-002 -1.677344e+001 -2.520187e-002 -1.675377e+001 -4.827584e+001 4.535831e+001
354667125 -5.790993e+001 4.209679e+001 -2.118281e-002 -1.757826e+001 -2.262180e-002 -1.758418e+001 -4.789241e+001 5.576814e+001
371541750 -5.446817e+001 6.344885e+001 -1.743972e-002 -1.840704e+001 -2.321162e-002 -1.841154e+001 -4.668107e+001 4.785589e+001
388416375 -5.361292e+001 5.483483e+001 -1.907003e-002 -1.922618e+001 -2.065395e-002 -1.925650e+001 -4.618572e+001 4.855191e+001
405291000 -5.108657e+001 6.528553e+001 -1.802533e-002 -2.009521e+001 -2.250082e-002 -2.007843e+001 -4.496708e+001 4.782050e+001
422165625 -5.102441e+001 6.160607e+001 -2.290720e-002 -2.089153e+001 -2.580554e-002 -2.090012e+001 -4.440422e+001 5.492305e+001
439040250 -4.861882e+001 7.155376e+001 -1.652424e-002 -2.174153e+001 -2.236695e-002 -2.173750e+001 -4.466544e+001 4.882508e+001
455914875 -4.892716e+001 7.718010e+001 -2.303700e-002 -2.256892e+001 -2.026498e-002 -2.255084e+001 -4.533447e+001 4.256104e+001
472789500 -5.090938e+001 6.918981e+001 -1.959399e-002 -2.338657e+001 -2.292159e-002 -2.340117e+001 -4.515726e+001 4.213428e+001
489664125 -5.345250e+001 8.735396e+001 -1.461021e-002 -2.423540e+001 -2.285136e-002 -2.424136e+001 -4.506153e+001 4.359200e+001
506538750 -5.470565e+001 1.063157e+002 -2.411297e-002 -2.506406e+001 -1.891777e-002 -2.505456e+001 -4.702328e+001 2.746359e+001
523413375 -5.675161e+001 1.398318e+002 -2.151485e-002 -2.589713e+001 -2.556109e-002 -2.591410e+001 -4.792026e+001 1.785683e+001
540288000 -5.453985e+001 1.541593e+002 -1.973042e-002 -2.673391e+001 -2.304646e-002 -2.671842e+001 -4.739520e+001 1.147617e+001
557162625 -5.390504e+001 1.454805e+002 -2.490555e-002 -2.757312e+001 -2.595699e-002 -2.754344e+001 -4.633642e+001 5.647128e+000
574037250 -5.017765e+001 1.463042e+002 -2.557589e-002 -2.841048e+001 -2.815711e-002 -2.838133e+001 -4.759381e+001 1.555082e-001
590911875 -5.066881e+001 1.542684e+002 -2.378385e-002 -2.923197e+001 -2.494849e-002 -2.922229e+001 -4.634953e+001 -7.570904e+000
607786500 -4.926047e+001 1.398038e+002 -2.152091e-002 -3.002721e+001 -3.088028e-002 -3.005895e+001 -4.486145e+001 8.531910e-001
624661125 -4.919823e+001 1.310493e+002 -2.351725e-002 -3.088195e+001 -2.664443e-002 -3.087603e+001 -4.450657e+001 4.751733e+000
641535750 -4.764666e+001 1.266186e+002 -2.628137e-002 -3.170881e+001 -2.443819e-002 -3.170998e+001 -4.413850e+001 5.502317e+000
658410375 -4.656892e+001 1.132292e+002 -2.578333e-002 -3.256641e+001 -2.400289e-002 -3.255275e+001 -4.304364e+001 9.879856e+000
675285000 -4.529928e+001 1.158972e+002 -2.144645e-002 -3.340953e+001 -2.811044e-002 -3.335769e+001 -4.275635e+001 4.160669e+000
692159625 -4.553088e+001 1.137089e+002 -2.593847e-002 -3.424294e+001 -2.737499e-002 -3.421045e+001 -4.257296e+001 1.275631e+000
709034250 -4.548544e+001 1.122074e+002 -2.681342e-002 -3.510632e+001 -2.986879e-002 -3.508056e+001 -4.280461e+001 -1.959384e+000
725908875 -4.417425e+001 1.064393e+002 -2.698836e-002 -3.592836e+001 -2.765717e-002 -3.592362e+001 -4.236948e+001 -2.148865e+000
742783500 -4.490904e+001 1.122427e+002 -2.631739e-002 -3.674207e+001 -3.379833e-002 -3.674275e+001 -4.270493e+001 -4.888711e+000
759658125 -4.657322e+001 1.125301e+002 -3.260243e-002 -3.757506e+001 -3.360676e-002 -3.756936e+001 -4.239970e+001 -4.540291e+000
776532750 -4.534408e+001 1.152965e+002 -2.868123e-002 -3.840050e+001 -3.232408e-002 -3.838534e+001 -4.206926e+001 -6.300075e+000
793407375 -4.500462e+001 1.116577e+002 -3.413916e-002 -3.920666e+001 -3.132809e-002 -3.923811e+001 -4.187035e+001 -6.559830e+000
810282000 -4.418792e+001 1.026797e+002 -3.290809e-002 -4.007700e+001 -3.918681e-002 -4.005692e+001 -4.152540e+001 -9.113781e+000
827156625 -4.401118e+001 1.074709e+002 -3.016495e-002 -4.087526e+001 -3.334178e-002 -4.087394e+001 -4.181053e+001 -7.574201e+000
844031250 -4.276931e+001 9.971531e+001 -3.428271e-002 -4.169148e+001 -3.559014e-002 -4.170943e+001 -4.131012e+001 -6.937600e+000
860905875 -4.387333e+001 9.634740e+001 -2.814966e-002 -4.255354e+001 -3.521172e-002 -4.251680e+001 -4.073763e+001 -8.834939e+000
877780500 -4.268187e+001 9.369955e+001 -3.389516e-002 -4.336186e+001 -3.707329e-002 -4.337691e+001 -4.077391e+001 -6.718809e+000
894655125 -4.276252e+001 9.249631e+001 -3.509082e-002 -4.416459e+001 -3.417543e-002 -4.419883e+001 -4.051581e+001 -7.277208e+000
911529750 -4.316212e+001 8.829486e+001 -3.299382e-002 -4.505200e+001 -3.224609e-002 -4.502095e+001 -4.020895e+001 -7.194068e+000
928404375 -4.292172e+001 8.641541e+001 -3.633681e-002 -4.584792e+001 -3.659773e-002 -4.585223e+001 -3.993307e+001 -1.360676e+001
945279000 -4.370554e+001 9.270957e+001 -3.123537e-002 -4.668250e+001 -3.488233e-002 -4.670929e+001 -4.055605e+001 -1.262323e+001
962153625 -4.328302e+001 9.462588e+001 -2.962646e-002 -4.752617e+001 -3.345069e-002 -4.751865e+001 -4.062091e+001 -1.396839e+001
979028250 -4.366647e+001 9.243058e+001 -3.367053e-002 -4.835250e+001 -3.395702e-002 -4.832209e+001 -4.055619e+001 -1.691977e+001
995902875 -4.338695e+001 9.653501e+001 -3.388882e-002 -4.917980e+001 -3.526312e-002 -4.919328e+001 -4.128127e+001 -1.996762e+001
1012777500 -4.383806e+001 1.002611e+002 -2.826486e-002 -5.002594e+001 -3.146112e-002 -5.003731e+001 -4.115925e+001 -2.050352e+001
1029652125 -4.408169e+001 9.754795e+001 -3.229927e-002 -5.086373e+001 -3.383374e-002 -5.086138e+001 -4.090329e+001 -1.899685e+001
1046526750 -4.349819e+001 9.169688e+001 -2.993202e-002 -5.167068e+001 -3.148080e-002 -5.169405e+001 -4.068770e+001 -1.599198e+001
1063401375 -4.255892e+001 9.340771e+001 -3.429040e-002 -5.252232e+001 -3.256069e-002 -5.251621e+001 -4.051560e+001 -1.413381e+001
1080276000 -4.157293e+001 9.215789e+001 -2.929254e-002 -5.336518e+001 -2.853736e-002 -5.335461e+001 -4.050455e+001 -1.526070e+001
1097150625 -4.182863e+001 8.378718e+001 -2.997422e-002 -5.415884e+001 -3.031682e-002 -5.420189e+001 -3.989221e+001 -1.506373e+001
1114025250 -4.107796e+001 8.133488e+001 -2.671893e-002 -5.501607e+001 -3.260802e-002 -5.503217e+001 -3.945182e+001 -1.251562e+001
1130899875 -4.120425e+001 7.998827e+001 -3.122026e-002 -5.584404e+001 -3.489688e-002 -5.585985e+001 -3.957019e+001 -1.522313e+001
1147774500 -4.104965e+001 7.847150e+001 -3.726564e-002 -5.667885e+001 -3.385712e-002 -5.669861e+001 -3.963881e+001 -1.576943e+001
1164649125 -4.162002e+001 7.995757e+001 -3.354850e-002 -5.751378e+001 -3.406204e-002 -5.752389e+001 -3.978442e+001 -1.197396e+001
1181523750 -4.125452e+001 7.959093e+001 -2.931167e-002 -5.834315e+001 -3.700344e-002 -5.836701e+001 -3.989390e+001 -8.110343e+000
1198398375 -4.176689e+001 8.101950e+001 -3.131736e-002 -5.917367e+001 -3.272994e-002 -5.918791e+001 -4.006045e+001 -1.003670e+001
1215273000 -4.203813e+001 8.066109e+001 -3.929788e-002 -6.001160e+001 -2.857162e-002 -6.002843e+001 -4.040803e+001 -1.654805e+001
1232147625 -4.196928e+001 7.689631e+001 -3.518033e-002 -6.082839e+001 -3.557215e-002 -6.085823e+001 -3.990207e+001 -1.752377e+001
1249022250 -4.195303e+001 7.794366e+001 -3.069616e-002 -6.168860e+001 -3.288182e-002 -6.167663e+001 -4.049345e+001 -1.756961e+001
1265896875 -4.154545e+001 7.676775e+001 -3.668235e-002 -6.249234e+001 -3.390427e-002 -6.253820e+001 -4.026588e+001 -1.302485e+001
1282771500 -4.178304e+001 7.524713e+001 -3.034420e-002 -6.334578e+001 -3.896135e-002 -6.334918e+001 -3.973299e+001 -1.537505e+001
1299646125 -4.114937e+001 7.086718e+001 -3.246698e-002 -6.416974e+001 -3.562479e-002 -6.417867e+001 -3.957967e+001 -1.314269e+001
1316520750 -4.104824e+001 6.760088e+001 -3.367089e-002 -6.503220e+001 -3.744542e-002 -6.499754e+001 -3.964669e+001 -1.322079e+001
1333395375 -4.143380e+001 6.518920e+001 -3.005707e-002 -6.582127e+001 -3.451357e-002 -6.583208e+001 -3.989965e+001 -9.551468e+000
1350270000 -4.090187e+001 6.280354e+001 -3.430575e-002 -6.667524e+001 -2.984644e-002 -6.666427e+001 -3.973077e+001 -8.740372e+000
1367144625 -4.105293e+001 6.399258e+001 -3.232883e-002 -6.749290e+001 -3.556658e-002 -6.751835e+001 -4.058479e+001 -1.210586e+001
1384019250 -4.194170e+001 6.852544e+001 -3.321387e-002 -6.834823e+001 -3.386239e-002 -6.832094e+001 -4.068099e+001 -7.110801e+000
1400893875 -4.097781e+001 6.922486e+001 -3.581648e-002 -6.917909e+001 -3.286671e-002 -6.917110e+001 -4.125082e+001 -1.129386e+001
1417768500 -4.156800e+001 6.650547e+001 -3.159883e-002 -7.000871e+001 -3.338647e-002 -6.998595e+001 -4.038754e+001 -5.446520e+000
1434643125 -4.231236e+001 6.435526e+001 -3.009422e-002 -7.083698e+001 -3.549961e-002 -7.080064e+001 -4.117599e+001 -1.181526e+001
1451517750 -4.156073e+001 6.477258e+001 -3.423463e-002 -7.165075e+001 -4.030285e-002 -7.166638e+001 -4.130796e+001 -9.022739e+000
1468392375 -4.131348e+001 6.100138e+001 -3.148465e-002 -7.249880e+001 -3.407894e-002 -7.249033e+001 -4.078443e+001 -9.297960e+000
1485267000 -4.099274e+001 6.125711e+001 -2.283544e-002 -7.333707e+001 -2.889553e-002 -7.333730e+001 -4.086342e+001 -1.154165e+001
1502141625 -4.042327e+001 5.356144e+001 -4.178178e-002 -7.420690e+001 -3.746965e-002 -7.415853e+001 -4.041447e+001 -5.439352e+000
1519016250 -4.061293e+001 4.957314e+001 -3.906927e-002 -7.497735e+001 -3.461181e-002 -7.495676e+001 -4.019301e+001 -7.836181e-001
1535890875 -3.988921e+001 5.196164e+001 -3.687665e-002 -7.580151e+001 -3.857159e-002 -7.581165e+001 -4.000441e+001 -2.912485e+000
1552765500 -3.987229e+001 4.637468e+001 -3.238747e-002 -7.665758e+001 -3.885591e-002 -7.663511e+001 -3.976224e+001 2.546182e+000
1569640125 -3.994793e+001 4.742183e+001 -3.863816e-002 -7.747398e+001 -4.421349e-002 -7.747301e+001 -4.004470e+001 5.616194e+000
1586514750 -4.024303e+001 4.085020e+001 -3.412692e-002 -7.831072e+001 -4.157551e-002 -7.829236e+001 -4.041210e+001 1.296378e+000
1603389375 -4.127673e+001 4.145159e+001 -3.725636e-002 -7.915501e+001 -3.077173e-002 -7.913835e+001 -4.141711e+001 8.123333e+000
1620264000 -4.209225e+001 3.615310e+001 -4.022868e-002 -7.997994e+001 -3.486374e-002 -7.997757e+001 -4.125730e+001 4.864492e+000
1637138625 -4.102263e+001 4.088234e+001 -3.671534e-002 -8.080827e+001 -4.450677e-002 -8.082646e+001 -4.133067e+001 1.045947e+001
1654013250 -4.172681e+001 3.122922e+001 -4.248398e-002 -8.163491e+001 -4.072107e-002 -8.163963e+001 -4.154942e+001 1.009847e+001
1670887875 -4.119562e+001 3.350740e+001 -3.356166e-002 -8.247378e+001 -4.618291e-002 -8.248392e+001 -4.172598e+001 1.073964e+001
1687762500 -4.169557e+001 3.132805e+001 -3.365116e-002 -8.329491e+001 -4.322511e-002 -8.331572e+001 -4.115311e+001 7.516805e+000
1704637125 -4.040839e+001 2.206350e+001 -3.326697e-002 -8.413348e+001 -3.093875e-002 -8.416469e+001 -4.119042e+001 1.141035e+001
1721511750 -4.057591e+001 2.274877e+001 -3.647523e-002 -8.498483e+001 -3.934666e-002 -8.498592e+001 -4.089060e+001 1.168367e+001
1738386375 -3.998963e+001 1.840873e+001 -3.929752e-002 -8.583612e+001 -3.700225e-002 -8.581184e+001 -4.062149e+001 1.537575e+001
1755261000 -3.978384e+001 1.875572e+001 -4.264143e-002 -8.665303e+001 -4.041743e-002 -8.665257e+001 -4.042532e+001 1.655398e+001
1772135625 -3.958436e+001 1.236673e+001 -3.901684e-002 -8.749172e+001 -4.484658e-002 -8.748361e+001 -3.979215e+001 1.949532e+001
1789010250 -3.960325e+001 1.248167e+001 -3.673635e-002 -8.831863e+001 -4.037533e-002 -8.830939e+001 -3.985467e+001 2.253349e+001
1805884875 -3.988620e+001 1.021679e+001 -4.545721e-002 -8.914493e+001 -4.099458e-002 -8.915626e+001 -3.976969e+001 2.186340e+001
1822759500 -3.970844e+001 6.527815e+000 -4.145375e-002 -8.998168e+001 -3.546488e-002 -8.998556e+001 -4.061290e+001 2.393457e+001
1839634125 -3.968475e+001 -5.455727e-001 -3.778349e-002 -9.083641e+001 -4.017805e-002 -9.084063e+001 -4.032287e+001 2.765763e+001
1856508750 -4.013686e+001 -1.642109e+000 -4.316268e-002 -9.164476e+001 -3.933105e-002 -9.164188e+001 -4.063974e+001 2.922110e+001
1873383375 -3.988155e+001 -5.744857e+000 -4.181090e-002 -9.252106e+001 -3.756301e-002 -9.247237e+001 -4.012984e+001 2.803209e+001
1890258000 -3.997730e+001 -7.539182e+000 -3.380622e-002 -9.329135e+001 -4.234163e-002 -9.332191e+001 -3.987336e+001 2.891134e+001
1907132625 -3.969468e+001 -7.527220e+000 -4.184424e-002 -9.414292e+001 -4.624239e-002 -9.414249e+001 -3.985842e+001 2.777089e+001
1924007250 -3.917527e+001 -1.035244e+001 -4.088240e-002 -9.500502e+001 -4.416465e-002 -9.498216e+001 -4.000159e+001 2.637073e+001
1940881875 -3.924321e+001 -1.637987e+001 -4.066052e-002 -9.584167e+001 -4.171399e-002 -9.580908e+001 -3.947649e+001 2.319923e+001
1957756500 -3.858002e+001 -1.835914e+001 -3.834205e-002 -9.664722e+001 -4.060609e-002 -9.667482e+001 -3.929655e+001 2.714641e+001
1974631125 -3.859961e+001 -1.867535e+001 -3.644374e-002 -9.747887e+001 -4.640831e-002 -9.751266e+001 -3.877277e+001 2.684515e+001
1991505750 -3.818617e+001 -2.362136e+001 -4.517286e-002 -9.831899e+001 -4.837494e-002 -9.829858e+001 -3.864539e+001 2.800748e+001
2008380375 -3.822510e+001 -2.496100e+001 -3.806417e-002 -9.913343e+001 -4.372455e-002 -9.915830e+001 -3.843587e+001 3.247836e+001
2025255000 -3.815505e+001 -3.132626e+001 -3.666644e-002 -9.997592e+001 -4.557157e-002 -9.997646e+001 -3.809874e+001 3.302550e+001
2042129625 -3.864521e+001 -3.088222e+001 -3.479540e-002 -1.008156e+002 -4.536477e-002 -1.007889e+002 -3.828779e+001 3.028027e+001
2059004250 -3.825027e+001 -4.136569e+001 -4.307821e-002 -1.016559e+002 -3.651829e-002 -1.016313e+002 -3.854673e+001 3.268169e+001
2075878875 -3.755581e+001 -3.979317e+001 -3.680985e-002 -1.024757e+002 -4.647669e-002 -1.025011e+002 -3.872728e+001 3.299458e+001
2092753500 -3.817429e+001 -4.467180e+001 -4.403349e-002 -1.033434e+002 -4.096325e-002 -1.033401e+002 -3.813411e+001 3.477509e+001
2109628125 -3.780732e+001 -4.519901e+001 -3.550706e-002 -1.041488e+002 -4.232392e-002 -1.041533e+002 -3.799433e+001 3.493707e+001
2126502750 -3.790186e+001 -4.588630e+001 -4.268682e-002 -1.049762e+002 -3.954561e-002 -1.049851e+002 -3.787766e+001 3.617133e+001
2143377375 -3.721152e+001 -4.746061e+001 -3.926500e-002 -1.058185e+002 -4.112402e-002 -1.058001e+002 -3.738449e+001 3.136024e+001
2160252000 -3.688888e+001 -4.914980e+001 -4.519414e-002 -1.066312e+002 -4.260043e-002 -1.066409e+002 -3.731467e+001 2.841806e+001
2177126625 -3.690875e+001 -5.403330e+001 -5.425221e-002 -1.074762e+002 -5.002670e-002 -1.074963e+002 -3.710169e+001 2.678509e+001
2194001250 -3.615849e+001 -5.486589e+001 -3.924032e-002 -1.083061e+002 -3.942015e-002 -1.083175e+002 -3.729351e+001 2.809625e+001
2210875875 -3.619014e+001 -5.675297e+001 -2.969784e-002 -1.091416e+002 -3.467861e-002 -1.091587e+002 -3.687638e+001 2.994466e+001
2227750500 -3.606941e+001 -6.233028e+001 -3.369590e-002 -1.099837e+002 -4.515388e-002 -1.100038e+002 -3.634064e+001 3.088780e+001
2244625125 -3.626375e+001 -6.168909e+001 -4.609838e-002 -1.108342e+002 -4.751360e-002 -1.108212e+002 -3.606017e+001 2.999502e+001
2261499750 -3.622456e+001 -6.531298e+001 -4.528260e-002 -1.116653e+002 -4.342779e-002 -1.116233e+002 -3.601734e+001 3.363097e+001
2278374375 -3.615288e+001 -6.695840e+001 -4.882402e-002 -1.124846e+002 -4.753920e-002 -1.124815e+002 -3.633443e+001 3.041417e+001
2295249000 -3.599733e+001 -6.915331e+001 -4.777648e-002 -1.133305e+002 -4.495531e-002 -1.132878e+002 -3.620264e+001 2.987601e+001
2312123625 -3.563920e+001 -7.002979e+001 -4.050626e-002 -1.141430e+002 -5.209447e-002 -1.141454e+002 -3.633120e+001 3.190770e+001
2328998250 -3.571218e+001 -7.042783e+001 -4.147322e-002 -1.149736e+002 -4.932253e-002 -1.149846e+002 -3.583516e+001 2.909697e+001
2345872875 -3.560477e+001 -7.266464e+001 -4.525665e-002 -1.158168e+002 -4.171266e-002 -1.158390e+002 -3.585339e+001 3.048502e+001
2362747500 -3.510836e+001 -7.449530e+001 -3.444090e-002 -1.166496e+002 -3.964582e-002 -1.166358e+002 -3.552652e+001 2.983046e+001
2379622125 -3.545755e+001 -7.677183e+001 -4.404614e-002 -1.174476e+002 -4.467447e-002 -1.174829e+002 -3.526581e+001 2.732500e+001
2396496750 -3.522538e+001 -7.814938e+001 -4.991570e-002 -1.182898e+002 -5.278390e-002 -1.183038e+002 -3.518954e+001 2.376425e+001
2413371375 -3.498223e+001 -7.805133e+001 -4.871124e-002 -1.191317e+002 -5.175385e-002 -1.191391e+002 -3.518828e+001 2.591281e+001
2430246000 -3.480712e+001 -7.996812e+001 -4.697757e-002 -1.199616e+002 -4.611545e-002 -1.199734e+002 -3.509830e+001 2.477045e+001
2447120625 -3.487971e+001 -8.184763e+001 -4.323750e-002 -1.208052e+002 -4.723923e-002 -1.208282e+002 -3.499452e+001 2.647739e+001
2463995250 -3.488190e+001 -8.370217e+001 -4.987836e-002 -1.216434e+002 -4.742955e-002 -1.216236e+002 -3.473833e+001 2.584175e+001
2480869875 -3.472967e+001 -8.642808e+001 -4.679936e-002 -1.224668e+002 -4.894707e-002 -1.224626e+002 -3.483440e+001 2.752278e+001
2497744500 -3.479515e+001 -8.552699e+001 -4.993180e-002 -1.233040e+002 -4.914444e-002 -1.232973e+002 -3.474482e+001 2.669827e+001
2514619125 -3.477981e+001 -8.930853e+001 -4.955591e-002 -1.241171e+002 -4.878795e-002 -1.241403e+002 -3.513407e+001 2.317835e+001
2531493750 -3.460598e+001 -9.057181e+001 -4.439377e-002 -1.249394e+002 -4.690594e-002 -1.249994e+002 -3.537190e+001 2.524343e+001
2548368375 -3.465118e+001 -8.980981e+001 -4.518994e-002 -1.257959e+002 -5.857905e-002 -1.257799e+002 -3.485494e+001 1.853485e+001
