!Agilent Technologies,N5230C,MY48100320,A.08.04.10
!Agilent N5230C: A.08.04.10
!Date: Friday, July 15, 2016 04:10:22
!Correction: S11(Full 2 Port(1,2)) 
!S21(Full 2 Port(1,2)) 
!S12(Full 2 Port(1,2)) 
!S22(Full 2 Port(1,2)) 
!S2P File: Measurements: S11, S21, S12, S22:
# Hz S  dB   R 50
300000 -2.424442e+001 8.343271e+001 -7.217033e-002 -3.366249e+000 -4.189846e-002 -3.669894e+000 -2.432803e+001 8.030797e+001
67798500 -5.160791e+001 6.821761e+001 -9.902490e-003 -5.539447e+000 -1.217108e-002 -5.566558e+000 -5.605767e+001 5.834455e+001
135297000 -4.832090e+001 6.241272e+001 -1.819786e-002 -1.109265e+001 -1.591488e-002 -1.109009e+001 -4.938783e+001 5.073709e+001
202795500 -4.699573e+001 6.121235e+001 -1.846177e-002 -1.656077e+001 -1.877865e-002 -1.655707e+001 -4.650905e+001 3.843123e+001
270294000 -4.595197e+001 7.167030e+001 -2.000349e-002 -2.204642e+001 -2.091923e-002 -2.205363e+001 -4.556247e+001 3.595778e+001
337792500 -4.464308e+001 8.714598e+001 -2.122687e-002 -2.755102e+001 -1.925750e-002 -2.755854e+001 -4.441188e+001 2.089646e+001
405291000 -4.272734e+001 7.629610e+001 -2.143841e-002 -3.303305e+001 -2.048596e-002 -3.303085e+001 -4.285561e+001 1.718249e+001
472789500 -4.134158e+001 8.233140e+001 -2.375840e-002 -3.853133e+001 -2.234608e-002 -3.853515e+001 -4.257681e+001 1.049934e+001
540288000 -4.102903e+001 9.049833e+001 -2.222900e-002 -4.403266e+001 -2.311155e-002 -4.404162e+001 -4.208843e+001 -1.345306e+001
607786500 -4.112278e+001 9.545170e+001 -2.697971e-002 -4.951391e+001 -2.941840e-002 -4.951085e+001 -4.143076e+001 -3.100522e+001
675285000 -4.120646e+001 9.810115e+001 -3.112932e-002 -5.499711e+001 -2.848662e-002 -5.500094e+001 -4.106860e+001 -3.985426e+001
742783500 -4.037603e+001 1.093071e+002 -2.980279e-002 -6.050732e+001 -3.302094e-002 -6.049759e+001 -4.073354e+001 -6.224918e+001
810282000 -4.132386e+001 1.111139e+002 -3.617916e-002 -6.595271e+001 -3.916086e-002 -6.597526e+001 -3.998251e+001 -7.805929e+001
877780500 -4.155149e+001 1.155704e+002 -3.814955e-002 -7.140353e+001 -3.827307e-002 -7.139849e+001 -4.034972e+001 -8.993468e+001
945279000 -4.141373e+001 1.212209e+002 -3.903383e-002 -7.693018e+001 -3.704596e-002 -7.689342e+001 -4.055231e+001 -1.089348e+002
1012777500 -4.126311e+001 1.337813e+002 -3.740397e-002 -8.239302e+001 -3.978993e-002 -8.235519e+001 -3.982283e+001 -1.259696e+002
1080276000 -4.114023e+001 1.401010e+002 -3.911705e-002 -8.787623e+001 -4.089224e-002 -8.787899e+001 -4.101093e+001 -1.485452e+002
1147774500 -4.024096e+001 1.529834e+002 -4.091104e-002 -9.337061e+001 -4.303042e-002 -9.335751e+001 -4.008814e+001 -1.702079e+002
1215273000 -4.005269e+001 1.703726e+002 -4.095855e-002 -9.883820e+001 -4.246321e-002 -9.883234e+001 -3.987944e+001 1.748920e+002
1282771500 -4.004862e+001 1.768473e+002 -4.584455e-002 -1.043077e+002 -4.541276e-002 -1.042981e+002 -3.950439e+001 1.490813e+002
1350270000 -3.869227e+001 -1.759285e+002 -4.792801e-002 -1.098202e+002 -4.499407e-002 -1.097698e+002 -3.880481e+001 1.313607e+002
1417768500 -3.820210e+001 -1.680526e+002 -4.934006e-002 -1.152722e+002 -4.582940e-002 -1.152810e+002 -3.844960e+001 1.115239e+002
1485267000 -3.729574e+001 -1.610830e+002 -4.835188e-002 -1.207660e+002 -4.781766e-002 -1.207620e+002 -3.726742e+001 9.263628e+001
1552765500 -3.711623e+001 -1.507991e+002 -5.672423e-002 -1.262320e+002 -5.307183e-002 -1.262423e+002 -3.623511e+001 7.423689e+001
1620264000 -3.593667e+001 -1.508544e+002 -5.329219e-002 -1.317314e+002 -5.386906e-002 -1.317424e+002 -3.559387e+001 5.928884e+001
1687762500 -3.514425e+001 -1.441265e+002 -5.964857e-002 -1.372199e+002 -5.562397e-002 -1.371719e+002 -3.457408e+001 4.190190e+001
1755261000 -3.442058e+001 -1.398615e+002 -6.007739e-002 -1.426852e+002 -5.667254e-002 -1.426893e+002 -3.380784e+001 2.889256e+001
1822759500 -3.364718e+001 -1.363437e+002 -6.273180e-002 -1.481714e+002 -6.288861e-002 -1.481673e+002 -3.288161e+001 1.457904e+001
1890258000 -3.267057e+001 -1.331043e+002 -6.582512e-002 -1.536348e+002 -6.099657e-002 -1.536204e+002 -3.209812e+001 -3.991019e-001
1957756500 -3.204847e+001 -1.317330e+002 -6.673307e-002 -1.591298e+002 -6.421218e-002 -1.591059e+002 -3.148181e+001 -1.121527e+001
2025255000 -3.144657e+001 -1.309090e+002 -6.981383e-002 -1.645939e+002 -6.844737e-002 -1.645837e+002 -3.107951e+001 -2.434712e+001
2092753500 -3.083143e+001 -1.279029e+002 -7.082048e-002 -1.700913e+002 -7.392479e-002 -1.701062e+002 -3.041871e+001 -3.653151e+001
2160252000 -3.059372e+001 -1.267572e+002 -7.685443e-002 -1.755219e+002 -7.154881e-002 -1.755492e+002 -3.002034e+001 -4.882413e+001
2227750500 -3.017012e+001 -1.267465e+002 -7.873842e-002 1.790032e+002 -7.487953e-002 1.789685e+002 -2.978219e+001 -5.979294e+001
2295249000 -2.994398e+001 -1.256780e+002 -7.594655e-002 1.735269e+002 -7.387411e-002 1.735176e+002 -2.959639e+001 -7.079701e+001
2362747500 -2.991366e+001 -1.250953e+002 -8.105486e-002 1.680398e+002 -7.674134e-002 1.680406e+002 -2.959171e+001 -8.137057e+001
2430246000 -3.004200e+001 -1.251272e+002 -7.709417e-002 1.625678e+002 -8.070300e-002 1.625889e+002 -2.977174e+001 -9.356512e+001
2497744500 -3.039754e+001 -1.235006e+002 -7.813697e-002 1.570958e+002 -7.836109e-002 1.570801e+002 -2.982555e+001 -1.037179e+002
2565243000 -3.060328e+001 -1.226814e+002 -8.437429e-002 1.516223e+002 -7.403193e-002 1.515779e+002 -3.053575e+001 -1.161096e+002
2632741500 -3.112378e+001 -1.207047e+002 -8.284260e-002 1.461234e+002 -8.327198e-002 1.461396e+002 -3.129672e+001 -1.294420e+002
2700240000 -3.205351e+001 -1.202273e+002 -8.297575e-002 1.406547e+002 -8.326240e-002 1.406449e+002 -3.175814e+001 -1.414388e+002
2767738500 -3.284440e+001 -1.152103e+002 -8.149024e-002 1.351687e+002 -8.544303e-002 1.351491e+002 -3.308554e+001 -1.546906e+002
2835237000 -3.377090e+001 -1.114415e+002 -8.201803e-002 1.296763e+002 -8.551434e-002 1.296802e+002 -3.413780e+001 -1.729987e+002
2902735500 -3.485976e+001 -1.036086e+002 -8.512019e-002 1.242063e+002 -8.497767e-002 1.241989e+002 -3.508301e+001 1.688996e+002
2970234000 -3.547523e+001 -9.114094e+001 -8.635963e-002 1.187122e+002 -8.790994e-002 1.187297e+002 -3.607885e+001 1.438581e+002
3037732500 -3.542306e+001 -8.082143e+001 -9.076905e-002 1.132328e+002 -8.838359e-002 1.132464e+002 -3.527316e+001 1.203131e+002
3105231000 -3.472980e+001 -6.936846e+001 -9.316024e-002 1.077582e+002 -9.068788e-002 1.077730e+002 -3.509112e+001 9.600261e+001
3172729500 -3.394532e+001 -6.047476e+001 -8.999052e-002 1.022816e+002 -9.266929e-002 1.022668e+002 -3.393772e+001 7.327939e+001
3240228000 -3.307615e+001 -5.492394e+001 -9.496144e-002 9.681458e+001 -8.896498e-002 9.679100e+001 -3.289291e+001 5.850236e+001
3307726500 -3.225581e+001 -5.210566e+001 -9.734911e-002 9.134931e+001 -9.785866e-002 9.135503e+001 -3.203016e+001 4.367960e+001
3375225000 -3.180698e+001 -5.322657e+001 -9.584900e-002 8.585880e+001 -9.502615e-002 8.585780e+001 -3.132522e+001 2.885974e+001
3442723500 -3.178844e+001 -5.054261e+001 -1.022980e-001 8.039292e+001 -1.039021e-001 8.037936e+001 -3.053147e+001 1.814028e+001
3510222000 -3.114602e+001 -5.311639e+001 -1.047357e-001 7.493353e+001 -9.757175e-002 7.491887e+001 -3.055679e+001 7.237196e+000
3577720500 -3.162885e+001 -5.462959e+001 -1.037826e-001 6.944344e+001 -1.015158e-001 6.947588e+001 -3.027419e+001 -4.005890e+000
3645219000 -3.201231e+001 -5.919511e+001 -1.023839e-001 6.399178e+001 -1.083454e-001 6.397631e+001 -3.046521e+001 -1.179661e+001
3712717500 -3.220731e+001 -6.098449e+001 -1.061981e-001 5.852640e+001 -1.033703e-001 5.848544e+001 -3.078293e+001 -2.360875e+001
3780216000 -3.345833e+001 -6.315187e+001 -1.134786e-001 5.303065e+001 -1.083536e-001 5.302004e+001 -3.122119e+001 -3.354739e+001
3847714500 -3.463451e+001 -6.854797e+001 -1.101094e-001 4.754604e+001 -1.074980e-001 4.758480e+001 -3.244738e+001 -4.479185e+001
3915213000 -3.581484e+001 -7.104633e+001 -1.088175e-001 4.207161e+001 -1.125419e-001 4.209255e+001 -3.338044e+001 -5.727288e+001
3982711500 -3.880940e+001 -7.744617e+001 -1.131373e-001 3.662621e+001 -1.079674e-001 3.660936e+001 -3.516217e+001 -7.026565e+001
4050210000 -4.213861e+001 -7.862569e+001 -1.143896e-001 3.114138e+001 -1.164376e-001 3.113820e+001 -3.681733e+001 -8.794846e+001
4117708500 -4.829536e+001 -9.353866e+001 -1.227593e-001 2.567462e+001 -1.112799e-001 2.564820e+001 -3.927625e+001 -1.149141e+002
4185207000 -5.924999e+001 -1.789313e+002 -1.204065e-001 2.019882e+001 -1.188256e-001 2.016105e+001 -4.082432e+001 -1.388980e+002
4252705500 -4.645466e+001 1.107037e+002 -1.265156e-001 1.472684e+001 -1.167801e-001 1.472689e+001 -4.023637e+001 1.766776e+002
4320204000 -4.106908e+001 1.001069e+002 -1.206884e-001 9.246794e+000 -1.227310e-001 9.216484e+000 -3.838650e+001 1.465146e+002
4387702500 -3.815186e+001 9.208220e+001 -1.259345e-001 3.773029e+000 -1.235419e-001 3.743475e+000 -3.618023e+001 1.305170e+002
4455201000 -3.636060e+001 8.817796e+001 -1.242876e-001 -1.709841e+000 -1.282815e-001 -1.702416e+000 -3.436391e+001 1.134364e+002
4522699500 -3.452116e+001 7.985651e+001 -1.250158e-001 -7.183577e+000 -1.329911e-001 -7.170573e+000 -3.301266e+001 1.020258e+002
4590198000 -3.377957e+001 7.614271e+001 -1.302970e-001 -1.266190e+001 -1.273192e-001 -1.266783e+001 -3.166546e+001 9.443951e+001
4657696500 -3.308151e+001 7.161038e+001 -1.292703e-001 -1.813711e+001 -1.283350e-001 -1.813976e+001 -3.126232e+001 8.131924e+001
4725195000 -3.296297e+001 6.561188e+001 -1.266823e-001 -2.360438e+001 -1.310165e-001 -2.358577e+001 -3.071408e+001 7.599268e+001
4792693500 -3.326138e+001 6.119448e+001 -1.321401e-001 -2.908041e+001 -1.323722e-001 -2.906507e+001 -3.050989e+001 6.814887e+001
4860192000 -3.271841e+001 5.967806e+001 -1.342314e-001 -3.454745e+001 -1.345823e-001 -3.455930e+001 -2.991908e+001 5.665894e+001
4927690500 -3.362506e+001 5.378299e+001 -1.414597e-001 -4.002475e+001 -1.329543e-001 -4.001932e+001 -3.006640e+001 5.039231e+001
4995189000 -3.387593e+001 4.933083e+001 -1.353859e-001 -4.552039e+001 -1.298722e-001 -4.552884e+001 -3.004811e+001 4.261688e+001
5062687500 -3.432108e+001 4.507355e+001 -1.361101e-001 -5.096678e+001 -1.342692e-001 -5.099280e+001 -3.014561e+001 3.249201e+001
5130186000 -3.516730e+001 4.200604e+001 -1.379064e-001 -5.647252e+001 -1.398579e-001 -5.648076e+001 -3.034594e+001 2.232507e+001
5197684500 -3.618789e+001 4.163982e+001 -1.390200e-001 -6.193586e+001 -1.380490e-001 -6.196361e+001 -3.090959e+001 1.474547e+001
5265183000 -3.735168e+001 3.014600e+001 -1.431496e-001 -6.742027e+001 -1.362825e-001 -6.742403e+001 -3.167312e+001 5.015397e+000
5332681500 -3.896973e+001 2.945071e+001 -1.382011e-001 -7.288972e+001 -1.395692e-001 -7.288623e+001 -3.205995e+001 -3.813866e+000
5400180000 -4.112304e+001 2.734545e+001 -1.410398e-001 -7.839410e+001 -1.416712e-001 -7.840057e+001 -3.334674e+001 -1.703028e+001
5467678500 -4.199629e+001 1.892468e+001 -1.480623e-001 -8.385390e+001 -1.470005e-001 -8.389091e+001 -3.408733e+001 -2.801999e+001
5535177000 -4.521275e+001 2.285628e+001 -1.468609e-001 -8.933717e+001 -1.484597e-001 -8.938582e+001 -3.520373e+001 -3.960165e+001
5602675500 -4.709329e+001 1.517545e+001 -1.520631e-001 -9.481997e+001 -1.488854e-001 -9.485294e+001 -3.678073e+001 -5.450044e+001
5670174000 -5.163784e+001 3.711411e+001 -1.484356e-001 -1.003095e+002 -1.515847e-001 -1.002972e+002 -3.832974e+001 -7.485685e+001
5737672500 -5.552210e+001 1.999489e+001 -1.549639e-001 -1.057795e+002 -1.539707e-001 -1.057848e+002 -3.867865e+001 -9.201764e+001
5805171000 -5.819614e+001 7.557906e+001 -1.564837e-001 -1.112436e+002 -1.545574e-001 -1.112923e+002 -4.136900e+001 -1.119921e+002
5872669500 -5.994978e+001 1.082735e+002 -1.608233e-001 -1.167409e+002 -1.598190e-001 -1.167665e+002 -4.015732e+001 -1.372061e+002
5940168000 -5.629794e+001 1.009396e+002 -1.618689e-001 -1.222293e+002 -1.657779e-001 -1.222560e+002 -4.042973e+001 -1.542348e+002
6007666500 -4.923605e+001 1.364526e+002 -1.648660e-001 -1.276972e+002 -1.644580e-001 -1.277227e+002 -3.967285e+001 -1.785326e+002
6075165000 -5.267207e+001 1.245423e+002 -1.692128e-001 -1.332217e+002 -1.624558e-001 -1.332096e+002 -3.948036e+001 1.662096e+002
6142663500 -4.922234e+001 1.366296e+002 -1.708492e-001 -1.386674e+002 -1.666622e-001 -1.386854e+002 -3.967768e+001 1.463967e+002
6210162000 -5.006226e+001 1.144736e+002 -1.721691e-001 -1.441684e+002 -1.724937e-001 -1.441612e+002 -3.908532e+001 1.415813e+002
6277660500 -4.640129e+001 1.182484e+002 -1.728732e-001 -1.496245e+002 -1.781035e-001 -1.496357e+002 -3.971258e+001 1.192095e+002
6345159000 -4.685392e+001 1.120648e+002 -1.757241e-001 -1.551020e+002 -1.763437e-001 -1.551474e+002 -4.001754e+001 1.074094e+002
6412657500 -4.687544e+001 1.038902e+002 -1.812529e-001 -1.606157e+002 -1.773795e-001 -1.605905e+002 -4.021822e+001 9.050340e+001
6480156000 -4.598320e+001 1.100463e+002 -1.816053e-001 -1.660853e+002 -1.841918e-001 -1.661053e+002 -3.976683e+001 6.680000e+001
6547654500 -4.662220e+001 1.185367e+002 -1.899494e-001 -1.715642e+002 -1.853328e-001 -1.715610e+002 -3.937222e+001 4.007663e+001
6615153000 -4.444028e+001 1.164315e+002 -1.876807e-001 -1.770836e+002 -1.860389e-001 -1.770804e+002 -3.847177e+001 2.313572e+001
6682651500 -4.409797e+001 1.286806e+002 -1.960796e-001 1.774550e+002 -1.947391e-001 1.774587e+002 -3.738348e+001 4.260535e+000
6750150000 -4.121657e+001 1.292860e+002 -1.952949e-001 1.719952e+002 -1.971966e-001 1.719558e+002 -3.566228e+001 -1.135689e+001
6817648500 -4.040893e+001 1.384870e+002 -2.011309e-001 1.664883e+002 -1.964406e-001 1.664738e+002 -3.414118e+001 -2.490337e+001
6885147000 -3.783296e+001 1.378635e+002 -2.099403e-001 1.610187e+002 -2.032598e-001 1.609934e+002 -3.290278e+001 -3.304920e+001
6952645500 -3.587391e+001 1.420804e+002 -2.127864e-001 1.555433e+002 -2.085373e-001 1.555334e+002 -3.171887e+001 -4.475088e+001
7020144000 -3.460064e+001 1.399405e+002 -2.124611e-001 1.500283e+002 -2.126724e-001 1.500231e+002 -3.041081e+001 -5.260980e+001
7087642500 -3.282790e+001 1.362445e+002 -2.153565e-001 1.445791e+002 -2.190010e-001 1.445514e+002 -2.981243e+001 -6.035427e+001
7155141000 -3.197787e+001 1.363834e+002 -2.203649e-001 1.390741e+002 -2.210066e-001 1.390509e+002 -2.906032e+001 -6.982204e+001
7222639500 -3.081317e+001 1.327003e+002 -2.239313e-001 1.336026e+002 -2.246526e-001 1.336034e+002 -2.855296e+001 -7.694652e+001
7290138000 -3.014798e+001 1.321578e+002 -2.321422e-001 1.281401e+002 -2.308636e-001 1.281179e+002 -2.835814e+001 -8.450251e+001
7357636500 -2.932388e+001 1.273561e+002 -2.318118e-001 1.226188e+002 -2.354579e-001 1.226351e+002 -2.808785e+001 -9.177480e+001
7425135000 -2.901677e+001 1.267412e+002 -2.414780e-001 1.171681e+002 -2.384586e-001 1.171436e+002 -2.806962e+001 -9.908193e+001
7492633500 -2.868218e+001 1.249962e+002 -2.453564e-001 1.117075e+002 -2.441177e-001 1.116995e+002 -2.846214e+001 -1.074868e+002
7560132000 -2.855554e+001 1.229907e+002 -2.486476e-001 1.062043e+002 -2.454184e-001 1.062080e+002 -2.898296e+001 -1.182891e+002
7627630500 -2.884007e+001 1.221497e+002 -2.537554e-001 1.007050e+002 -2.502618e-001 1.007239e+002 -2.968265e+001 -1.254005e+002
7695129000 -2.911234e+001 1.205494e+002 -2.516519e-001 9.523424e+001 -2.582674e-001 9.520776e+001 -3.096594e+001 -1.370278e+002
7762627500 -2.962912e+001 1.249508e+002 -2.636518e-001 8.973116e+001 -2.554795e-001 8.971355e+001 -3.184875e+001 -1.508184e+002
7830126000 -3.002522e+001 1.272405e+002 -2.665368e-001 8.425527e+001 -2.644016e-001 8.423701e+001 -3.390435e+001 -1.647134e+002
7897624500 -3.068809e+001 1.323448e+002 -2.724564e-001 7.878506e+001 -2.728571e-001 7.875092e+001 -3.588338e+001 1.648071e+002
7965123000 -3.085011e+001 1.423221e+002 -2.774270e-001 7.325563e+001 -2.782959e-001 7.324377e+001 -3.642760e+001 1.334507e+002
8032621500 -3.081536e+001 1.533251e+002 -2.852377e-001 6.774402e+001 -2.851712e-001 6.773024e+001 -3.485050e+001 9.752973e+001
8100120000 -3.035511e+001 1.654682e+002 -2.909099e-001 6.224411e+001 -2.859564e-001 6.225103e+001 -3.194764e+001 7.462572e+001
8167618500 -2.904640e+001 1.748341e+002 -3.008563e-001 5.675259e+001 -2.962119e-001 5.677611e+001 -2.957657e+001 5.953211e+001
8235117000 -2.779645e+001 -1.787946e+002 -3.047598e-001 5.124494e+001 -3.105717e-001 5.125973e+001 -2.763563e+001 4.823550e+001
8302615500 -2.665473e+001 -1.760935e+002 -3.189923e-001 4.577583e+001 -3.186927e-001 4.574483e+001 -2.612410e+001 3.742012e+001
8370114000 -2.533457e+001 -1.730025e+002 -3.230757e-001 4.025826e+001 -3.217085e-001 4.029269e+001 -2.478946e+001 2.834592e+001
8437612500 -2.451636e+001 -1.737790e+002 -3.307552e-001 3.475598e+001 -3.301841e-001 3.480697e+001 -2.383126e+001 2.134263e+001
8505111000 -2.350132e+001 -1.743853e+002 -3.429228e-001 2.933067e+001 -3.354119e-001 2.932685e+001 -2.297187e+001 1.390800e+001
8572609500 -2.277317e+001 -1.755143e+002 -3.502186e-001 2.384042e+001 -3.477586e-001 2.383440e+001 -2.233720e+001 6.967161e+000
8640108000 -2.230287e+001 -1.790703e+002 -3.517237e-001 1.840931e+001 -3.598803e-001 1.837142e+001 -2.198991e+001 3.065017e-001
8707606500 -2.186895e+001 1.790368e+002 -3.693661e-001 1.290282e+001 -3.623387e-001 1.292933e+001 -2.173353e+001 -6.571790e+000
8775105000 -2.180004e+001 1.757415e+002 -3.714134e-001 7.436512e+000 -3.710628e-001 7.471495e+000 -2.150227e+001 -1.317483e+001
8842603500 -2.162535e+001 1.718628e+002 -3.791965e-001 2.018189e+000 -3.782105e-001 1.986761e+000 -2.170411e+001 -1.942336e+001
8910102000 -2.190953e+001 1.682873e+002 -3.840744e-001 -3.473119e+000 -3.776084e-001 -3.476517e+000 -2.183710e+001 -2.620164e+001
8977600500 -2.223200e+001 1.634037e+002 -3.907679e-001 -8.896489e+000 -3.822334e-001 -8.947658e+000 -2.233235e+001 -3.181733e+001
9045099000 -2.291035e+001 1.585334e+002 -3.909811e-001 -1.442028e+001 -3.896340e-001 -1.436508e+001 -2.307152e+001 -3.822001e+001
9112597500 -2.386086e+001 1.528504e+002 -3.941620e-001 -1.984409e+001 -3.907050e-001 -1.989865e+001 -2.372032e+001 -4.375823e+001
9180096000 -2.523423e+001 1.473179e+002 -3.997136e-001 -2.534997e+001 -3.965340e-001 -2.535134e+001 -2.485339e+001 -4.913652e+001
9247594500 -2.694777e+001 1.393194e+002 -4.000460e-001 -3.082437e+001 -3.983412e-001 -3.086739e+001 -2.636313e+001 -5.500775e+001
9315093000 -2.962916e+001 1.304130e+002 -4.167185e-001 -3.635678e+001 -4.104571e-001 -3.636720e+001 -2.823912e+001 -6.137125e+001
9382591500 -3.327503e+001 1.096742e+002 -4.218901e-001 -4.189470e+001 -4.210899e-001 -4.185915e+001 -3.091814e+001 -6.537646e+001
9450090000 -3.803272e+001 6.402719e+001 -4.323838e-001 -4.737954e+001 -4.279553e-001 -4.739862e+001 -3.526325e+001 -6.816506e+001
9517588500 -3.485116e+001 4.918768e+000 -4.426102e-001 -5.285547e+001 -4.424309e-001 -5.290954e+001 -4.358272e+001 -6.139197e+001
9585087000 -3.030867e+001 -2.312913e+001 -4.634691e-001 -5.840787e+001 -4.606211e-001 -5.846321e+001 -4.287433e+001 4.936684e+001
9652585500 -2.715553e+001 -3.409566e+001 -4.896960e-001 -6.393145e+001 -4.836316e-001 -6.389047e+001 -3.521177e+001 6.971838e+001
9720084000 -2.472662e+001 -4.428993e+001 -5.128475e-001 -6.936972e+001 -5.070862e-001 -6.942229e+001 -3.166464e+001 6.451604e+001
9787582500 -2.281396e+001 -5.209172e+001 -5.347381e-001 -7.485792e+001 -5.337783e-001 -7.487592e+001 -2.890656e+001 6.085145e+001
9855081000 -2.150345e+001 -5.826402e+001 -5.656344e-001 -8.029016e+001 -5.644957e-001 -8.032761e+001 -2.745611e+001 5.657591e+001
9922579500 -2.054838e+001 -6.492191e+001 -5.972601e-001 -8.572292e+001 -5.930285e-001 -8.573186e+001 -2.615063e+001 4.922062e+001
9990078000 -1.970384e+001 -7.090952e+001 -6.229627e-001 -9.110662e+001 -6.215240e-001 -9.113274e+001 -2.533746e+001 4.240853e+001
10057576500 -1.911586e+001 -7.821577e+001 -6.520867e-001 -9.648586e+001 -6.524023e-001 -9.645837e+001 -2.491264e+001 3.552986e+001
10125075000 -1.871555e+001 -8.425727e+001 -6.790237e-001 -1.017704e+002 -6.771096e-001 -1.018208e+002 -2.479997e+001 2.875588e+001
10192573500 -1.869156e+001 -9.141740e+001 -7.037949e-001 -1.070967e+002 -6.995937e-001 -1.071144e+002 -2.512253e+001 2.114179e+001
