!Agilent Technologies,N5230C,MY48100320,A.08.04.10
!Agilent N5230C: A.08.04.10
!Date: Friday, July 15, 2016 04:12:40
!Correction: S11(Full 2 Port(1,2)) 
!S21(Full 2 Port(1,2)) 
!S12(Full 2 Port(1,2)) 
!S22(Full 2 Port(1,2)) 
!S2P File: Measurements: S11, S21, S12, S22:
# Hz S  dB   R 50
300000 -2.432795e+001 8.327084e+001 -6.956189e-002 -3.359780e+000 -4.109691e-002 -3.683040e+000 -2.427928e+001 8.051981e+001
67798500 -3.729983e+001 -9.357460e+001 -1.080982e-002 -6.036503e+000 -1.508259e-002 -6.075219e+000 -3.650038e+001 -9.212293e+001
135297000 -3.092387e+001 -1.001239e+002 -2.400084e-002 -1.210172e+001 -2.309943e-002 -1.209855e+001 -3.066422e+001 -9.844273e+001
202795500 -2.728906e+001 -1.072073e+002 -2.743800e-002 -1.809995e+001 -2.917520e-002 -1.808249e+001 -2.712074e+001 -1.045849e+002
270294000 -2.476783e+001 -1.148395e+002 -3.737283e-002 -2.405008e+001 -3.613048e-002 -2.407904e+001 -2.463868e+001 -1.110255e+002
337792500 -2.284582e+001 -1.222025e+002 -4.892360e-002 -3.004463e+001 -4.432424e-002 -3.007696e+001 -2.269125e+001 -1.166291e+002
405291000 -2.150606e+001 -1.275079e+002 -5.631274e-002 -3.601072e+001 -5.387221e-002 -3.600559e+001 -2.133695e+001 -1.227870e+002
472789500 -2.028045e+001 -1.346574e+002 -6.645893e-002 -4.200093e+001 -6.881355e-002 -4.198175e+001 -2.010493e+001 -1.289690e+002
540288000 -1.912617e+001 -1.410647e+002 -8.269884e-002 -4.793811e+001 -8.246274e-002 -4.795121e+001 -1.891986e+001 -1.345403e+002
607786500 -1.816306e+001 -1.468597e+002 -9.891076e-002 -5.385287e+001 -1.018292e-001 -5.385448e+001 -1.800089e+001 -1.405359e+002
675285000 -1.744498e+001 -1.526859e+002 -1.142697e-001 -5.978013e+001 -1.167611e-001 -5.978463e+001 -1.731333e+001 -1.465536e+002
742783500 -1.673767e+001 -1.588190e+002 -1.313965e-001 -6.568221e+001 -1.349668e-001 -6.567365e+001 -1.661065e+001 -1.527276e+002
810282000 -1.622144e+001 -1.637835e+002 -1.474451e-001 -7.151608e+001 -1.512126e-001 -7.155642e+001 -1.608445e+001 -1.589858e+002
877780500 -1.584923e+001 -1.690796e+002 -1.603417e-001 -7.737051e+001 -1.611850e-001 -7.738729e+001 -1.571260e+001 -1.655400e+002
945279000 -1.551927e+001 -1.743237e+002 -1.717206e-001 -8.326121e+001 -1.732261e-001 -8.325388e+001 -1.537666e+001 -1.724600e+002
1012777500 -1.523685e+001 -1.788946e+002 -1.791209e-001 -8.909560e+001 -1.822418e-001 -8.906185e+001 -1.511565e+001 -1.793102e+002
1080276000 -1.510492e+001 1.766534e+002 -1.855954e-001 -9.491207e+001 -1.837016e-001 -9.489415e+001 -1.498984e+001 1.729491e+002
1147774500 -1.497940e+001 1.724191e+002 -1.883282e-001 -1.007655e+002 -1.888194e-001 -1.007493e+002 -1.486954e+001 1.654308e+002
1215273000 -1.494471e+001 1.690669e+002 -1.906772e-001 -1.066086e+002 -1.905054e-001 -1.066013e+002 -1.487470e+001 1.578367e+002
1282771500 -1.507233e+001 1.654666e+002 -1.915001e-001 -1.124492e+002 -1.907211e-001 -1.124206e+002 -1.496024e+001 1.494542e+002
1350270000 -1.518957e+001 1.622605e+002 -1.847073e-001 -1.183313e+002 -1.858360e-001 -1.182840e+002 -1.511243e+001 1.409950e+002
1417768500 -1.541301e+001 1.596810e+002 -1.804929e-001 -1.241658e+002 -1.789486e-001 -1.241714e+002 -1.535541e+001 1.319230e+002
1485267000 -1.570743e+001 1.576479e+002 -1.708843e-001 -1.300517e+002 -1.717034e-001 -1.300901e+002 -1.564123e+001 1.221473e+002
1552765500 -1.613012e+001 1.565035e+002 -1.675149e-001 -1.359843e+002 -1.633369e-001 -1.359998e+002 -1.601244e+001 1.115392e+002
1620264000 -1.641104e+001 1.556781e+002 -1.553354e-001 -1.419200e+002 -1.564439e-001 -1.419441e+002 -1.638088e+001 1.003292e+002
1687762500 -1.679932e+001 1.562945e+002 -1.484068e-001 -1.478996e+002 -1.474179e-001 -1.479003e+002 -1.680493e+001 8.785721e+001
1755261000 -1.711432e+001 1.578033e+002 -1.416703e-001 -1.539102e+002 -1.403906e-001 -1.539085e+002 -1.711236e+001 7.438752e+001
1822759500 -1.729044e+001 1.603918e+002 -1.399819e-001 -1.599253e+002 -1.439249e-001 -1.599197e+002 -1.731399e+001 5.966940e+001
1890258000 -1.727084e+001 1.637193e+002 -1.431121e-001 -1.659693e+002 -1.430909e-001 -1.659426e+002 -1.735571e+001 4.413715e+001
1957756500 -1.702940e+001 1.668322e+002 -1.444650e-001 -1.720460e+002 -1.467486e-001 -1.720363e+002 -1.710975e+001 2.882095e+001
2025255000 -1.659767e+001 1.694624e+002 -1.584238e-001 -1.781218e+002 -1.575470e-001 -1.780742e+002 -1.672490e+001 1.394705e+001
2092753500 -1.600621e+001 1.714853e+002 -1.734065e-001 1.758013e+002 -1.724437e-001 1.757983e+002 -1.614803e+001 -3.629844e-001
2160252000 -1.536304e+001 1.721949e+002 -1.952130e-001 1.697579e+002 -1.933841e-001 1.697074e+002 -1.547415e+001 -1.334393e+001
2227750500 -1.459730e+001 1.717922e+002 -2.225674e-001 1.636569e+002 -2.191118e-001 1.636210e+002 -1.471742e+001 -2.509201e+001
2295249000 -1.385895e+001 1.704766e+002 -2.490379e-001 1.575929e+002 -2.514431e-001 1.575716e+002 -1.398214e+001 -3.577721e+001
2362747500 -1.316226e+001 1.680232e+002 -2.897151e-001 1.515479e+002 -2.840134e-001 1.515301e+002 -1.323899e+001 -4.541410e+001
2430246000 -1.246625e+001 1.648361e+002 -3.263952e-001 1.454991e+002 -3.275924e-001 1.455163e+002 -1.256758e+001 -5.432341e+001
2497744500 -1.185802e+001 1.610813e+002 -3.691424e-001 1.394746e+002 -3.682467e-001 1.395006e+002 -1.188109e+001 -6.264372e+001
2565243000 -1.124743e+001 1.567928e+002 -4.206152e-001 1.334802e+002 -4.148846e-001 1.334577e+002 -1.130647e+001 -7.011474e+001
2632741500 -1.070216e+001 1.519497e+002 -4.664581e-001 1.275201e+002 -4.662604e-001 1.275147e+002 -1.075169e+001 -7.707407e+001
2700240000 -1.018939e+001 1.466315e+002 -5.195790e-001 1.215766e+002 -5.184007e-001 1.215715e+002 -1.022248e+001 -8.390686e+001
2767738500 -9.742684e+000 1.413206e+002 -5.728324e-001 1.156721e+002 -5.791299e-001 1.156467e+002 -9.749003e+000 -9.014795e+001
2835237000 -9.311831e+000 1.355823e+002 -6.339959e-001 1.097750e+002 -6.343775e-001 1.097702e+002 -9.323931e+000 -9.623694e+001
2902735500 -8.909967e+000 1.298383e+002 -6.892831e-001 1.039300e+002 -6.888705e-001 1.039261e+002 -8.910676e+000 -1.021403e+002
2970234000 -8.569359e+000 1.239900e+002 -7.466113e-001 9.811002e+001 -7.497144e-001 9.810370e+001 -8.557924e+000 -1.078018e+002
3037732500 -8.241368e+000 1.181373e+002 -8.103452e-001 9.232378e+001 -8.067247e-001 9.233569e+001 -8.243459e+000 -1.135037e+002
3105231000 -7.949852e+000 1.122776e+002 -8.664470e-001 8.657151e+001 -8.674503e-001 8.656934e+001 -7.928255e+000 -1.188568e+002
3172729500 -7.685117e+000 1.062864e+002 -9.252134e-001 8.087077e+001 -9.223266e-001 8.085838e+001 -7.656247e+000 -1.242045e+002
3240228000 -7.437871e+000 1.003710e+002 -9.812464e-001 7.517205e+001 -9.819525e-001 7.514770e+001 -7.405550e+000 -1.296479e+002
3307726500 -7.218025e+000 9.449339e+001 -1.042952e+000 6.953765e+001 -1.040535e+000 6.954701e+001 -7.175577e+000 -1.348945e+002
3375225000 -7.010633e+000 8.880466e+001 -1.096030e+000 6.388218e+001 -1.099019e+000 6.391895e+001 -6.964997e+000 -1.401980e+002
3442723500 -6.825914e+000 8.294704e+001 -1.157130e+000 5.834879e+001 -1.152484e+000 5.832690e+001 -6.786785e+000 -1.454702e+002
3510222000 -6.685493e+000 7.737584e+001 -1.199882e+000 5.281658e+001 -1.195551e+000 5.284358e+001 -6.618500e+000 -1.508770e+002
3577720500 -6.537500e+000 7.189544e+001 -1.249874e+000 4.732135e+001 -1.248420e+000 4.732684e+001 -6.489282e+000 -1.562756e+002
3645219000 -6.438035e+000 6.649732e+001 -1.285915e+000 4.189391e+001 -1.289991e+000 4.188177e+001 -6.394330e+000 -1.616998e+002
3712717500 -6.371779e+000 6.095063e+001 -1.323507e+000 3.648738e+001 -1.321826e+000 3.646177e+001 -6.296373e+000 -1.670106e+002
3780216000 -6.304482e+000 5.561712e+001 -1.354975e+000 3.108615e+001 -1.349483e+000 3.106547e+001 -6.253270e+000 -1.724388e+002
3847714500 -6.275026e+000 5.041621e+001 -1.368616e+000 2.577171e+001 -1.367898e+000 2.577838e+001 -6.225353e+000 -1.779218e+002
3915213000 -6.284007e+000 4.497010e+001 -1.371632e+000 2.042375e+001 -1.374267e+000 2.044499e+001 -6.226937e+000 1.768386e+002
3982711500 -6.293081e+000 3.985627e+001 -1.373031e+000 1.513334e+001 -1.365827e+000 1.512136e+001 -6.272667e+000 1.713033e+002
4050210000 -6.367393e+000 3.448149e+001 -1.357461e+000 9.870885e+000 -1.357490e+000 9.813559e+000 -6.346786e+000 1.659587e+002
4117708500 -6.475927e+000 2.907018e+001 -1.331660e+000 4.538707e+000 -1.328294e+000 4.526971e+000 -6.453313e+000 1.606702e+002
4185207000 -6.617047e+000 2.371837e+001 -1.287299e+000 -7.663701e-001 -1.284605e+000 -8.288589e-001 -6.611259e+000 1.553549e+002
4252705500 -6.818638e+000 1.832182e+001 -1.236570e+000 -6.142965e+000 -1.232578e+000 -6.114269e+000 -6.787045e+000 1.497507e+002
4320204000 -7.057874e+000 1.276008e+001 -1.163361e+000 -1.161547e+001 -1.160746e+000 -1.161894e+001 -7.014948e+000 1.442347e+002
4387702500 -7.359761e+000 7.180295e+000 -1.093162e+000 -1.705733e+001 -1.087270e+000 -1.708311e+001 -7.282980e+000 1.387597e+002
4455201000 -7.728469e+000 1.638426e+000 -9.987527e-001 -2.266045e+001 -1.000969e+000 -2.267616e+001 -7.634864e+000 1.329209e+002
4522699500 -8.165300e+000 -4.127869e+000 -9.062036e-001 -2.833452e+001 -9.105403e-001 -2.833313e+001 -8.052253e+000 1.272339e+002
4590198000 -8.701447e+000 -9.944575e+000 -8.131825e-001 -3.407726e+001 -8.113234e-001 -3.408795e+001 -8.544075e+000 1.213151e+002
4657696500 -9.338314e+000 -1.583033e+001 -7.106062e-001 -3.996792e+001 -7.082266e-001 -3.997054e+001 -9.188130e+000 1.152652e+002
4725195000 -1.011782e+001 -2.196076e+001 -6.131629e-001 -4.593491e+001 -6.136197e-001 -4.591961e+001 -9.904585e+000 1.092336e+002
4792693500 -1.106717e+001 -2.817278e+001 -5.158523e-001 -5.202639e+001 -5.151430e-001 -5.200470e+001 -1.080708e+001 1.030120e+002
4860192000 -1.219785e+001 -3.385210e+001 -4.218780e-001 -5.821941e+001 -4.227976e-001 -5.821261e+001 -1.194263e+001 9.589918e+001
4927690500 -1.365655e+001 -4.026654e+001 -3.471114e-001 -6.450393e+001 -3.404336e-001 -6.451954e+001 -1.330258e+001 8.926511e+001
4995189000 -1.543309e+001 -4.569015e+001 -2.683939e-001 -7.093424e+001 -2.685622e-001 -7.092793e+001 -1.504416e+001 8.146148e+001
5062687500 -1.789506e+001 -4.994554e+001 -2.153488e-001 -7.738142e+001 -2.087699e-001 -7.737299e+001 -1.741023e+001 7.211025e+001
5130186000 -2.143461e+001 -5.177684e+001 -1.693006e-001 -8.395266e+001 -1.685940e-001 -8.395182e+001 -2.082387e+001 5.975102e+001
5197684500 -2.720416e+001 -4.143003e+001 -1.431971e-001 -9.055722e+001 -1.430250e-001 -9.056672e+001 -2.602180e+001 3.683287e+001
5265183000 -3.167332e+001 2.581641e+001 -1.419205e-001 -9.717652e+001 -1.380491e-001 -9.717046e+001 -3.029708e+001 -3.410836e+001
5332681500 -2.432533e+001 6.493740e+001 -1.578046e-001 -1.038159e+002 -1.621983e-001 -1.038343e+002 -2.423239e+001 -8.878109e+001
5400180000 -1.959793e+001 6.788515e+001 -1.938909e-001 -1.104534e+002 -1.936423e-001 -1.104742e+002 -1.960161e+001 -1.083666e+002
5467678500 -1.662789e+001 6.401655e+001 -2.481478e-001 -1.170174e+002 -2.491809e-001 -1.170708e+002 -1.648864e+001 -1.187049e+002
5535177000 -1.430784e+001 5.899949e+001 -3.219929e-001 -1.235671e+002 -3.223559e-001 -1.236098e+002 -1.428722e+001 -1.271686e+002
5602675500 -1.263834e+001 5.283343e+001 -4.123251e-001 -1.300277e+002 -4.077225e-001 -1.300531e+002 -1.256476e+001 -1.344599e+002
5670174000 -1.120162e+001 4.635557e+001 -5.107191e-001 -1.364237e+002 -5.117108e-001 -1.364083e+002 -1.120536e+001 -1.410062e+002
5737672500 -1.008764e+001 3.974780e+001 -6.219201e-001 -1.426956e+002 -6.246137e-001 -1.427085e+002 -1.006092e+001 -1.471370e+002
5805171000 -9.138029e+000 3.307140e+001 -7.426280e-001 -1.488617e+002 -7.394059e-001 -1.489118e+002 -9.141998e+000 -1.527401e+002
5872669500 -8.338025e+000 2.630719e+001 -8.697125e-001 -1.549908e+002 -8.731388e-001 -1.549974e+002 -8.336150e+000 -1.583345e+002
5940168000 -7.637127e+000 1.953747e+001 -1.001079e+000 -1.609580e+002 -1.005848e+000 -1.609870e+002 -7.655297e+000 -1.635900e+002
6007666500 -7.046074e+000 1.325703e+001 -1.133797e+000 -1.668420e+002 -1.131473e+000 -1.668284e+002 -7.095067e+000 -1.687075e+002
6075165000 -6.558381e+000 6.532453e+000 -1.258803e+000 -1.726269e+002 -1.260030e+000 -1.726309e+002 -6.604118e+000 -1.735675e+002
6142663500 -6.115095e+000 1.809357e-001 -1.388324e+000 -1.783223e+002 -1.384592e+000 -1.783411e+002 -6.177238e+000 -1.782912e+002
6210162000 -5.738830e+000 -6.162963e+000 -1.512884e+000 1.761290e+002 -1.518068e+000 1.761451e+002 -5.788986e+000 1.770154e+002
6277660500 -5.430229e+000 -1.233701e+001 -1.630571e+000 1.706043e+002 -1.632251e+000 1.705866e+002 -5.498219e+000 1.726035e+002
6345159000 -5.155137e+000 -1.853475e+001 -1.740366e+000 1.652159e+002 -1.745168e+000 1.652181e+002 -5.223498e+000 1.681704e+002
6412657500 -4.931956e+000 -2.454211e+001 -1.850574e+000 1.599081e+002 -1.846320e+000 1.599434e+002 -4.996871e+000 1.637877e+002
6480156000 -4.756516e+000 -3.057781e+001 -1.929066e+000 1.546227e+002 -1.935905e+000 1.545853e+002 -4.823057e+000 1.594163e+002
6547654500 -4.606126e+000 -3.666298e+001 -2.018128e+000 1.493654e+002 -2.010839e+000 1.493433e+002 -4.661468e+000 1.553082e+002
6615153000 -4.484827e+000 -4.241640e+001 -2.089915e+000 1.441809e+002 -2.085197e+000 1.441920e+002 -4.534017e+000 1.510598e+002
6682651500 -4.413455e+000 -4.836517e+001 -2.142181e+000 1.390798e+002 -2.140995e+000 1.390462e+002 -4.426221e+000 1.469262e+002
6750150000 -4.354411e+000 -5.415017e+001 -2.189034e+000 1.339309e+002 -2.187487e+000 1.339245e+002 -4.364359e+000 1.427989e+002
6817648500 -4.339371e+000 -6.006175e+001 -2.221979e+000 1.288496e+002 -2.218754e+000 1.288368e+002 -4.311446e+000 1.386462e+002
6885147000 -4.350025e+000 -6.589633e+001 -2.235766e+000 1.237833e+002 -2.229073e+000 1.237452e+002 -4.285297e+000 1.344865e+002
6952645500 -4.379501e+000 -7.180530e+001 -2.243094e+000 1.186332e+002 -2.236563e+000 1.186393e+002 -4.281880e+000 1.303113e+002
7020144000 -4.416821e+000 -7.766034e+001 -2.229853e+000 1.135352e+002 -2.233829e+000 1.134849e+002 -4.307013e+000 1.260625e+002
7087642500 -4.495957e+000 -8.354312e+001 -2.205262e+000 1.083806e+002 -2.209447e+000 1.083911e+002 -4.337833e+000 1.217682e+002
7155141000 -4.586581e+000 -8.965669e+001 -2.179002e+000 1.032070e+002 -2.179091e+000 1.032100e+002 -4.401805e+000 1.175582e+002
7222639500 -4.710193e+000 -9.560194e+001 -2.137580e+000 9.804127e+001 -2.136620e+000 9.804453e+001 -4.488318e+000 1.130749e+002
7290138000 -4.854291e+000 -1.016877e+002 -2.079317e+000 9.282272e+001 -2.080031e+000 9.283328e+001 -4.596645e+000 1.086665e+002
7357636500 -5.024583e+000 -1.078125e+002 -2.006922e+000 8.752400e+001 -2.006177e+000 8.755638e+001 -4.744578e+000 1.041244e+002
7425135000 -5.212472e+000 -1.140868e+002 -1.939404e+000 8.220438e+001 -1.933852e+000 8.222978e+001 -4.912329e+000 9.939455e+001
7492633500 -5.429255e+000 -1.203508e+002 -1.849668e+000 7.687904e+001 -1.843417e+000 7.686771e+001 -5.086632e+000 9.474373e+001
7560132000 -5.688426e+000 -1.267001e+002 -1.749974e+000 7.142854e+001 -1.749947e+000 7.142999e+001 -5.319629e+000 8.980901e+001
7627630500 -5.959340e+000 -1.331010e+002 -1.645008e+000 6.585573e+001 -1.644450e+000 6.589137e+001 -5.601867e+000 8.484264e+001
7695129000 -6.292960e+000 -1.395263e+002 -1.526850e+000 6.024015e+001 -1.535903e+000 6.026838e+001 -5.919937e+000 7.969754e+001
7762627500 -6.655629e+000 -1.463466e+002 -1.415224e+000 5.459509e+001 -1.405145e+000 5.455246e+001 -6.290901e+000 7.457908e+001
7830126000 -7.099743e+000 -1.529505e+002 -1.277487e+000 4.876204e+001 -1.279198e+000 4.877742e+001 -6.756008e+000 6.915727e+001
7897624500 -7.602915e+000 -1.596886e+002 -1.145843e+000 4.288572e+001 -1.141477e+000 4.287949e+001 -7.262312e+000 6.343768e+001
7965123000 -8.208706e+000 -1.667444e+002 -1.005907e+000 3.683421e+001 -1.003982e+000 3.682984e+001 -7.903727e+000 5.786971e+001
8032621500 -8.916306e+000 -1.736946e+002 -8.697134e-001 3.062420e+001 -8.682250e-001 3.062963e+001 -8.676003e+000 5.180289e+001
8100120000 -9.783175e+000 1.792749e+002 -7.383396e-001 2.432663e+001 -7.341253e-001 2.432288e+001 -9.572547e+000 4.557475e+001
8167618500 -1.087664e+001 1.720319e+002 -6.129844e-001 1.782895e+001 -6.129876e-001 1.783973e+001 -1.072751e+001 3.928259e+001
8235117000 -1.227601e+001 1.647640e+002 -4.959817e-001 1.118804e+001 -5.012383e-001 1.121358e+001 -1.218379e+001 3.256141e+001
8302615500 -1.415425e+001 1.572867e+002 -3.962329e-001 4.419040e+000 -3.875612e-001 4.413304e+000 -1.414904e+001 2.551928e+001
8370114000 -1.668455e+001 1.495562e+002 -3.147144e-001 -2.525989e+000 -3.102545e-001 -2.500008e+000 -1.686875e+001 1.809883e+001
8437612500 -2.089379e+001 1.414763e+002 -2.569414e-001 -9.575688e+000 -2.586560e-001 -9.503269e+000 -2.116518e+001 9.980282e+000
8505111000 -2.928439e+001 1.305659e+002 -2.345901e-001 -1.665998e+001 -2.292304e-001 -1.667266e+001 -3.043902e+001 -6.605369e+000
8572609500 -3.197952e+001 -4.685723e+001 -2.405291e-001 -2.382067e+001 -2.383165e-001 -2.379516e+001 -2.979564e+001 -1.677965e+002
8640108000 -2.108978e+001 -5.682174e+001 -2.754751e-001 -3.098695e+001 -2.820309e-001 -3.100739e+001 -2.055676e+001 1.774308e+002
8707606500 -1.654517e+001 -6.595663e+001 -3.599335e-001 -3.815338e+001 -3.537734e-001 -3.812709e+001 -1.621737e+001 1.691295e+002
8775105000 -1.349649e+001 -7.350354e+001 -4.740503e-001 -4.522134e+001 -4.669375e-001 -4.520495e+001 -1.333431e+001 1.617188e+002
8842603500 -1.146014e+001 -8.050835e+001 -6.102320e-001 -5.211352e+001 -6.072173e-001 -5.210263e+001 -1.130411e+001 1.546180e+002
8910102000 -9.770579e+000 -8.791928e+001 -7.803715e-001 -5.887983e+001 -7.815331e-001 -5.886305e+001 -9.718042e+000 1.479722e+002
8977600500 -8.477850e+000 -9.436787e+001 -9.765296e-001 -6.548501e+001 -9.722096e-001 -6.546262e+001 -8.463172e+000 1.415030e+002
9045099000 -7.457343e+000 -1.010367e+002 -1.176649e+000 -7.176641e+001 -1.174094e+000 -7.175867e+001 -7.464440e+000 1.353964e+002
9112597500 -6.594659e+000 -1.075856e+002 -1.395974e+000 -7.797733e+001 -1.387775e+000 -7.796152e+001 -6.656414e+000 1.298253e+002
9180096000 -5.897458e+000 -1.137486e+002 -1.612736e+000 -8.388718e+001 -1.604111e+000 -8.388614e+001 -5.984626e+000 1.242600e+002
9247594500 -5.339617e+000 -1.196228e+002 -1.819641e+000 -8.954671e+001 -1.817747e+000 -8.958730e+001 -5.427299e+000 1.189634e+002
9315093000 -4.887660e+000 -1.256477e+002 -2.032529e+000 -9.519736e+001 -2.036329e+000 -9.516948e+001 -4.969279e+000 1.139386e+002
9382591500 -4.488963e+000 -1.312876e+002 -2.234294e+000 -1.005668e+002 -2.232379e+000 -1.005306e+002 -4.570889e+000 1.091089e+002
9450090000 -4.178648e+000 -1.368492e+002 -2.422162e+000 -1.057186e+002 -2.423529e+000 -1.057269e+002 -4.247939e+000 1.045455e+002
9517588500 -3.934887e+000 -1.423028e+002 -2.584000e+000 -1.107632e+002 -2.588991e+000 -1.107796e+002 -3.992615e+000 1.001732e+002
9585087000 -3.737116e+000 -1.479260e+002 -2.736918e+000 -1.156998e+002 -2.736559e+000 -1.157321e+002 -3.792762e+000 9.594344e+001
9652585500 -3.588048e+000 -1.532623e+002 -2.869978e+000 -1.206269e+002 -2.864522e+000 -1.205691e+002 -3.603749e+000 9.172177e+001
9720084000 -3.473679e+000 -1.586920e+002 -2.980996e+000 -1.253615e+002 -2.976478e+000 -1.254641e+002 -3.474277e+000 8.788828e+001
9787582500 -3.378181e+000 -1.641987e+002 -3.076545e+000 -1.301087e+002 -3.077479e+000 -1.301500e+002 -3.367975e+000 8.398272e+001
9855081000 -3.342821e+000 -1.695894e+002 -3.144855e+000 -1.348702e+002 -3.151819e+000 -1.348756e+002 -3.273750e+000 8.032076e+001
9922579500 -3.336076e+000 -1.751791e+002 -3.186398e+000 -1.395371e+002 -3.191048e+000 -1.395900e+002 -3.232729e+000 7.663643e+001
9990078000 -3.330832e+000 1.792280e+002 -3.218586e+000 -1.443159e+002 -3.226488e+000 -1.442931e+002 -3.200336e+000 7.286378e+001
10057576500 -3.371049e+000 1.735795e+002 -3.228743e+000 -1.490279e+002 -3.228992e+000 -1.490141e+002 -3.182091e+000 6.941094e+001
10125075000 -3.423977e+000 1.676671e+002 -3.224279e+000 -1.537559e+002 -3.226655e+000 -1.538068e+002 -3.216629e+000 6.584145e+001
10192573500 -3.507571e+000 1.616916e+002 -3.205683e+000 -1.586296e+002 -3.208513e+000 -1.586281e+002 -3.240386e+000 6.231379e+001
