!Agilent Technologies,N5230C,MY48100320,A.08.04.10
!Agilent N5230C: A.08.04.10
!Date: Wednesday, October 05, 2016 21:01:40
!Correction: S11(Full 2 Port(1,2)) 
!S21(Full 2 Port(1,2)) 
!S12(Full 2 Port(1,2)) 
!S22(Full 2 Port(1,2)) 
!S2P File: Measurements: S11, S21, S12, S22:
# Hz S  dB   R 50
300000 -2.692836e+001 7.879615e+001 -6.481535e-002 -2.847020e+000 -6.699102e-002 -2.765515e+000 -2.540876e+001 7.745382e+001
17174625 -5.298048e+001 1.248925e+002 1.158364e-002 -1.501625e+000 7.648645e-003 -1.506248e+000 -5.254741e+001 9.455880e+001
34049250 -6.276060e+001 1.370564e+002 3.745352e-003 -2.735067e+000 -1.455635e-004 -2.739966e+000 -6.455417e+001 1.086799e+002
50923875 -6.062896e+001 6.914660e+001 -2.756523e-003 -4.086387e+000 -2.553398e-003 -4.075310e+000 -6.497088e+001 4.481686e+000
67798500 -5.761075e+001 4.432933e+001 -2.125572e-003 -5.412950e+000 -2.434645e-003 -5.402178e+000 -7.373058e+001 8.956928e+001
84673125 -5.617990e+001 3.084928e+001 -4.765750e-003 -6.775681e+000 -5.710820e-003 -6.743814e+000 -6.034168e+001 3.999197e+001
101547750 -6.080780e+001 3.939651e+001 -8.156908e-003 -8.115435e+000 -9.076520e-003 -8.114448e+000 -5.797852e+001 4.708289e+001
118422375 -5.621432e+001 2.865862e+001 -5.623660e-003 -9.472955e+000 -1.130767e-002 -9.457845e+000 -5.629929e+001 4.223014e+001
135297000 -5.832460e+001 3.587926e+001 -4.194562e-003 -1.079998e+001 -1.113353e-002 -1.080959e+001 -5.764037e+001 1.961820e+001
152171625 -5.800699e+001 -1.509359e+001 -4.807724e-003 -1.215877e+001 -1.041127e-002 -1.210915e+001 -6.011465e+001 6.522456e+001
169046250 -5.630318e+001 1.038810e+001 -8.072329e-003 -1.344125e+001 -8.016716e-003 -1.350533e+001 -5.769068e+001 4.226554e+001
185920875 -5.586610e+001 4.126108e+001 -7.530193e-003 -1.480973e+001 -1.002634e-002 -1.481820e+001 -5.985777e+001 3.537039e+001
202795500 -5.703061e+001 5.810473e+001 -8.663355e-003 -1.616322e+001 -1.351591e-002 -1.615727e+001 -5.419046e+001 1.310689e+001
219670125 -5.671286e+001 4.892835e+001 -1.339889e-002 -1.751589e+001 -1.597256e-002 -1.750081e+001 -5.572575e+001 1.202983e+001
236544750 -5.890510e+001 3.745068e+001 -1.123159e-002 -1.882473e+001 -1.511775e-002 -1.883802e+001 -5.325296e+001 1.250575e+001
253419375 -5.717104e+001 4.457953e+001 -9.412584e-003 -2.018204e+001 -1.615154e-002 -2.015930e+001 -5.152358e+001 9.015225e+000
270294000 -6.350539e+001 8.878000e+001 -9.739537e-003 -2.149540e+001 -1.391951e-002 -2.148696e+001 -5.026417e+001 1.330982e+001
287168625 -5.931432e+001 6.880857e+001 -7.764147e-003 -2.283301e+001 -1.716526e-002 -2.283887e+001 -4.966552e+001 1.385823e+001
304043250 -5.905530e+001 9.131129e+001 -6.180245e-003 -2.415750e+001 -1.367123e-002 -2.415947e+001 -5.077267e+001 2.475538e+001
320917875 -5.793951e+001 7.455376e+001 -1.193196e-002 -2.551054e+001 -9.023580e-003 -2.550547e+001 -5.078082e+001 7.606730e+000
337792500 -5.887863e+001 6.657633e+001 -9.181030e-003 -2.686553e+001 -1.533344e-002 -2.685982e+001 -4.976478e+001 1.283534e+001
354667125 -6.201215e+001 8.165102e+001 -1.020880e-002 -2.818834e+001 -1.664148e-002 -2.819709e+001 -4.944009e+001 2.559690e+001
371541750 -5.612693e+001 8.762675e+001 -1.200060e-002 -2.952456e+001 -1.819253e-002 -2.949328e+001 -4.808205e+001 1.314140e+001
388416375 -5.849340e+001 9.232621e+001 -1.274946e-002 -3.083243e+001 -1.424772e-002 -3.087272e+001 -4.763445e+001 1.393231e+001
405291000 -5.329593e+001 9.792637e+001 -1.253717e-002 -3.221605e+001 -1.787830e-002 -3.220447e+001 -4.657329e+001 9.477935e+000
422165625 -5.441845e+001 1.038653e+002 -1.585997e-002 -3.352827e+001 -1.416570e-002 -3.351723e+001 -4.622856e+001 1.275619e+001
439040250 -5.087794e+001 9.191479e+001 -1.313436e-002 -3.485767e+001 -1.698406e-002 -3.489357e+001 -4.589733e+001 2.208221e+000
455914875 -4.959459e+001 1.096174e+002 -1.407027e-002 -3.620744e+001 -1.864677e-002 -3.619929e+001 -4.569108e+001 -4.901257e+000
472789500 -5.104651e+001 1.144042e+002 -1.317137e-002 -3.754723e+001 -1.757742e-002 -3.753323e+001 -4.457166e+001 -4.159750e+000
489664125 -4.902604e+001 1.275407e+002 -1.168560e-002 -3.887979e+001 -1.742707e-002 -3.887045e+001 -4.404063e+001 -3.561997e+000
506538750 -4.820381e+001 1.333909e+002 -1.543711e-002 -4.021376e+001 -1.555213e-002 -4.020980e+001 -4.411794e+001 -1.534057e+001
523413375 -4.787626e+001 1.413480e+002 -1.328111e-002 -4.154085e+001 -2.105159e-002 -4.154665e+001 -4.395253e+001 -1.890626e+001
540288000 -4.692400e+001 1.417655e+002 -1.282051e-002 -4.289459e+001 -1.957312e-002 -4.286325e+001 -4.328022e+001 -1.916783e+001
557162625 -4.695290e+001 1.305114e+002 -1.641115e-002 -4.423196e+001 -1.678796e-002 -4.421663e+001 -4.271230e+001 -2.005842e+001
574037250 -4.577221e+001 1.257040e+002 -1.599074e-002 -4.558369e+001 -1.788099e-002 -4.555342e+001 -4.368671e+001 -1.959650e+001
590911875 -4.548119e+001 1.282011e+002 -1.640647e-002 -4.690652e+001 -1.912215e-002 -4.689456e+001 -4.323946e+001 -2.242361e+001
607786500 -4.509821e+001 1.202823e+002 -1.348138e-002 -4.822555e+001 -2.524726e-002 -4.823507e+001 -4.225198e+001 -1.869544e+001
624661125 -4.472711e+001 1.145440e+002 -2.115626e-002 -4.958545e+001 -2.141334e-002 -4.955426e+001 -4.191776e+001 -1.546998e+001
641535750 -4.386440e+001 1.123590e+002 -1.989897e-002 -5.089059e+001 -1.885477e-002 -5.089495e+001 -4.171338e+001 -1.442686e+001
658410375 -4.340974e+001 1.048158e+002 -1.268622e-002 -5.223541e+001 -1.686036e-002 -5.222112e+001 -4.098273e+001 -1.288269e+001
675285000 -4.224552e+001 1.049254e+002 -1.459794e-002 -5.360760e+001 -2.457216e-002 -5.355691e+001 -4.106320e+001 -1.862688e+001
692159625 -4.223041e+001 1.015798e+002 -1.742447e-002 -5.491702e+001 -2.140239e-002 -5.487916e+001 -4.100493e+001 -1.738068e+001
709034250 -4.216543e+001 1.000898e+002 -1.950541e-002 -5.630256e+001 -2.217745e-002 -5.629433e+001 -4.113282e+001 -2.101401e+001
725908875 -4.174672e+001 9.162572e+001 -2.261368e-002 -5.762424e+001 -2.036507e-002 -5.761131e+001 -4.080474e+001 -1.946265e+001
742783500 -4.201785e+001 9.525368e+001 -2.166907e-002 -5.895634e+001 -2.854247e-002 -5.896198e+001 -4.086457e+001 -1.914163e+001
759658125 -4.284449e+001 9.508447e+001 -2.718997e-002 -6.030145e+001 -2.341466e-002 -6.029436e+001 -4.047900e+001 -1.788482e+001
776532750 -4.201219e+001 9.114037e+001 -2.308814e-002 -6.161805e+001 -2.647687e-002 -6.160393e+001 -4.034010e+001 -1.934587e+001
793407375 -4.204335e+001 8.755248e+001 -2.786519e-002 -6.295637e+001 -3.360819e-002 -6.296901e+001 -4.034532e+001 -1.702353e+001
810282000 -4.183244e+001 7.723957e+001 -2.659140e-002 -6.430726e+001 -3.001312e-002 -6.428720e+001 -4.033373e+001 -1.889315e+001
827156625 -4.132471e+001 8.173047e+001 -2.526040e-002 -6.563585e+001 -2.568124e-002 -6.562717e+001 -4.048063e+001 -1.640702e+001
844031250 -4.082550e+001 7.387212e+001 -3.217339e-002 -6.695151e+001 -2.903144e-002 -6.696332e+001 -4.045258e+001 -1.666317e+001
860905875 -4.139646e+001 7.395837e+001 -2.026130e-002 -6.831141e+001 -3.378107e-002 -6.825509e+001 -4.014868e+001 -2.094802e+001
877780500 -4.071051e+001 6.989628e+001 -2.455442e-002 -6.962368e+001 -3.233911e-002 -6.961378e+001 -4.022602e+001 -1.931709e+001
894655125 -4.061732e+001 6.819006e+001 -2.840385e-002 -7.094521e+001 -3.140100e-002 -7.096445e+001 -4.007107e+001 -2.164384e+001
911529750 -4.115177e+001 6.475590e+001 -2.789407e-002 -7.230113e+001 -2.801398e-002 -7.229771e+001 -3.973483e+001 -2.251307e+001
928404375 -4.082227e+001 6.148157e+001 -2.998849e-002 -7.361697e+001 -3.164181e-002 -7.361005e+001 -3.988211e+001 -2.656345e+001
945279000 -4.083171e+001 6.461951e+001 -2.381505e-002 -7.494335e+001 -2.531241e-002 -7.497604e+001 -4.022846e+001 -2.293947e+001
962153625 -4.061920e+001 6.085064e+001 -2.754406e-002 -7.628905e+001 -3.089826e-002 -7.630093e+001 -4.007570e+001 -2.300164e+001
979028250 -4.058657e+001 5.614363e+001 -2.804649e-002 -7.763700e+001 -2.633880e-002 -7.759660e+001 -4.005965e+001 -2.346456e+001
995902875 -4.054592e+001 5.475353e+001 -2.342489e-002 -7.895156e+001 -2.461136e-002 -7.897295e+001 -4.114394e+001 -2.066015e+001
1012777500 -4.063647e+001 5.642309e+001 -2.632979e-002 -8.033176e+001 -2.663430e-002 -8.031199e+001 -4.084447e+001 -1.921085e+001
1029652125 -4.055444e+001 5.241294e+001 -2.567856e-002 -8.167873e+001 -2.993298e-002 -8.164921e+001 -4.074001e+001 -1.862422e+001
1046526750 -4.043937e+001 4.683049e+001 -2.262908e-002 -8.297316e+001 -2.541185e-002 -8.298515e+001 -4.037085e+001 -1.603734e+001
1063401375 -3.970930e+001 4.428737e+001 -2.612506e-002 -8.434427e+001 -2.345850e-002 -8.432163e+001 -3.993611e+001 -1.530083e+001
1080276000 -3.908023e+001 4.335284e+001 -2.105344e-002 -8.566942e+001 -2.566777e-002 -8.567534e+001 -4.047666e+001 -1.547016e+001
1097150625 -3.969098e+001 3.656306e+001 -2.332148e-002 -8.698148e+001 -2.591834e-002 -8.698017e+001 -4.011557e+001 -1.779707e+001
1114025250 -3.909290e+001 3.186082e+001 -2.001647e-002 -8.833846e+001 -3.228676e-002 -8.834599e+001 -3.955005e+001 -1.844566e+001
1130899875 -3.916058e+001 2.857483e+001 -2.660394e-002 -8.968938e+001 -2.768755e-002 -8.966357e+001 -3.972812e+001 -1.832852e+001
1147774500 -3.927555e+001 2.582905e+001 -2.620035e-002 -9.101933e+001 -2.808438e-002 -9.103022e+001 -3.994877e+001 -1.711603e+001
1164649125 -3.944623e+001 2.316095e+001 -2.814739e-002 -9.233599e+001 -2.699799e-002 -9.233727e+001 -3.939415e+001 -1.304769e+001
1181523750 -3.911798e+001 1.968726e+001 -2.677689e-002 -9.368118e+001 -2.558404e-002 -9.369164e+001 -3.878857e+001 -1.177705e+001
1198398375 -3.924133e+001 1.494158e+001 -2.451075e-002 -9.504037e+001 -3.142156e-002 -9.501228e+001 -3.898051e+001 -9.928442e+000
1215273000 -3.932343e+001 9.179738e+000 -3.191997e-002 -9.636979e+001 -2.822453e-002 -9.635137e+001 -3.960896e+001 -9.452655e+000
1232147625 -3.901425e+001 3.081569e+000 -2.494802e-002 -9.767855e+001 -2.989330e-002 -9.772313e+001 -3.965520e+001 -1.007823e+001
1249022250 -3.889498e+001 -3.464219e-001 -2.392585e-002 -9.904192e+001 -2.583274e-002 -9.903200e+001 -3.947321e+001 -6.571025e+000
1265896875 -3.859903e+001 -4.070573e+000 -2.853080e-002 -1.003607e+002 -2.912680e-002 -1.003844e+002 -3.909094e+001 -6.361798e+000
1282771500 -3.870845e+001 -7.637262e+000 -2.505206e-002 -1.017149e+002 -3.091635e-002 -1.017061e+002 -3.911688e+001 -9.522260e+000
1299646125 -3.833472e+001 -1.117893e+001 -2.618039e-002 -1.030647e+002 -2.937298e-002 -1.030176e+002 -3.887303e+001 -1.033830e+001
1316520750 -3.831641e+001 -1.443065e+001 -2.611254e-002 -1.043831e+002 -3.165030e-002 -1.043741e+002 -3.884678e+001 -8.640032e+000
1333395375 -3.857185e+001 -1.906957e+001 -2.122577e-002 -1.057138e+002 -3.148981e-002 -1.057164e+002 -3.847394e+001 -6.189189e+000
1350270000 -3.812136e+001 -2.179527e+001 -2.715852e-002 -1.070611e+002 -2.496058e-002 -1.070424e+002 -3.815286e+001 -6.647172e+000
1367144625 -3.817008e+001 -2.507640e+001 -2.888853e-002 -1.084062e+002 -2.644436e-002 -1.084243e+002 -3.854840e+001 -3.147787e+000
1384019250 -3.861200e+001 -2.613625e+001 -2.496691e-002 -1.097417e+002 -3.021916e-002 -1.097043e+002 -3.788590e+001 -3.311841e+000
1400893875 -3.777921e+001 -3.012267e+001 -2.778312e-002 -1.110840e+002 -2.805042e-002 -1.110786e+002 -3.812106e+001 -1.547165e+000
1417768500 -3.760432e+001 -3.465215e+001 -2.274624e-002 -1.124097e+002 -2.686367e-002 -1.123980e+002 -3.732527e+001 -6.378344e+000
1434643125 -3.749265e+001 -4.112312e+001 -2.477159e-002 -1.137460e+002 -2.845527e-002 -1.137246e+002 -3.779746e+001 -3.854716e+000
1451517750 -3.700666e+001 -4.228578e+001 -2.888357e-002 -1.150535e+002 -3.287834e-002 -1.150634e+002 -3.722738e+001 -2.995409e+000
1468392375 -3.667060e+001 -4.653609e+001 -2.155575e-002 -1.164313e+002 -2.859717e-002 -1.164112e+002 -3.726395e+001 -4.561237e+000
1485267000 -3.646440e+001 -4.781775e+001 -2.038057e-002 -1.177644e+002 -2.074201e-002 -1.177622e+002 -3.707491e+001 -4.672811e+000
1502141625 -3.594494e+001 -5.159451e+001 -3.992174e-002 -1.191446e+002 -3.727285e-002 -1.191050e+002 -3.632529e+001 -6.114917e+000
1519016250 -3.600554e+001 -5.548238e+001 -3.246713e-002 -1.204238e+002 -3.580290e-002 -1.203925e+002 -3.611186e+001 -5.882432e+000
1535890875 -3.561902e+001 -5.666445e+001 -2.823342e-002 -1.217537e+002 -3.405210e-002 -1.217553e+002 -3.606965e+001 -6.619611e+000
1552765500 -3.560508e+001 -6.020100e+001 -3.062543e-002 -1.231153e+002 -3.681711e-002 -1.230754e+002 -3.559524e+001 -6.802483e+000
1569640125 -3.552618e+001 -6.319640e+001 -3.127844e-002 -1.244356e+002 -3.537507e-002 -1.244093e+002 -3.535863e+001 -5.513371e+000
1586514750 -3.549780e+001 -6.792892e+001 -2.917173e-002 -1.257640e+002 -3.099003e-002 -1.257610e+002 -3.591375e+001 -5.167855e+000
1603389375 -3.577253e+001 -7.085405e+001 -3.002787e-002 -1.270933e+002 -3.486143e-002 -1.271007e+002 -3.550857e+001 -1.307221e+000
1620264000 -3.569667e+001 -7.542556e+001 -3.295790e-002 -1.284636e+002 -3.248414e-002 -1.284349e+002 -3.583043e+001 -4.716289e+000
1637138625 -3.489778e+001 -7.390637e+001 -3.142401e-002 -1.297824e+002 -3.055155e-002 -1.297887e+002 -3.520771e+001 -4.831264e+000
1654013250 -3.492866e+001 -8.013263e+001 -3.196473e-002 -1.311150e+002 -2.979521e-002 -1.311318e+002 -3.536739e+001 -4.813349e+000
1670887875 -3.453820e+001 -7.976170e+001 -2.473564e-002 -1.324442e+002 -4.040749e-002 -1.324523e+002 -3.509259e+001 -5.934380e+000
1687762500 -3.474052e+001 -8.165575e+001 -2.780645e-002 -1.337976e+002 -3.779612e-002 -1.337763e+002 -3.518271e+001 -7.339475e+000
1704637125 -3.408293e+001 -8.501872e+001 -3.152470e-002 -1.351333e+002 -2.948110e-002 -1.351288e+002 -3.475580e+001 -7.312416e+000
1721511750 -3.425388e+001 -8.631384e+001 -3.873160e-002 -1.364856e+002 -3.769075e-002 -1.364579e+002 -3.476911e+001 -8.116580e+000
1738386375 -3.414742e+001 -8.952903e+001 -3.209192e-002 -1.378069e+002 -3.266463e-002 -1.377932e+002 -3.458593e+001 -8.666887e+000
1755261000 -3.412257e+001 -9.055975e+001 -4.034324e-002 -1.391620e+002 -3.526610e-002 -1.391436e+002 -3.452813e+001 -8.017772e+000
1772135625 -3.402723e+001 -9.400524e+001 -3.259241e-002 -1.404975e+002 -3.944908e-002 -1.404553e+002 -3.436324e+001 -1.010996e+001
1789010250 -3.407738e+001 -9.513490e+001 -2.831619e-002 -1.418282e+002 -3.330167e-002 -1.418080e+002 -3.427866e+001 -9.617699e+000
1805884875 -3.412274e+001 -9.710182e+001 -3.358907e-002 -1.431564e+002 -3.752304e-002 -1.431450e+002 -3.439883e+001 -9.738605e+000
1822759500 -3.394118e+001 -9.978222e+001 -3.424483e-002 -1.444992e+002 -3.238719e-002 -1.444855e+002 -3.451347e+001 -8.431615e+000
1839634125 -3.368810e+001 -1.031104e+002 -2.946566e-002 -1.458462e+002 -3.530078e-002 -1.458475e+002 -3.435564e+001 -9.086493e+000
1856508750 -3.392154e+001 -1.046909e+002 -3.694176e-002 -1.471748e+002 -3.364429e-002 -1.471749e+002 -3.445818e+001 -9.902712e+000
1873383375 -3.375318e+001 -1.077523e+002 -3.355045e-002 -1.485559e+002 -3.329339e-002 -1.484882e+002 -3.450496e+001 -1.156659e+001
1890258000 -3.373882e+001 -1.086491e+002 -3.095132e-002 -1.498453e+002 -3.453268e-002 -1.498485e+002 -3.439837e+001 -1.301084e+001
1907132625 -3.375967e+001 -1.088488e+002 -3.274804e-002 -1.511934e+002 -3.321108e-002 -1.511789e+002 -3.456932e+001 -1.353033e+001
1924007250 -3.374950e+001 -1.116062e+002 -3.229964e-002 -1.525310e+002 -4.310091e-002 -1.525259e+002 -3.474608e+001 -1.344091e+001
1940881875 -3.390110e+001 -1.153444e+002 -3.424845e-002 -1.538876e+002 -3.160524e-002 -1.538415e+002 -3.504287e+001 -1.640395e+001
1957756500 -3.385673e+001 -1.168719e+002 -2.604093e-002 -1.551974e+002 -3.243349e-002 -1.551914e+002 -3.482172e+001 -1.613954e+001
1974631125 -3.388604e+001 -1.175290e+002 -2.979605e-002 -1.565387e+002 -4.158331e-002 -1.565480e+002 -3.489680e+001 -1.857416e+001
1991505750 -3.384034e+001 -1.208760e+002 -3.876076e-002 -1.578913e+002 -3.937933e-002 -1.578551e+002 -3.521945e+001 -1.866829e+001
2008380375 -3.396114e+001 -1.211060e+002 -3.661101e-002 -1.591885e+002 -3.478087e-002 -1.592164e+002 -3.490573e+001 -1.910855e+001
2025255000 -3.402088e+001 -1.250077e+002 -3.207990e-002 -1.605627e+002 -3.889300e-002 -1.605393e+002 -3.516413e+001 -2.044545e+001
2042129625 -3.416867e+001 -1.242575e+002 -2.882535e-002 -1.619038e+002 -3.824402e-002 -1.618643e+002 -3.570348e+001 -2.224864e+001
2059004250 -3.438697e+001 -1.296794e+002 -3.996516e-002 -1.632394e+002 -3.334899e-002 -1.632136e+002 -3.570236e+001 -2.205720e+001
2075878875 -3.402301e+001 -1.311498e+002 -3.165410e-002 -1.645554e+002 -3.748988e-002 -1.645468e+002 -3.595743e+001 -2.166795e+001
2092753500 -3.450882e+001 -1.315514e+002 -3.793673e-002 -1.659124e+002 -3.724681e-002 -1.658945e+002 -3.583590e+001 -2.476849e+001
2109628125 -3.439776e+001 -1.323798e+002 -3.952640e-002 -1.672397e+002 -4.183269e-002 -1.672218e+002 -3.597693e+001 -2.579181e+001
2126502750 -3.443579e+001 -1.325355e+002 -3.612132e-002 -1.685739e+002 -3.158263e-002 -1.685498e+002 -3.604646e+001 -2.780827e+001
2143377375 -3.438869e+001 -1.347118e+002 -3.156436e-002 -1.699172e+002 -3.710287e-002 -1.698911e+002 -3.648277e+001 -3.049859e+001
2160252000 -3.464393e+001 -1.367805e+002 -2.997177e-002 -1.712621e+002 -4.006616e-002 -1.712294e+002 -3.703369e+001 -3.255539e+001
2177126625 -3.509143e+001 -1.391681e+002 -4.733203e-002 -1.725714e+002 -4.492150e-002 -1.725637e+002 -3.748033e+001 -3.380756e+001
2194001250 -3.481254e+001 -1.418340e+002 -2.872879e-002 -1.739109e+002 -4.361873e-002 -1.739162e+002 -3.771729e+001 -3.141541e+001
2210875875 -3.520626e+001 -1.420890e+002 -2.194242e-002 -1.752780e+002 -2.893280e-002 -1.752455e+002 -3.779449e+001 -3.246057e+001
2227750500 -3.573605e+001 -1.456904e+002 -2.782805e-002 -1.766191e+002 -3.908423e-002 -1.766006e+002 -3.788521e+001 -3.532668e+001
2244625125 -3.568638e+001 -1.441251e+002 -3.791038e-002 -1.779639e+002 -4.642808e-002 -1.779033e+002 -3.868354e+001 -3.945289e+001
2261499750 -3.607825e+001 -1.469091e+002 -3.872427e-002 -1.792784e+002 -3.908427e-002 -1.792402e+002 -3.859235e+001 -3.856678e+001
2278374375 -3.616412e+001 -1.478446e+002 -3.691044e-002 1.793974e+002 -3.508599e-002 1.794108e+002 -4.002594e+001 -4.057692e+001
2295249000 -3.641541e+001 -1.489583e+002 -3.453406e-002 1.780206e+002 -4.013178e-002 1.780949e+002 -4.055208e+001 -4.406211e+001
2312123625 -3.639979e+001 -1.502203e+002 -3.185361e-002 1.767081e+002 -3.430026e-002 1.767347e+002 -4.108410e+001 -4.452847e+001
2328998250 -3.678576e+001 -1.496993e+002 -3.177576e-002 1.753815e+002 -4.090793e-002 1.753960e+002 -4.185743e+001 -5.669724e+001
2345872875 -3.715602e+001 -1.491714e+002 -3.318502e-002 1.740153e+002 -3.673047e-002 1.740463e+002 -4.187238e+001 -5.436896e+001
2362747500 -3.746925e+001 -1.535143e+002 -2.613896e-002 1.727073e+002 -3.262488e-002 1.727192e+002 -4.239310e+001 -6.074008e+001
2379622125 -3.844606e+001 -1.507572e+002 -3.466658e-002 1.713975e+002 -3.723861e-002 1.713828e+002 -4.340299e+001 -6.813451e+001
2396496750 -3.919694e+001 -1.540957e+002 -4.188276e-002 1.700322e+002 -4.127515e-002 1.700352e+002 -4.462601e+001 -7.646873e+001
2413371375 -3.912909e+001 -1.548877e+002 -3.651209e-002 1.687035e+002 -3.792209e-002 1.687012e+002 -4.575652e+001 -7.438675e+001
2430246000 -3.989751e+001 -1.567543e+002 -3.072143e-002 1.673521e+002 -4.091502e-002 1.673698e+002 -4.674892e+001 -8.203179e+001
2447120625 -4.056144e+001 -1.590563e+002 -3.622549e-002 1.660225e+002 -4.495203e-002 1.660237e+002 -4.796132e+001 -9.266711e+001
2463995250 -4.124368e+001 -1.601564e+002 -3.942893e-002 1.646734e+002 -4.362942e-002 1.646989e+002 -4.723409e+001 -1.096978e+002
2480869875 -4.180097e+001 -1.602864e+002 -3.363863e-002 1.633290e+002 -3.552883e-002 1.633584e+002 -4.908599e+001 -1.182583e+002
2497744500 -4.191084e+001 -1.580522e+002 -3.736255e-002 1.620028e+002 -3.821148e-002 1.620312e+002 -4.767933e+001 -1.274477e+002
2514619125 -4.336130e+001 -1.600766e+002 -3.917167e-002 1.606608e+002 -4.513068e-002 1.606709e+002 -4.701844e+001 -1.560377e+002
2531493750 -4.389216e+001 -1.586497e+002 -3.799183e-002 1.593385e+002 -4.374502e-002 1.593391e+002 -4.745088e+001 -1.543081e+002
