!Agilent Technologies,N5230C,MY48100320,A.08.04.10
!Agilent N5230C: A.08.04.10
!Date: Thursday, September 15, 2016 17:42:07
!Correction: S11(Full 2 Port(1,2)) 
!S21(Full 2 Port(1,2)) 
!S12(Full 2 Port(1,2)) 
!S22(Full 2 Port(1,2)) 
!S2P File: Measurements: S11, S21, S12, S22:
# Hz S  MA   R 50
300000 4.617812e-002 7.886961e+001 9.913386e-001 -2.851798e+000 9.917985e-001 -2.871860e+000 5.497632e-002 7.719928e+001
17174625 2.523109e-003 1.003553e+002 9.999570e-001 -3.712675e-001 9.997979e-001 -3.756944e-001 3.417457e-003 7.952272e+001
34049250 1.581081e-003 6.489278e+001 9.984168e-001 -4.664881e-001 9.986343e-001 -4.775867e-001 2.265287e-003 6.859676e+001
50923875 2.800635e-003 4.901239e+001 9.980522e-001 -6.783011e-001 9.978190e-001 -6.469510e-001 2.466633e-003 4.909786e+001
67798500 3.214129e-003 4.296420e+001 9.974577e-001 -8.746720e-001 9.976279e-001 -8.337751e-001 2.520330e-003 6.039428e+001
84673125 3.625874e-003 3.979284e+001 9.970267e-001 -1.059368e+000 9.973393e-001 -1.030000e+000 3.313654e-003 5.577310e+001
101547750 3.306042e-003 4.005872e+001 9.970875e-001 -1.278340e+000 9.969169e-001 -1.276907e+000 3.402844e-003 5.501279e+001
118422375 4.155203e-003 4.200155e+001 9.967173e-001 -1.447580e+000 9.966237e-001 -1.454413e+000 3.866536e-003 4.867584e+001
135297000 4.062594e-003 4.386478e+001 9.964106e-001 -1.634513e+000 9.960662e-001 -1.672022e+000 3.803672e-003 3.577164e+001
152171625 4.052087e-003 3.067376e+001 9.960933e-001 -1.842758e+000 9.958120e-001 -1.793852e+000 3.434124e-003 4.549757e+001
169046250 4.966058e-003 3.652587e+001 9.959040e-001 -1.998307e+000 9.958327e-001 -2.013558e+000 4.411059e-003 3.639420e+001
185920875 5.045482e-003 4.613467e+001 9.957681e-001 -2.189657e+000 9.957542e-001 -2.194241e+000 4.389088e-003 3.307713e+001
202795500 4.725520e-003 4.510118e+001 9.953175e-001 -2.360248e+000 9.960111e-001 -2.375763e+000 5.689835e-003 3.002196e+001
219670125 4.693379e-003 4.559837e+001 9.953435e-001 -2.543380e+000 9.956254e-001 -2.574537e+000 5.452019e-003 2.800573e+001
236544750 4.720002e-003 3.942837e+001 9.953759e-001 -2.768494e+000 9.948786e-001 -2.745435e+000 5.739971e-003 3.254560e+001
253419375 4.743827e-003 3.842661e+001 9.952369e-001 -2.934907e+000 9.949232e-001 -2.923982e+000 6.069109e-003 3.402833e+001
270294000 3.723224e-003 3.860825e+001 9.949914e-001 -3.102669e+000 9.950406e-001 -3.106442e+000 6.108023e-003 3.387444e+001
287168625 4.113343e-003 4.603931e+001 9.952132e-001 -3.276836e+000 9.947673e-001 -3.298950e+000 6.246358e-003 3.353870e+001
304043250 3.679898e-003 4.729026e+001 9.953539e-001 -3.459853e+000 9.947953e-001 -3.457312e+000 5.650999e-003 3.396706e+001
320917875 4.250736e-003 5.167756e+001 9.945953e-001 -3.652746e+000 9.949713e-001 -3.658227e+000 5.812180e-003 2.488603e+001
337792500 4.429923e-003 5.149408e+001 9.948832e-001 -3.855402e+000 9.941925e-001 -3.833098e+000 6.313040e-003 2.556075e+001
354667125 4.229998e-003 5.049874e+001 9.945304e-001 -4.018144e+000 9.948132e-001 -4.010648e+000 6.076782e-003 2.781889e+001
371541750 4.699362e-003 5.759940e+001 9.949290e-001 -4.201251e+000 9.942963e-001 -4.186563e+000 7.223088e-003 2.398915e+001
388416375 4.944299e-003 5.361609e+001 9.941166e-001 -4.371991e+000 9.943950e-001 -4.380587e+000 7.903765e-003 2.388618e+001
405291000 4.978373e-003 5.826996e+001 9.940056e-001 -4.564146e+000 9.940928e-001 -4.558552e+000 8.469063e-003 2.659509e+001
422165625 4.798703e-003 5.509022e+001 9.938353e-001 -4.736594e+000 9.942501e-001 -4.756484e+000 8.267963e-003 3.063251e+001
439040250 5.192583e-003 6.511604e+001 9.943380e-001 -4.929471e+000 9.939957e-001 -4.927660e+000 8.799371e-003 2.808548e+001
455914875 4.715246e-003 6.519380e+001 9.938683e-001 -5.125272e+000 9.940697e-001 -5.103752e+000 8.735003e-003 2.359247e+001
472789500 4.590829e-003 5.925907e+001 9.944890e-001 -5.280676e+000 9.941704e-001 -5.283375e+000 8.762527e-003 2.449388e+001
489664125 3.799404e-003 5.890067e+001 9.943826e-001 -5.488571e+000 9.938436e-001 -5.492640e+000 8.471013e-003 2.741788e+001
506538750 3.275577e-003 6.686771e+001 9.939716e-001 -5.657749e+000 9.942707e-001 -5.625772e+000 8.696900e-003 1.508595e+001
523413375 2.546293e-003 6.738278e+001 9.940795e-001 -5.839219e+000 9.939225e-001 -5.852765e+000 8.336877e-003 9.856833e+000
540288000 2.155062e-003 7.359100e+001 9.940090e-001 -6.029368e+000 9.934710e-001 -6.013816e+000 8.842671e-003 5.330586e+000
557162625 2.535532e-003 8.393040e+001 9.934552e-001 -6.208355e+000 9.940653e-001 -6.205150e+000 9.722521e-003 3.318003e+000
574037250 2.100748e-003 1.107851e+002 9.937637e-001 -6.404011e+000 9.938034e-001 -6.388374e+000 9.613647e-003 -3.846869e+000
590911875 1.526617e-003 1.045342e+002 9.935077e-001 -6.573174e+000 9.939773e-001 -6.552729e+000 1.068933e-002 -5.302619e+000
607786500 1.927057e-003 1.162262e+002 9.939955e-001 -6.755097e+000 9.935545e-001 -6.758357e+000 1.143811e-002 -1.968433e+000
624661125 2.088781e-003 1.139365e+002 9.934158e-001 -6.931186e+000 9.932844e-001 -6.921481e+000 1.185752e-002 -1.105617e+000
641535750 2.140020e-003 1.252034e+002 9.931902e-001 -7.099853e+000 9.936369e-001 -7.120418e+000 1.203668e-002 -1.635017e+000
658410375 2.704384e-003 1.204562e+002 9.935405e-001 -7.297318e+000 9.936485e-001 -7.303890e+000 1.248398e-002 2.551724e+000
675285000 2.863739e-003 1.314369e+002 9.937482e-001 -7.484270e+000 9.929045e-001 -7.464717e+000 1.331026e-002 1.302935e+000
692159625 2.934416e-003 1.317844e+002 9.931661e-001 -7.685317e+000 9.934115e-001 -7.658188e+000 1.338732e-002 -3.572473e-001
709034250 3.401967e-003 1.355819e+002 9.936019e-001 -7.915142e+000 9.933344e-001 -7.885902e+000 1.351470e-002 -2.059484e+000
725908875 4.501204e-003 1.343363e+002 9.925882e-001 -8.071748e+000 9.932209e-001 -8.088632e+000 1.352440e-002 -2.283163e+000
742783500 4.087296e-003 1.354782e+002 9.924463e-001 -8.254026e+000 9.927141e-001 -8.237643e+000 1.335546e-002 -5.189225e+000
759658125 3.859710e-003 1.285919e+002 9.927071e-001 -8.434695e+000 9.927419e-001 -8.447965e+000 1.370971e-002 -4.657574e+000
776532750 3.810480e-003 1.398512e+002 9.928732e-001 -8.606303e+000 9.918591e-001 -8.595256e+000 1.417716e-002 -5.727641e+000
793407375 4.221937e-003 1.399404e+002 9.922422e-001 -8.790429e+000 9.925728e-001 -8.797380e+000 1.463190e-002 -7.899175e+000
810282000 4.741273e-003 1.398612e+002 9.924185e-001 -8.980585e+000 9.920894e-001 -8.971090e+000 1.541448e-002 -7.470525e+000
827156625 4.176653e-003 1.489000e+002 9.923304e-001 -9.149755e+000 9.926519e-001 -9.152271e+000 1.491756e-002 -9.500709e+000
844031250 5.111568e-003 1.447384e+002 9.917384e-001 -9.329969e+000 9.920804e-001 -9.339208e+000 1.552929e-002 -9.592429e+000
860905875 4.254099e-003 1.475180e+002 9.926142e-001 -9.513062e+000 9.917569e-001 -9.475389e+000 1.633200e-002 -8.652412e+000
877780500 4.818168e-003 1.508233e+002 9.919775e-001 -9.673006e+000 9.914846e-001 -9.682819e+000 1.589716e-002 -8.797668e+000
894655125 4.809408e-003 1.529549e+002 9.920748e-001 -9.856299e+000 9.920232e-001 -9.858901e+000 1.628516e-002 -8.903810e+000
911529750 4.842718e-003 1.504109e+002 9.919038e-001 -1.004581e+001 9.922501e-001 -1.004990e+001 1.613255e-002 -9.598361e+000
928404375 5.209735e-003 1.503526e+002 9.920053e-001 -1.021936e+001 9.923194e-001 -1.023220e+001 1.684029e-002 -1.109212e+001
945279000 4.899771e-003 1.582096e+002 9.922777e-001 -1.041193e+001 9.924833e-001 -1.043042e+001 1.625951e-002 -1.413408e+001
962153625 5.439322e-003 1.621560e+002 9.921982e-001 -1.060089e+001 9.916590e-001 -1.058710e+001 1.647199e-002 -1.548868e+001
979028250 5.403698e-003 1.647192e+002 9.918060e-001 -1.077427e+001 9.923159e-001 -1.075440e+001 1.687520e-002 -1.757427e+001
995902875 5.754023e-003 1.688385e+002 9.919574e-001 -1.094574e+001 9.921210e-001 -1.097461e+001 1.748818e-002 -2.189135e+001
1012777500 5.285629e-003 -1.795952e+002 9.923404e-001 -1.116906e+001 9.923835e-001 -1.115594e+001 1.757703e-002 -2.195022e+001
1029652125 5.423754e-003 -1.748725e+002 9.921722e-001 -1.135160e+001 9.921085e-001 -1.132762e+001 1.780724e-002 -2.319851e+001
1046526750 5.351742e-003 -1.738772e+002 9.919130e-001 -1.149375e+001 9.921348e-001 -1.150995e+001 1.776604e-002 -2.336579e+001
1063401375 6.312554e-003 -1.694147e+002 9.917990e-001 -1.171433e+001 9.924644e-001 -1.169009e+001 1.760888e-002 -2.340475e+001
1080276000 7.148343e-003 -1.678453e+002 9.921861e-001 -1.189926e+001 9.920428e-001 -1.188424e+001 1.828656e-002 -2.399874e+001
1097150625 6.589594e-003 -1.725053e+002 9.925436e-001 -1.204293e+001 9.919560e-001 -1.206491e+001 1.854539e-002 -2.407952e+001
1114025250 7.561150e-003 -1.755803e+002 9.924628e-001 -1.225163e+001 9.916415e-001 -1.224399e+001 1.829864e-002 -2.255501e+001
1130899875 7.444589e-003 -1.753149e+002 9.919617e-001 -1.242712e+001 9.918972e-001 -1.244149e+001 1.824965e-002 -2.398221e+001
1147774500 8.019911e-003 -1.788007e+002 9.918359e-001 -1.261139e+001 9.917746e-001 -1.263952e+001 1.865086e-002 -2.595771e+001
1164649125 7.950660e-003 -1.744353e+002 9.916281e-001 -1.279239e+001 9.917802e-001 -1.279856e+001 1.782253e-002 -2.726128e+001
1181523750 8.104437e-003 -1.746809e+002 9.922304e-001 -1.297097e+001 9.919593e-001 -1.298475e+001 1.736342e-002 -2.980557e+001
1198398375 8.180449e-003 -1.717036e+002 9.919983e-001 -1.316728e+001 9.917045e-001 -1.315826e+001 1.771611e-002 -3.072257e+001
1215273000 8.322539e-003 -1.693652e+002 9.910909e-001 -1.335579e+001 9.921615e-001 -1.334925e+001 1.863464e-002 -3.079864e+001
1232147625 8.374191e-003 -1.685927e+002 9.917343e-001 -1.352844e+001 9.917243e-001 -1.351694e+001 1.891491e-002 -3.065905e+001
1249022250 8.599481e-003 -1.626521e+002 9.917835e-001 -1.370594e+001 9.919419e-001 -1.370607e+001 1.927438e-002 -3.305272e+001
1265896875 9.027722e-003 -1.619184e+002 9.913958e-001 -1.388225e+001 9.912348e-001 -1.391296e+001 1.863327e-002 -3.327129e+001
1282771500 9.296931e-003 -1.569830e+002 9.917787e-001 -1.407091e+001 9.914950e-001 -1.408035e+001 1.871165e-002 -3.187233e+001
1299646125 9.489185e-003 -1.588072e+002 9.916216e-001 -1.428199e+001 9.915422e-001 -1.425587e+001 1.843276e-002 -3.263540e+001
1316520750 9.782225e-003 -1.592786e+002 9.914299e-001 -1.445278e+001 9.916250e-001 -1.443717e+001 1.827108e-002 -3.390331e+001
1333395375 9.409797e-003 -1.604729e+002 9.916798e-001 -1.461531e+001 9.915196e-001 -1.462540e+001 1.761872e-002 -3.581236e+001
1350270000 9.780264e-003 -1.612975e+002 9.913163e-001 -1.482429e+001 9.918055e-001 -1.478932e+001 1.744195e-002 -3.618418e+001
1367144625 9.952071e-003 -1.610776e+002 9.913094e-001 -1.499464e+001 9.917437e-001 -1.500495e+001 1.812023e-002 -3.784075e+001
1384019250 1.009809e-002 -1.555076e+002 9.915786e-001 -1.520205e+001 9.912900e-001 -1.517656e+001 1.731951e-002 -4.165677e+001
1400893875 1.096927e-002 -1.577154e+002 9.908679e-001 -1.535682e+001 9.916250e-001 -1.534492e+001 1.810864e-002 -4.248716e+001
1417768500 1.085474e-002 -1.556441e+002 9.911592e-001 -1.555269e+001 9.916340e-001 -1.551467e+001 1.669758e-002 -4.402525e+001
1434643125 1.026679e-002 -1.527236e+002 9.917445e-001 -1.573978e+001 9.913642e-001 -1.570844e+001 1.771429e-002 -4.505704e+001
1451517750 1.125855e-002 -1.506579e+002 9.908445e-001 -1.589601e+001 9.909950e-001 -1.589681e+001 1.778189e-002 -4.684269e+001
1468392375 1.143567e-002 -1.488145e+002 9.916478e-001 -1.608684e+001 9.915237e-001 -1.608983e+001 1.743843e-002 -4.639312e+001
1485267000 1.185871e-002 -1.470348e+002 9.914814e-001 -1.627303e+001 9.921615e-001 -1.627580e+001 1.763511e-002 -4.674316e+001
1502141625 1.231549e-002 -1.479093e+002 9.898371e-001 -1.650241e+001 9.907060e-001 -1.646692e+001 1.716480e-002 -5.073516e+001
1519016250 1.234542e-002 -1.463029e+002 9.907086e-001 -1.662963e+001 9.914660e-001 -1.661670e+001 1.625820e-002 -5.167696e+001
1535890875 1.345283e-002 -1.481127e+002 9.906353e-001 -1.677877e+001 9.905049e-001 -1.680889e+001 1.641200e-002 -5.076730e+001
1552765500 1.327972e-002 -1.488765e+002 9.912339e-001 -1.700210e+001 9.901086e-001 -1.699516e+001 1.571268e-002 -5.450277e+001
1569640125 1.340799e-002 -1.491727e+002 9.902735e-001 -1.718056e+001 9.909499e-001 -1.716119e+001 1.582548e-002 -5.764320e+001
1586514750 1.268054e-002 -1.502616e+002 9.904096e-001 -1.733988e+001 9.904506e-001 -1.734414e+001 1.558184e-002 -5.540693e+001
1603389375 1.245780e-002 -1.461202e+002 9.899108e-001 -1.756510e+001 9.909376e-001 -1.753776e+001 1.605312e-002 -5.894962e+001
1620264000 1.180212e-002 -1.436445e+002 9.898254e-001 -1.772776e+001 9.906669e-001 -1.771170e+001 1.520159e-002 -5.977723e+001
1637138625 1.322062e-002 -1.437767e+002 9.904630e-001 -1.790053e+001 9.908260e-001 -1.793008e+001 1.554810e-002 -6.410767e+001
1654013250 1.206467e-002 -1.403234e+002 9.905490e-001 -1.808675e+001 9.905584e-001 -1.809624e+001 1.497115e-002 -6.456051e+001
1670887875 1.310403e-002 -1.392307e+002 9.909132e-001 -1.828102e+001 9.906530e-001 -1.827995e+001 1.512981e-002 -6.698402e+001
1687762500 1.325641e-002 -1.333881e+002 9.905247e-001 -1.845878e+001 9.901133e-001 -1.845634e+001 1.449977e-002 -6.600339e+001
1704637125 1.323370e-002 -1.353430e+002 9.904141e-001 -1.864724e+001 9.914301e-001 -1.864990e+001 1.472730e-002 -7.042432e+001
1721511750 1.347103e-002 -1.321273e+002 9.897419e-001 -1.884595e+001 9.900058e-001 -1.883835e+001 1.426945e-002 -7.092289e+001
1738386375 1.351045e-002 -1.340620e+002 9.905546e-001 -1.902343e+001 9.900534e-001 -1.900662e+001 1.395792e-002 -7.524688e+001
1755261000 1.384596e-002 -1.344211e+002 9.897355e-001 -1.920658e+001 9.901593e-001 -1.919855e+001 1.387985e-002 -7.648266e+001
1772135625 1.338293e-002 -1.345630e+002 9.904724e-001 -1.938803e+001 9.896359e-001 -1.936592e+001 1.355799e-002 -8.132419e+001
1789010250 1.325175e-002 -1.327098e+002 9.902093e-001 -1.957034e+001 9.905471e-001 -1.956627e+001 1.358034e-002 -8.425639e+001
1805884875 1.316123e-002 -1.318576e+002 9.899837e-001 -1.974814e+001 9.897102e-001 -1.975311e+001 1.316053e-002 -8.598597e+001
1822759500 1.260385e-002 -1.313568e+002 9.904348e-001 -1.992058e+001 9.904695e-001 -1.994860e+001 1.309897e-002 -8.610434e+001
1839634125 1.202114e-002 -1.281847e+002 9.902719e-001 -2.012893e+001 9.903083e-001 -2.013025e+001 1.303276e-002 -9.086037e+001
1856508750 1.217463e-002 -1.248857e+002 9.898024e-001 -2.031163e+001 9.910555e-001 -2.030246e+001 1.292524e-002 -9.267141e+001
1873383375 1.189786e-002 -1.219425e+002 9.895635e-001 -2.052621e+001 9.910373e-001 -2.045909e+001 1.266921e-002 -9.614280e+001
1890258000 1.256878e-002 -1.179725e+002 9.904535e-001 -2.067414e+001 9.901817e-001 -2.066688e+001 1.261802e-002 -1.008943e+002
1907132625 1.310368e-002 -1.167695e+002 9.900239e-001 -2.085615e+001 9.903421e-001 -2.083888e+001 1.238536e-002 -1.021473e+002
1924007250 1.276403e-002 -1.147240e+002 9.889420e-001 -2.104833e+001 9.900626e-001 -2.104884e+001 1.200489e-002 -1.035008e+002
1940881875 1.258778e-002 -1.137913e+002 9.895220e-001 -2.123002e+001 9.898521e-001 -2.121431e+001 1.129109e-002 -1.103124e+002
1957756500 1.239467e-002 -1.132024e+002 9.898588e-001 -2.141961e+001 9.897645e-001 -2.139889e+001 1.192729e-002 -1.109829e+002
1974631125 1.252509e-002 -1.123120e+002 9.902361e-001 -2.159041e+001 9.894463e-001 -2.161101e+001 1.188593e-002 -1.176924e+002
1991505750 1.189026e-002 -1.127661e+002 9.888883e-001 -2.179681e+001 9.897906e-001 -2.175099e+001 1.161944e-002 -1.217550e+002
2008380375 1.192349e-002 -1.104710e+002 9.900442e-001 -2.194542e+001 9.891964e-001 -2.196738e+001 1.272715e-002 -1.239508e+002
2025255000 1.100173e-002 -1.057436e+002 9.903861e-001 -2.214080e+001 9.893628e-001 -2.213910e+001 1.270035e-002 -1.284139e+002
2042129625 1.173182e-002 -1.021783e+002 9.895630e-001 -2.233106e+001 9.893531e-001 -2.231532e+001 1.239050e-002 -1.335851e+002
2059004250 1.090295e-002 -9.391352e+001 9.898875e-001 -2.251150e+001 9.897780e-001 -2.251218e+001 1.243090e-002 -1.328171e+002
2075878875 1.035266e-002 -9.377555e+001 9.890608e-001 -2.269711e+001 9.896149e-001 -2.269514e+001 1.235321e-002 -1.364811e+002
2092753500 1.174217e-002 -8.627496e+001 9.894320e-001 -2.290933e+001 9.898295e-001 -2.289171e+001 1.308954e-002 -1.380372e+002
2109628125 1.236336e-002 -8.694437e+001 9.892691e-001 -2.305892e+001 9.890892e-001 -2.307583e+001 1.326273e-002 -1.409244e+002
2126502750 1.285026e-002 -8.511008e+001 9.897146e-001 -2.325833e+001 9.895785e-001 -2.323401e+001 1.356804e-002 -1.424773e+002
2143377375 1.282833e-002 -8.457204e+001 9.898598e-001 -2.341847e+001 9.896907e-001 -2.341598e+001 1.370228e-002 -1.489667e+002
2160252000 1.265924e-002 -8.142526e+001 9.893148e-001 -2.361450e+001 9.893140e-001 -2.360196e+001 1.371747e-002 -1.529497e+002
2177126625 1.263661e-002 -7.773906e+001 9.877115e-001 -2.379690e+001 9.886241e-001 -2.379634e+001 1.377353e-002 -1.575915e+002
2194001250 1.162589e-002 -7.716331e+001 9.904644e-001 -2.396638e+001 9.891526e-001 -2.400006e+001 1.334666e-002 -1.583553e+002
2210875875 1.209989e-002 -7.386698e+001 9.907071e-001 -2.418401e+001 9.905704e-001 -2.417033e+001 1.389522e-002 -1.603372e+002
2227750500 1.195753e-002 -6.744090e+001 9.902353e-001 -2.438014e+001 9.890289e-001 -2.436873e+001 1.487886e-002 -1.614366e+002
2244625125 1.268044e-002 -6.739539e+001 9.890934e-001 -2.455156e+001 9.887166e-001 -2.452037e+001 1.552949e-002 -1.656251e+002
2261499750 1.290356e-002 -6.142077e+001 9.888529e-001 -2.471932e+001 9.894180e-001 -2.468786e+001 1.552783e-002 -1.648162e+002
2278374375 1.352382e-002 -5.967461e+001 9.887587e-001 -2.488386e+001 9.888544e-001 -2.490358e+001 1.534671e-002 -1.705416e+002
2295249000 1.413212e-002 -5.688895e+001 9.881556e-001 -2.510785e+001 9.885752e-001 -2.504869e+001 1.580551e-002 -1.735849e+002
2312123625 1.432073e-002 -5.572687e+001 9.885736e-001 -2.525970e+001 9.877072e-001 -2.523520e+001 1.566027e-002 -1.749260e+002
2328998250 1.551046e-002 -5.442160e+001 9.891606e-001 -2.544606e+001 9.887161e-001 -2.545333e+001 1.707240e-002 -1.780799e+002
2345872875 1.601977e-002 -5.392255e+001 9.886143e-001 -2.563864e+001 9.889576e-001 -2.564882e+001 1.649952e-002 -1.789115e+002
2362747500 1.572560e-002 -5.110478e+001 9.902791e-001 -2.578810e+001 9.896334e-001 -2.580392e+001 1.751402e-002 1.788931e+002
2379622125 1.709623e-002 -4.965580e+001 9.886221e-001 -2.597413e+001 9.887649e-001 -2.600894e+001 1.821150e-002 1.756020e+002
2396496750 1.725149e-002 -4.642608e+001 9.881725e-001 -2.617719e+001 9.883634e-001 -2.620651e+001 1.919832e-002 1.723754e+002
2413371375 1.673746e-002 -4.655025e+001 9.881886e-001 -2.635021e+001 9.880081e-001 -2.635438e+001 1.914327e-002 1.708400e+002
2430246000 1.696497e-002 -4.258138e+001 9.888734e-001 -2.654438e+001 9.882684e-001 -2.654609e+001 1.949556e-002 1.697634e+002
2447120625 1.748784e-002 -4.057823e+001 9.888132e-001 -2.672790e+001 9.885230e-001 -2.673306e+001 1.999100e-002 1.678116e+002
2463995250 1.808439e-002 -3.827327e+001 9.883148e-001 -2.692345e+001 9.885315e-001 -2.688913e+001 2.086261e-002 1.677780e+002
2480869875 1.873541e-002 -3.574797e+001 9.888602e-001 -2.709516e+001 9.886573e-001 -2.707664e+001 2.025501e-002 1.657180e+002
2497744500 1.919845e-002 -3.593644e+001 9.882355e-001 -2.726927e+001 9.883708e-001 -2.725257e+001 2.061376e-002 1.644062e+002
2514619125 2.003378e-002 -3.359419e+001 9.876134e-001 -2.744818e+001 9.879737e-001 -2.748064e+001 2.140071e-002 1.601327e+002
2531493750 2.058606e-002 -3.255367e+001 9.878672e-001 -2.763982e+001 9.880152e-001 -2.766410e+001 2.100787e-002 1.585950e+002
2548368375 2.130748e-002 -3.137466e+001 9.881510e-001 -2.781607e+001 9.884371e-001 -2.778817e+001 2.294980e-002 1.566293e+002
2565243000 2.205446e-002 -3.302882e+001 9.882768e-001 -2.799864e+001 9.881077e-001 -2.798748e+001 2.280958e-002 1.568137e+002
2582117625 2.238941e-002 -3.067585e+001 9.888268e-001 -2.817067e+001 9.878517e-001 -2.817443e+001 2.344198e-002 1.542950e+002
2598992250 2.333897e-002 -2.961111e+001 9.875865e-001 -2.836418e+001 9.880982e-001 -2.837530e+001 2.376187e-002 1.537422e+002
2615866875 2.439528e-002 -2.877367e+001 9.868790e-001 -2.854047e+001 9.870118e-001 -2.854622e+001 2.434696e-002 1.517784e+002
