!Agilent Technologies,N5230C,MY48100320,A.08.04.10
!Agilent N5230C: A.08.04.10
!Date: Thursday, July 07, 2016 05:03:17
!Correction: S11(Full 2 Port(1,2)) 
!S21(Full 2 Port(1,2)) 
!S12(Full 2 Port(1,2)) 
!S22(Full 2 Port(1,2)) 
!S2P File: Measurements: S11, S21, S12, S22:
# Hz S  dB   R 50
300000 -2.520959e+001 8.074142e+001 -7.999830e-002 -3.202222e+000 -7.697766e-002 -3.262292e+000 -2.439917e+001 7.734215e+001
67798500 -5.694419e+001 -1.732212e+002 9.859013e-003 6.214606e+000 1.178217e-002 6.231673e+000 -5.365419e+001 -1.648043e+002
135297000 -5.996473e+001 -1.083340e+002 1.133488e-002 1.234122e+001 1.016004e-002 1.236139e+001 -5.376661e+001 -1.567290e+002
202795500 -5.789113e+001 -1.367271e+002 1.871265e-002 1.848960e+001 2.003943e-002 1.847067e+001 -5.117223e+001 -1.479878e+002
270294000 -5.727663e+001 -9.105758e+001 2.368574e-002 2.461269e+001 2.320491e-002 2.462705e+001 -4.862247e+001 -1.392836e+002
337792500 -5.649369e+001 -4.144767e+001 2.673796e-002 3.072391e+001 2.811230e-002 3.073908e+001 -4.829194e+001 -1.318624e+002
405291000 -6.438976e+001 4.792544e+000 2.593384e-002 3.688882e+001 3.062416e-002 3.687415e+001 -4.872481e+001 -1.432926e+002
472789500 -6.509772e+001 5.510420e+001 3.084613e-002 4.303210e+001 3.427006e-002 4.300273e+001 -5.204337e+001 -1.471928e+002
540288000 -6.191645e+001 1.603187e+001 3.800517e-002 4.911212e+001 3.404978e-002 4.912008e+001 -5.062839e+001 -1.247554e+002
607786500 -5.429305e+001 -4.332471e+001 3.898983e-002 5.527316e+001 3.520763e-002 5.527003e+001 -5.081904e+001 -8.388992e+001
675285000 -4.704460e+001 -2.750530e+001 3.966712e-002 6.138342e+001 3.780457e-002 6.138863e+001 -4.740701e+001 -6.025312e+001
742783500 -4.589287e+001 -1.843559e+001 3.966949e-002 6.752237e+001 3.893719e-002 6.752238e+001 -4.565333e+001 -4.771058e+001
810282000 -4.486596e+001 -1.820032e+001 4.087553e-002 7.362524e+001 3.884698e-002 7.364368e+001 -4.385593e+001 -5.016329e+001
877780500 -4.252085e+001 -2.163992e+001 4.416011e-002 7.978947e+001 4.320640e-002 7.979852e+001 -4.169143e+001 -3.815201e+001
945279000 -4.132973e+001 -1.704494e+001 4.778164e-002 8.594906e+001 4.493506e-002 8.594877e+001 -4.096811e+001 -3.539185e+001
1012777500 -4.029863e+001 -1.524802e+001 4.935119e-002 9.205424e+001 4.797364e-002 9.208285e+001 -4.069645e+001 -3.003066e+001
1080276000 -3.946656e+001 -3.398958e+000 5.423570e-002 9.816913e+001 4.832447e-002 9.813689e+001 -3.934919e+001 -2.168422e+001
1147774500 -3.911494e+001 1.055179e+000 4.939840e-002 1.042986e+002 5.530707e-002 1.043110e+002 -3.995068e+001 -1.821322e+001
1215273000 -3.897544e+001 5.124779e+000 5.182477e-002 1.104010e+002 5.563325e-002 1.104104e+002 -3.955276e+001 -1.753089e+001
1282771500 -3.961061e+001 2.008681e+001 5.592059e-002 1.165162e+002 5.418067e-002 1.165274e+002 -3.998249e+001 -1.384731e+001
1350270000 -3.998029e+001 2.312391e+001 5.587601e-002 1.226573e+002 5.786649e-002 1.226404e+002 -4.009877e+001 -1.774243e+001
1417768500 -4.074426e+001 3.283788e+001 5.772024e-002 1.287778e+002 5.782588e-002 1.287721e+002 -4.093490e+001 -7.465692e+000
1485267000 -4.384460e+001 5.061848e+001 5.866284e-002 1.348985e+002 5.986629e-002 1.348974e+002 -4.241531e+001 -1.039868e+001
1552765500 -4.560582e+001 7.649493e+001 5.615472e-002 1.410273e+002 5.876560e-002 1.410356e+002 -4.388177e+001 -1.504098e+001
1620264000 -5.055984e+001 8.870742e+001 5.883043e-002 1.471487e+002 6.069878e-002 1.471594e+002 -4.647918e+001 -1.071509e+001
1687762500 -5.273290e+001 1.517769e+002 6.042471e-002 1.532998e+002 6.147641e-002 1.532810e+002 -4.860767e+001 -3.822410e+001
1755261000 -4.925784e+001 -1.675939e+002 6.329400e-002 1.594101e+002 6.382333e-002 1.594005e+002 -4.729369e+001 -5.838142e+001
1822759500 -4.760937e+001 -1.554342e+002 6.559914e-002 1.655323e+002 6.661126e-002 1.655335e+002 -4.556415e+001 -5.147984e+001
1890258000 -4.545689e+001 -1.390236e+002 6.884253e-002 1.716473e+002 6.752809e-002 1.716386e+002 -4.405206e+001 -6.287363e+001
1957756500 -4.388605e+001 -1.385478e+002 7.252634e-002 1.777681e+002 7.368439e-002 1.777922e+002 -4.227590e+001 -5.518048e+001
2025255000 -4.406057e+001 -1.446274e+002 8.235655e-002 -1.761211e+002 7.475046e-002 -1.760945e+002 -4.126315e+001 -4.799093e+001
2092753500 -4.205482e+001 -1.418174e+002 8.349837e-002 -1.700136e+002 8.168400e-002 -1.700127e+002 -4.010446e+001 -4.395353e+001
2160252000 -4.134520e+001 -1.294873e+002 8.087497e-002 -1.639014e+002 8.567828e-002 -1.639033e+002 -3.912107e+001 -3.817865e+001
2227750500 -4.058903e+001 -1.307890e+002 8.318099e-002 -1.578338e+002 8.492837e-002 -1.578234e+002 -3.907308e+001 -2.493661e+001
2295249000 -4.018529e+001 -1.209900e+002 8.801334e-002 -1.517244e+002 8.543790e-002 -1.516702e+002 -3.935431e+001 -1.848324e+001
2362747500 -4.067879e+001 -1.173219e+002 8.218870e-002 -1.455833e+002 8.239973e-002 -1.455922e+002 -3.843036e+001 -9.825600e+000
2430246000 -4.072108e+001 -1.063461e+002 8.389440e-002 -1.394744e+002 8.150589e-002 -1.394911e+002 -3.843329e+001 1.411317e+000
2497744500 -4.165360e+001 -1.047758e+002 8.381128e-002 -1.333724e+002 8.577733e-002 -1.333522e+002 -3.894090e+001 1.060969e+001
2565243000 -4.309075e+001 -9.612270e+001 8.654473e-002 -1.272609e+002 8.340217e-002 -1.272420e+002 -3.899112e+001 2.064981e+001
2632741500 -4.489137e+001 -9.451340e+001 8.328433e-002 -1.211278e+002 8.398083e-002 -1.210987e+002 -3.891448e+001 3.056541e+001
2700240000 -4.593618e+001 -8.350805e+001 8.356105e-002 -1.150166e+002 8.254322e-002 -1.149882e+002 -4.042930e+001 4.324603e+001
2767738500 -4.936715e+001 -8.239227e+001 8.177784e-002 -1.088886e+002 8.614711e-002 -1.088895e+002 -4.151595e+001 5.037720e+001
2835237000 -5.276094e+001 -7.460657e+001 8.272649e-002 -1.027629e+002 8.814066e-002 -1.027346e+002 -4.081459e+001 6.468166e+001
2902735500 -6.063859e+001 -5.824936e+001 8.489101e-002 -9.662204e+001 8.478549e-002 -9.661446e+001 -4.522811e+001 7.288660e+001
2970234000 -6.585659e+001 1.172090e+002 8.586396e-002 -9.051440e+001 8.905278e-002 -9.050121e+001 -4.680943e+001 9.118449e+001
3037732500 -5.428590e+001 -1.750969e+002 8.943687e-002 -8.440380e+001 9.121799e-002 -8.436458e+001 -4.762565e+001 1.294377e+002
3105231000 -5.437333e+001 -1.617301e+002 8.884566e-002 -7.825562e+001 8.880288e-002 -7.824687e+001 -4.661861e+001 1.508243e+002
3172729500 -4.709726e+001 -1.468013e+002 8.680668e-002 -7.214196e+001 8.838362e-002 -7.213969e+001 -4.710194e+001 1.676688e+002
3240228000 -4.640886e+001 -1.132183e+002 8.925951e-002 -6.604282e+001 9.346659e-002 -6.600700e+001 -4.544395e+001 1.722416e+002
3307726500 -4.357778e+001 -8.584565e+001 9.302001e-002 -5.987334e+001 9.123071e-002 -5.987926e+001 -4.590186e+001 1.773711e+002
3375225000 -4.208877e+001 -7.252234e+001 9.097984e-002 -5.377187e+001 9.254842e-002 -5.377066e+001 -4.911901e+001 1.690800e+002
3442723500 -4.113583e+001 -6.001912e+001 9.352318e-002 -4.765123e+001 9.395617e-002 -4.762097e+001 -4.723013e+001 1.615233e+002
3510222000 -4.055196e+001 -4.300792e+001 9.128670e-002 -4.152287e+001 9.346251e-002 -4.149603e+001 -4.614860e+001 1.441060e+002
3577720500 -3.955809e+001 -3.408861e+001 9.530573e-002 -3.536116e+001 9.502759e-002 -3.534711e+001 -4.567287e+001 1.289884e+002
3645219000 -3.904596e+001 -2.824696e+001 9.847605e-002 -2.926267e+001 9.879387e-002 -2.923094e+001 -4.188947e+001 1.353249e+002
3712717500 -3.924935e+001 -1.491885e+001 1.038410e-001 -2.312586e+001 1.007770e-001 -2.311310e+001 -4.124603e+001 1.361036e+002
3780216000 -3.865049e+001 -1.600353e+000 1.050944e-001 -1.698289e+001 1.028736e-001 -1.697644e+001 -3.922845e+001 1.289263e+002
3847714500 -3.791243e+001 8.321361e+000 1.061082e-001 -1.087500e+001 1.063935e-001 -1.086720e+001 -3.786439e+001 1.376735e+002
3915213000 -3.847313e+001 2.336789e+001 1.040943e-001 -4.773124e+000 1.119687e-001 -4.776231e+000 -3.771928e+001 1.363679e+002
3982711500 -3.825060e+001 3.771055e+001 1.077595e-001 1.328369e+000 1.131045e-001 1.353636e+000 -3.723479e+001 1.360688e+002
4050210000 -3.847437e+001 5.083763e+001 1.148777e-001 7.447748e+000 1.122711e-001 7.493744e+000 -3.638767e+001 1.434335e+002
4117708500 -3.946053e+001 6.964365e+001 1.147315e-001 1.358777e+001 1.120813e-001 1.360587e+001 -3.683417e+001 1.451319e+002
4185207000 -3.997116e+001 8.580980e+001 1.138829e-001 1.971681e+001 1.173486e-001 1.971530e+001 -3.826651e+001 1.485042e+002
4252705500 -4.177557e+001 1.012171e+002 1.209507e-001 2.584622e+001 1.209999e-001 2.582687e+001 -3.904330e+001 1.563541e+002
4320204000 -4.272561e+001 1.215236e+002 1.178252e-001 3.195365e+001 1.217573e-001 3.198335e+001 -4.115045e+001 1.637284e+002
4387702500 -4.368135e+001 1.431624e+002 1.228492e-001 3.805555e+001 1.257640e-001 3.809500e+001 -4.527417e+001 1.610609e+002
4455201000 -4.484128e+001 1.574958e+002 1.275711e-001 4.420613e+001 1.266152e-001 4.420004e+001 -4.516047e+001 -1.754034e+002
4522699500 -4.514846e+001 1.765433e+002 1.227250e-001 5.030854e+001 1.277127e-001 5.031202e+001 -5.140558e+001 -1.599639e+002
4590198000 -4.863657e+001 -1.482458e+002 1.334276e-001 5.645121e+001 1.320102e-001 5.642719e+001 -5.425901e+001 -1.181984e+002
4657696500 -4.666293e+001 -1.119315e+002 1.351712e-001 6.255513e+001 1.366073e-001 6.257399e+001 -5.086102e+001 -5.624670e+001
4725195000 -4.556923e+001 -9.125063e+001 1.352172e-001 6.868927e+001 1.362931e-001 6.867380e+001 -4.908089e+001 -4.474426e+001
4792693500 -4.818585e+001 -6.591473e+001 1.400174e-001 7.480074e+001 1.388524e-001 7.476197e+001 -4.679095e+001 -4.621793e+001
4860192000 -4.377749e+001 -3.219513e+001 1.411034e-001 8.089503e+001 1.405534e-001 8.086065e+001 -4.432687e+001 -2.926551e+001
4927690500 -4.421843e+001 -1.178653e+001 1.448455e-001 8.701180e+001 1.399631e-001 8.700506e+001 -4.588177e+001 -2.935104e+001
4995189000 -4.378286e+001 1.832024e+001 1.474445e-001 9.308832e+001 1.429836e-001 9.312533e+001 -4.637814e+001 -4.189385e+001
5062687500 -4.302539e+001 4.495314e+001 1.483294e-001 9.922036e+001 1.445576e-001 9.920892e+001 -4.870449e+001 -5.745830e+001
5130186000 -4.479064e+001 6.069870e+001 1.425700e-001 1.053264e+002 1.421255e-001 1.053035e+002 -5.141779e+001 -8.533498e+001
5197684500 -4.381221e+001 9.470789e+001 1.455154e-001 1.114140e+002 1.464652e-001 1.114412e+002 -4.827915e+001 -1.419601e+002
5265183000 -4.633588e+001 1.136882e+002 1.468156e-001 1.175601e+002 1.492985e-001 1.175557e+002 -4.523936e+001 -1.527056e+002
5332681500 -4.519889e+001 1.500690e+002 1.517200e-001 1.236580e+002 1.465363e-001 1.236626e+002 -4.442608e+001 -1.629987e+002
5400180000 -4.658487e+001 -1.627030e+002 1.457275e-001 1.297974e+002 1.479864e-001 1.297900e+002 -4.387350e+001 -1.769369e+002
5467678500 -4.438674e+001 -1.234595e+002 1.484869e-001 1.359097e+002 1.485255e-001 1.358801e+002 -4.183778e+001 -1.783406e+002
5535177000 -4.100333e+001 -9.871008e+001 1.495776e-001 1.420306e+002 1.513409e-001 1.420226e+002 -4.224495e+001 1.763455e+002
5602675500 -3.933293e+001 -8.599978e+001 1.526266e-001 1.481245e+002 1.519798e-001 1.481320e+002 -4.162119e+001 1.798311e+002
5670174000 -3.677495e+001 -6.374149e+001 1.475576e-001 1.542749e+002 1.508372e-001 1.542742e+002 -4.140000e+001 1.700591e+002
5737672500 -3.551279e+001 -5.195302e+001 1.496253e-001 1.603780e+002 1.500178e-001 1.603860e+002 -4.179234e+001 1.720818e+002
5805171000 -3.542277e+001 -4.390202e+001 1.508901e-001 1.664852e+002 1.507385e-001 1.664962e+002 -4.298593e+001 1.688239e+002
5872669500 -3.417259e+001 -2.834032e+001 1.530639e-001 1.726278e+002 1.540824e-001 1.726338e+002 -4.291961e+001 1.741568e+002
5940168000 -3.413688e+001 -2.447608e+001 1.540621e-001 1.787361e+002 1.521845e-001 1.787449e+002 -4.358620e+001 -1.735739e+002
6007666500 -3.553247e+001 -1.867303e+001 1.543671e-001 -1.751464e+002 1.537249e-001 -1.751555e+002 -4.409275e+001 -1.508508e+002
6075165000 -3.558847e+001 -1.740102e+001 1.576456e-001 -1.690479e+002 1.541300e-001 -1.690348e+002 -4.270607e+001 -1.288734e+002
6142663500 -3.665470e+001 -1.827206e+001 1.553617e-001 -1.629177e+002 1.610459e-001 -1.629090e+002 -4.055620e+001 -1.173978e+002
6210162000 -3.662656e+001 -2.669280e+001 1.580544e-001 -1.567839e+002 1.575586e-001 -1.567909e+002 -3.727734e+001 -1.100427e+002
6277660500 -3.680339e+001 -2.189998e+001 1.585209e-001 -1.506710e+002 1.616120e-001 -1.506557e+002 -3.562701e+001 -1.028235e+002
6345159000 -3.507229e+001 -2.128442e+001 1.600184e-001 -1.445641e+002 1.608829e-001 -1.445608e+002 -3.373792e+001 -1.069355e+002
6412657500 -3.437330e+001 -1.738109e+001 1.572127e-001 -1.384248e+002 1.634535e-001 -1.384128e+002 -3.172063e+001 -1.059135e+002
6480156000 -3.438218e+001 -8.919096e+000 1.619339e-001 -1.322906e+002 1.627535e-001 -1.323212e+002 -3.172040e+001 -1.046375e+002
6547654500 -3.425734e+001 5.091372e+000 1.593975e-001 -1.261877e+002 1.582968e-001 -1.261615e+002 -3.117557e+001 -1.086101e+002
6615153000 -3.430044e+001 2.075602e+001 1.670030e-001 -1.200732e+002 1.663651e-001 -1.200760e+002 -3.061179e+001 -1.115048e+002
6682651500 -3.368813e+001 3.827148e+001 1.614680e-001 -1.139297e+002 1.650715e-001 -1.139632e+002 -3.078313e+001 -1.146136e+002
6750150000 -3.370981e+001 5.890482e+001 1.630494e-001 -1.078426e+002 1.650124e-001 -1.078031e+002 -3.102391e+001 -1.202861e+002
6817648500 -3.343494e+001 8.406233e+001 1.598901e-001 -1.017170e+002 1.687001e-001 -1.016897e+002 -3.117951e+001 -1.278207e+002
6885147000 -3.312928e+001 1.084302e+002 1.644282e-001 -9.558546e+001 1.680367e-001 -9.556107e+001 -3.227600e+001 -1.345031e+002
6952645500 -3.210064e+001 1.288352e+002 1.721987e-001 -8.945754e+001 1.708031e-001 -8.944057e+001 -3.282944e+001 -1.468241e+002
7020144000 -3.149459e+001 1.477900e+002 1.701732e-001 -8.330695e+001 1.687402e-001 -8.332015e+001 -3.318020e+001 -1.529377e+002
7087642500 -3.125443e+001 1.634671e+002 1.722307e-001 -7.717360e+001 1.730490e-001 -7.720278e+001 -3.448173e+001 -1.698481e+002
7155141000 -3.077853e+001 1.799848e+002 1.745393e-001 -7.108439e+001 1.761640e-001 -7.106834e+001 -3.472272e+001 -1.769762e+002
7222639500 -3.135665e+001 -1.661443e+002 1.770125e-001 -6.496334e+001 1.738838e-001 -6.495787e+001 -3.652668e+001 1.788129e+002
7290138000 -3.185788e+001 -1.508959e+002 1.760738e-001 -5.880919e+001 1.790590e-001 -5.882011e+001 -3.896816e+001 1.654735e+002
7357636500 -3.387565e+001 -1.386484e+002 1.811555e-001 -5.269039e+001 1.769970e-001 -5.270966e+001 -4.258130e+001 1.481358e+002
7425135000 -3.591248e+001 -1.283456e+002 1.837048e-001 -4.659392e+001 1.776694e-001 -4.658073e+001 -5.166560e+001 9.890018e+001
7492633500 -4.082307e+001 -1.164572e+002 1.831051e-001 -4.045919e+001 1.793973e-001 -4.042577e+001 -4.244453e+001 2.678693e+001
7560132000 -5.353238e+001 -1.291603e+002 1.812144e-001 -3.432667e+001 1.842901e-001 -3.431749e+001 -3.864488e+001 1.548219e+001
7627630500 -4.470794e+001 9.496547e+001 1.840697e-001 -2.822421e+001 1.866944e-001 -2.818429e+001 -3.477938e+001 3.661718e+000
7695129000 -3.711380e+001 1.183288e+002 1.859943e-001 -2.206542e+001 1.826701e-001 -2.208946e+001 -3.247287e+001 4.155289e+000
7762627500 -3.433854e+001 1.241938e+002 1.874665e-001 -1.599271e+001 1.823254e-001 -1.596139e+001 -3.164927e+001 2.584272e+000
7830126000 -3.311626e+001 1.358951e+002 1.913234e-001 -9.871056e+000 1.877249e-001 -9.837727e+000 -3.116797e+001 -2.143484e-001
7897624500 -3.175072e+001 1.516223e+002 1.928483e-001 -3.766099e+000 1.870276e-001 -3.718748e+000 -3.125121e+001 1.075299e+000
7965123000 -3.139626e+001 1.647779e+002 1.935795e-001 2.407146e+000 1.913678e-001 2.366253e+000 -3.182101e+001 2.078646e+000
8032621500 -3.218208e+001 1.778053e+002 1.887290e-001 8.498807e+000 1.949541e-001 8.482741e+000 -3.373950e+001 6.772334e+000
8100120000 -3.335373e+001 -1.651026e+002 1.985923e-001 1.462582e+001 1.979205e-001 1.461749e+001 -3.672732e+001 1.132782e+001
8167618500 -3.537346e+001 -1.444941e+002 1.958754e-001 2.073206e+001 1.990921e-001 2.074294e+001 -4.111942e+001 3.337080e+001
8235117000 -3.785732e+001 -1.099748e+002 2.040329e-001 2.682631e+001 2.031026e-001 2.687158e+001 -4.545581e+001 9.081621e+001
8302615500 -3.799763e+001 -6.505894e+001 2.092711e-001 3.302718e+001 2.014576e-001 3.297319e+001 -4.075145e+001 1.488937e+002
8370114000 -3.888977e+001 -3.133467e+001 2.075862e-001 3.911415e+001 2.070655e-001 3.911772e+001 -3.738340e+001 1.598153e+002
8437612500 -3.575776e+001 4.001366e+000 2.117749e-001 4.526352e+001 2.068046e-001 4.526252e+001 -3.435701e+001 1.700981e+002
8505111000 -3.485143e+001 2.309906e+001 2.108646e-001 5.134613e+001 2.130567e-001 5.136497e+001 -3.376474e+001 1.777529e+002
8572609500 -3.383905e+001 4.477748e+001 2.116525e-001 5.747263e+001 2.109150e-001 5.749215e+001 -3.338250e+001 -1.776255e+002
8640108000 -3.303970e+001 6.774908e+001 2.096905e-001 6.360378e+001 2.119477e-001 6.356970e+001 -3.427521e+001 -1.761395e+002
8707606500 -3.372894e+001 7.675461e+001 2.101413e-001 6.968084e+001 2.142306e-001 6.969418e+001 -3.584399e+001 -1.606566e+002
8775105000 -3.517597e+001 9.929059e+001 2.086356e-001 7.577224e+001 2.157247e-001 7.580511e+001 -3.952306e+001 -1.462854e+002
8842603500 -3.720327e+001 1.176429e+002 2.129914e-001 8.191708e+001 2.134723e-001 8.188896e+001 -4.236853e+001 -1.138306e+002
8910102000 -4.082549e+001 1.364907e+002 2.170315e-001 8.800446e+001 2.204520e-001 8.804063e+001 -4.010221e+001 -6.947385e+001
8977600500 -5.005455e+001 -1.693545e+002 2.198555e-001 9.411713e+001 2.164388e-001 9.411184e+001 -3.639888e+001 -3.285018e+001
9045099000 -4.525231e+001 -8.239838e+001 2.214665e-001 1.002393e+002 2.223726e-001 1.002742e+002 -3.467727e+001 -2.817928e+001
9112597500 -4.099531e+001 -2.916461e+001 2.202830e-001 1.063671e+002 2.199740e-001 1.063990e+002 -3.290952e+001 -2.286449e+001
9180096000 -3.617443e+001 -7.183769e+000 2.212787e-001 1.124997e+002 2.238394e-001 1.125041e+002 -3.218396e+001 -1.879217e+001
9247594500 -3.337865e+001 9.054144e+000 2.268196e-001 1.186328e+002 2.261859e-001 1.186328e+002 -3.192435e+001 -1.537411e+001
9315093000 -3.292519e+001 2.671687e+001 2.265483e-001 1.247139e+002 2.281244e-001 1.247789e+002 -3.312984e+001 -1.839656e+001
9382591500 -3.118095e+001 4.609141e+001 2.277526e-001 1.308637e+002 2.318192e-001 1.308613e+002 -3.368652e+001 -2.393335e+001
9450090000 -3.105462e+001 6.313055e+001 2.384197e-001 1.369827e+002 2.414872e-001 1.370312e+002 -3.657344e+001 -2.475078e+001
9517588500 -3.078838e+001 7.869470e+001 2.376710e-001 1.431392e+002 2.398157e-001 1.431517e+002 -3.899747e+001 -5.595291e+001
9585087000 -3.134385e+001 1.029041e+002 2.487861e-001 1.492580e+002 2.419237e-001 1.492609e+002 -4.014430e+001 -7.665752e+001
9652585500 -3.177527e+001 1.244927e+002 2.489010e-001 1.553755e+002 2.505985e-001 1.553921e+002 -3.837015e+001 -1.173086e+002
9720084000 -3.205225e+001 1.473932e+002 2.546175e-001 1.615322e+002 2.504362e-001 1.615423e+002 -3.530234e+001 -1.343151e+002
9787582500 -3.368525e+001 1.751804e+002 2.573910e-001 1.676473e+002 2.589907e-001 1.676377e+002 -3.413701e+001 -1.467029e+002
9855081000 -3.336131e+001 -1.583801e+002 2.627147e-001 1.737597e+002 2.597243e-001 1.737770e+002 -3.278924e+001 -1.549236e+002
9922579500 -3.320216e+001 -1.297756e+002 2.588344e-001 1.799111e+002 2.649316e-001 1.798732e+002 -3.291566e+001 -1.616250e+002
9990078000 -3.272112e+001 -1.073308e+002 2.599628e-001 -1.739962e+002 2.580116e-001 -1.740032e+002 -3.375432e+001 -1.745705e+002
10057576500 -3.254076e+001 -8.667561e+001 2.605950e-001 -1.678802e+002 2.664378e-001 -1.679233e+002 -3.466288e+001 1.648230e+002
10125075000 -3.274728e+001 -7.029286e+001 2.657906e-001 -1.618367e+002 2.606006e-001 -1.618180e+002 -3.463019e+001 1.416566e+002
10192573500 -3.396092e+001 -4.960831e+001 2.622834e-001 -1.557269e+002 2.684529e-001 -1.557313e+002 -3.316932e+001 1.071137e+002
10260072000 -3.714996e+001 -2.345304e+001 2.598077e-001 -1.496253e+002 2.689700e-001 -1.496112e+002 -2.971637e+001 9.419327e+001
10327570500 -3.876583e+001 2.980397e+000 2.733835e-001 -1.434896e+002 2.698033e-001 -1.434763e+002 -2.821472e+001 8.171830e+001
10395069000 -4.420503e+001 7.099504e+001 2.740087e-001 -1.373798e+002 2.723202e-001 -1.373651e+002 -2.596079e+001 7.428632e+001
