!Agilent Technologies,N5230C,MY48100320,A.08.04.10
!Agilent N5230C: A.08.04.10
!Date: Thursday, July 07, 2016 05:29:28
!Correction: S11(Full 2 Port(1,2)) 
!S21(Full 2 Port(1,2)) 
!S12(Full 2 Port(1,2)) 
!S22(Full 2 Port(1,2)) 
!S2P File: Measurements: S11, S21, S12, S22:
# Hz S  dB   R 50
300000 -2.295826e+001 7.294565e+001 -1.790055e-001 -4.079023e+000 -1.743798e-001 -4.074501e+000 -2.228391e+001 7.076618e+001
67798500 -2.871488e+001 6.941233e+000 -3.227644e-001 5.515679e+000 -3.265737e-001 5.517376e+000 -2.871612e+001 -1.897995e+001
135297000 -2.778808e+001 1.270832e+001 -3.430051e-001 1.109315e+001 -3.450679e-001 1.111991e+001 -2.753810e+001 -3.793917e+001
202795500 -2.699722e+001 2.184142e+001 -3.644620e-001 1.665864e+001 -3.610134e-001 1.665719e+001 -2.606525e+001 -5.388092e+001
270294000 -2.553813e+001 2.917209e+001 -3.890006e-001 2.245109e+001 -3.907976e-001 2.243068e+001 -2.434670e+001 -7.089448e+001
337792500 -2.410655e+001 3.738812e+001 -3.944299e-001 2.828759e+001 -3.946087e-001 2.828905e+001 -2.275530e+001 -8.576405e+001
405291000 -2.293256e+001 4.745859e+001 -3.861091e-001 3.414785e+001 -3.842494e-001 3.414179e+001 -2.173537e+001 -9.953080e+001
472789500 -2.184895e+001 5.761373e+001 -3.557111e-001 3.993719e+001 -3.571593e-001 3.990675e+001 -2.105523e+001 -1.119477e+002
540288000 -2.105544e+001 6.802654e+001 -3.180901e-001 4.560245e+001 -3.231302e-001 4.561188e+001 -2.036419e+001 -1.222436e+002
607786500 -2.056506e+001 7.831223e+001 -2.836121e-001 5.116094e+001 -2.855096e-001 5.118570e+001 -2.001060e+001 -1.296298e+002
675285000 -2.000969e+001 8.937527e+001 -2.622673e-001 5.668436e+001 -2.638968e-001 5.664719e+001 -1.956622e+001 -1.364263e+002
742783500 -1.948098e+001 1.023482e+002 -2.471903e-001 6.215157e+001 -2.488562e-001 6.213625e+001 -1.913595e+001 -1.431073e+002
810282000 -1.907097e+001 1.162661e+002 -2.413207e-001 6.764319e+001 -2.427291e-001 6.763779e+001 -1.866569e+001 -1.490583e+002
877780500 -1.870912e+001 1.306870e+002 -2.387646e-001 7.312585e+001 -2.375319e-001 7.314162e+001 -1.829074e+001 -1.546764e+002
945279000 -1.829869e+001 1.456299e+002 -2.335627e-001 7.865335e+001 -2.339011e-001 7.864538e+001 -1.779737e+001 -1.604129e+002
1012777500 -1.790281e+001 1.610826e+002 -2.346181e-001 8.415218e+001 -2.342865e-001 8.418484e+001 -1.736927e+001 -1.661785e+002
1080276000 -1.748214e+001 1.760959e+002 -2.354293e-001 8.967574e+001 -2.391432e-001 8.966423e+001 -1.699555e+001 -1.719718e+002
1147774500 -1.702022e+001 -1.680248e+002 -2.449991e-001 9.519923e+001 -2.406195e-001 9.520007e+001 -1.647669e+001 -1.781431e+002
1215273000 -1.656460e+001 -1.517689e+002 -2.467058e-001 1.007439e+002 -2.474277e-001 1.007294e+002 -1.604037e+001 1.763482e+002
1282771500 -1.614223e+001 -1.365436e+002 -2.542691e-001 1.062630e+002 -2.573282e-001 1.062896e+002 -1.561692e+001 1.704776e+002
1350270000 -1.567849e+001 -1.204026e+002 -2.662408e-001 1.118120e+002 -2.638547e-001 1.118353e+002 -1.516044e+001 1.650548e+002
1417768500 -1.524017e+001 -1.045432e+002 -2.754764e-001 1.173739e+002 -2.755562e-001 1.173680e+002 -1.474440e+001 1.590894e+002
1485267000 -1.482927e+001 -8.929703e+001 -2.907082e-001 1.228909e+002 -2.903907e-001 1.228704e+002 -1.430379e+001 1.535426e+002
1552765500 -1.439822e+001 -7.372649e+001 -3.138414e-001 1.284404e+002 -3.096018e-001 1.284182e+002 -1.386514e+001 1.479761e+002
1620264000 -1.396418e+001 -5.808458e+001 -3.347529e-001 1.339388e+002 -3.355659e-001 1.339806e+002 -1.347439e+001 1.423711e+002
1687762500 -1.356745e+001 -4.264974e+001 -3.754112e-001 1.395222e+002 -3.730821e-001 1.395189e+002 -1.320854e+001 1.370763e+002
1755261000 -1.322731e+001 -2.729985e+001 -4.026099e-001 1.451936e+002 -4.031749e-001 1.451879e+002 -1.299307e+001 1.321570e+002
1822759500 -1.299070e+001 -1.123783e+001 -4.221123e-001 1.509072e+002 -4.217909e-001 1.509034e+002 -1.281364e+001 1.273600e+002
1890258000 -1.278322e+001 4.768297e+000 -4.277881e-001 1.565631e+002 -4.279491e-001 1.565882e+002 -1.256570e+001 1.227415e+002
1957756500 -1.256710e+001 2.146995e+001 -4.309165e-001 1.621960e+002 -4.323498e-001 1.622345e+002 -1.232830e+001 1.174169e+002
2025255000 -1.228734e+001 3.847791e+001 -4.400633e-001 1.677974e+002 -4.433346e-001 1.678265e+002 -1.210452e+001 1.119321e+002
2092753500 -1.205650e+001 5.551729e+001 -4.525386e-001 1.734191e+002 -4.543488e-001 1.734259e+002 -1.192351e+001 1.062674e+002
2160252000 -1.180809e+001 7.229754e+001 -4.711696e-001 1.790840e+002 -4.659249e-001 1.790728e+002 -1.171142e+001 1.003542e+002
2227750500 -1.151054e+001 8.929555e+001 -4.958351e-001 -1.753048e+002 -4.947950e-001 -1.752993e+002 -1.146223e+001 9.431231e+001
2295249000 -1.124113e+001 1.060807e+002 -5.214114e-001 -1.696258e+002 -5.198867e-001 -1.696122e+002 -1.123730e+001 8.844450e+001
2362747500 -1.094982e+001 1.226593e+002 -5.513439e-001 -1.639098e+002 -5.502269e-001 -1.638916e+002 -1.100784e+001 8.242393e+001
2430246000 -1.068277e+001 1.392520e+002 -5.821971e-001 -1.582127e+002 -5.821733e-001 -1.582091e+002 -1.077170e+001 7.679383e+001
2497744500 -1.038962e+001 1.555549e+002 -6.183177e-001 -1.524877e+002 -6.139860e-001 -1.524899e+002 -1.056140e+001 7.119153e+001
2565243000 -1.016108e+001 1.718644e+002 -6.461824e-001 -1.467666e+002 -6.483217e-001 -1.467550e+002 -1.032734e+001 6.585371e+001
2632741500 -9.920980e+000 -1.719972e+002 -6.763243e-001 -1.410120e+002 -6.732776e-001 -1.410154e+002 -1.013568e+001 6.069595e+001
2700240000 -9.710045e+000 -1.558061e+002 -7.024253e-001 -1.353010e+002 -7.036439e-001 -1.353070e+002 -9.984002e+000 5.594576e+001
2767738500 -9.534073e+000 -1.397956e+002 -7.228119e-001 -1.295817e+002 -7.244785e-001 -1.295743e+002 -9.847323e+000 5.111880e+001
2835237000 -9.382002e+000 -1.235530e+002 -7.425792e-001 -1.238445e+002 -7.405999e-001 -1.238270e+002 -9.699127e+000 4.654575e+001
2902735500 -9.229554e+000 -1.075280e+002 -7.462834e-001 -1.181236e+002 -7.470240e-001 -1.181084e+002 -9.676864e+000 4.203974e+001
2970234000 -9.113149e+000 -9.140141e+001 -7.504768e-001 -1.123921e+002 -7.499235e-001 -1.123720e+002 -9.582132e+000 3.764535e+001
3037732500 -8.990458e+000 -7.542133e+001 -7.528398e-001 -1.066834e+002 -7.487822e-001 -1.066758e+002 -9.524763e+000 3.356015e+001
3105231000 -8.855958e+000 -5.921561e+001 -7.550834e-001 -1.009372e+002 -7.528521e-001 -1.009532e+002 -9.454067e+000 2.916080e+001
3172729500 -8.769846e+000 -4.323691e+001 -7.435721e-001 -9.521006e+001 -7.448689e-001 -9.520917e+001 -9.334863e+000 2.487613e+001
3240228000 -8.637108e+000 -2.711720e+001 -7.488931e-001 -8.946509e+001 -7.417340e-001 -8.945971e+001 -9.252225e+000 2.074199e+001
3307726500 -8.531354e+000 -1.104725e+001 -7.404405e-001 -8.369421e+001 -7.411467e-001 -8.370506e+001 -9.130165e+000 1.626789e+001
3375225000 -8.474795e+000 5.173949e+000 -7.424425e-001 -7.793982e+001 -7.409857e-001 -7.791950e+001 -8.961203e+000 1.181849e+001
3442723500 -8.429840e+000 2.146348e+001 -7.412277e-001 -7.220139e+001 -7.396916e-001 -7.218615e+001 -8.845184e+000 7.540983e+000
3510222000 -8.388713e+000 3.780963e+001 -7.458141e-001 -6.644624e+001 -7.412791e-001 -6.643315e+001 -8.704597e+000 3.160409e+000
3577720500 -8.399063e+000 5.420351e+001 -7.393832e-001 -6.067601e+001 -7.402944e-001 -6.065314e+001 -8.569360e+000 -1.228183e+000
3645219000 -8.424292e+000 7.070174e+001 -7.336842e-001 -5.500190e+001 -7.317392e-001 -5.493239e+001 -8.497089e+000 -5.317317e+000
3712717500 -8.423137e+000 8.726046e+001 -7.279540e-001 -4.925611e+001 -7.250159e-001 -4.922171e+001 -8.433716e+000 -9.788487e+000
3780216000 -8.443615e+000 1.037503e+002 -7.156385e-001 -4.349417e+001 -7.168593e-001 -4.347589e+001 -8.343457e+000 -1.398170e+001
3847714500 -8.479696e+000 1.204091e+002 -7.029812e-001 -3.779816e+001 -7.036689e-001 -3.779776e+001 -8.338702e+000 -1.836362e+001
3915213000 -8.483846e+000 1.371886e+002 -6.971879e-001 -3.207236e+001 -6.927572e-001 -3.206206e+001 -8.317209e+000 -2.297510e+001
3982711500 -8.497205e+000 1.539596e+002 -6.801699e-001 -2.634570e+001 -6.756682e-001 -2.632645e+001 -8.304979e+000 -2.751460e+001
4050210000 -8.507610e+000 1.709539e+002 -6.596906e-001 -2.063645e+001 -6.629113e-001 -2.055962e+001 -8.354224e+000 -3.221112e+001
4117708500 -8.500776e+000 -1.720636e+002 -6.600484e-001 -1.483819e+001 -6.551614e-001 -1.483986e+001 -8.393599e+000 -3.715963e+001
4185207000 -8.503223e+000 -1.548971e+002 -6.494915e-001 -9.047597e+000 -6.488659e-001 -9.048988e+000 -8.408872e+000 -4.233090e+001
4252705500 -8.478279e+000 -1.377320e+002 -6.438148e-001 -3.289883e+000 -6.450620e-001 -3.302612e+000 -8.454569e+000 -4.752644e+001
4320204000 -8.484931e+000 -1.204771e+002 -6.456147e-001 2.490440e+000 -6.398141e-001 2.508593e+000 -8.494029e+000 -5.293003e+001
4387702500 -8.482292e+000 -1.033339e+002 -6.462708e-001 8.214344e+000 -6.468191e-001 8.235224e+000 -8.496828e+000 -5.821796e+001
4455201000 -8.479051e+000 -8.617822e+001 -6.448578e-001 1.398552e+001 -6.475610e-001 1.396571e+001 -8.567189e+000 -6.357748e+001
4522699500 -8.464838e+000 -6.909502e+001 -6.532111e-001 1.965683e+001 -6.477141e-001 1.966558e+001 -8.592604e+000 -6.879618e+001
4590198000 -8.431293e+000 -5.219839e+001 -6.559541e-001 2.537482e+001 -6.583886e-001 2.534638e+001 -8.637018e+000 -7.406071e+001
4657696500 -8.411773e+000 -3.555203e+001 -6.642506e-001 3.103276e+001 -6.643750e-001 3.106731e+001 -8.666451e+000 -7.908117e+001
4725195000 -8.396283e+000 -1.878233e+001 -6.719635e-001 3.671091e+001 -6.681526e-001 3.668468e+001 -8.759363e+000 -8.430733e+001
4792693500 -8.334455e+000 -1.831042e+000 -6.739644e-001 4.235942e+001 -6.785259e-001 4.233356e+001 -8.802236e+000 -8.972456e+001
4860192000 -8.308848e+000 1.460493e+001 -6.769292e-001 4.802703e+001 -6.767641e-001 4.802155e+001 -8.861486e+000 -9.465675e+001
4927690500 -8.283340e+000 3.128202e+001 -6.723726e-001 5.369218e+001 -6.810008e-001 5.369281e+001 -9.004062e+000 -9.993981e+001
4995189000 -8.258596e+000 4.792799e+001 -6.763073e-001 5.931526e+001 -6.776142e-001 5.936324e+001 -9.074777e+000 -1.054651e+002
5062687500 -8.246300e+000 6.450642e+001 -6.736919e-001 6.501302e+001 -6.794650e-001 6.504501e+001 -9.200131e+000 -1.108171e+002
5130186000 -8.278480e+000 8.116044e+001 -6.731845e-001 7.072987e+001 -6.734354e-001 7.070609e+001 -9.320495e+000 -1.163237e+002
5197684500 -8.288179e+000 9.759294e+001 -6.724353e-001 7.640338e+001 -6.727026e-001 7.645117e+001 -9.405335e+000 -1.220974e+002
5265183000 -8.342698e+000 1.141758e+002 -6.703718e-001 8.212351e+001 -6.738633e-001 8.213181e+001 -9.456455e+000 -1.274396e+002
5332681500 -8.379759e+000 1.303413e+002 -6.684996e-001 8.780980e+001 -6.694709e-001 8.786154e+001 -9.539029e+000 -1.327409e+002
5400180000 -8.439701e+000 1.469743e+002 -6.707022e-001 9.351051e+001 -6.706941e-001 9.351692e+001 -9.582882e+000 -1.381023e+002
5467678500 -8.526794e+000 1.635096e+002 -6.691108e-001 9.923261e+001 -6.655714e-001 9.918951e+001 -9.587565e+000 -1.434768e+002
5535177000 -8.579897e+000 -1.799948e+002 -6.741117e-001 1.049161e+002 -6.703970e-001 1.048695e+002 -9.598725e+000 -1.485586e+002
5602675500 -8.652241e+000 -1.635759e+002 -6.641508e-001 1.106015e+002 -6.680530e-001 1.105947e+002 -9.549911e+000 -1.537089e+002
5670174000 -8.695389e+000 -1.469068e+002 -6.666846e-001 1.162626e+002 -6.647009e-001 1.162757e+002 -9.552705e+000 -1.586595e+002
5737672500 -8.734714e+000 -1.305291e+002 -6.662390e-001 1.219505e+002 -6.654313e-001 1.219763e+002 -9.521611e+000 -1.635666e+002
5805171000 -8.794208e+000 -1.144004e+002 -6.530149e-001 1.276436e+002 -6.518930e-001 1.276294e+002 -9.475683e+000 -1.685311e+002
5872669500 -8.757066e+000 -9.805097e+001 -6.536117e-001 1.332912e+002 -6.512092e-001 1.333355e+002 -9.405716e+000 -1.734689e+002
5940168000 -8.783824e+000 -8.230845e+001 -6.506166e-001 1.389694e+002 -6.491644e-001 1.390032e+002 -9.343905e+000 -1.781194e+002
6007666500 -8.843266e+000 -6.655421e+001 -6.395451e-001 1.446143e+002 -6.402870e-001 1.446091e+002 -9.293327e+000 1.772912e+002
6075165000 -8.872729e+000 -5.111759e+001 -6.401617e-001 1.502176e+002 -6.397443e-001 1.502334e+002 -9.220936e+000 1.726102e+002
6142663500 -8.920687e+000 -3.559256e+001 -6.328923e-001 1.558017e+002 -6.324431e-001 1.558217e+002 -9.152472e+000 1.680740e+002
6210162000 -9.021000e+000 -2.015810e+001 -6.317096e-001 1.614092e+002 -6.309606e-001 1.614285e+002 -9.082644e+000 1.636464e+002
6277660500 -9.051831e+000 -4.578809e+000 -6.330137e-001 1.669657e+002 -6.312065e-001 1.669813e+002 -9.041615e+000 1.592124e+002
6345159000 -9.155498e+000 1.086000e+001 -6.264458e-001 1.725450e+002 -6.262770e-001 1.725650e+002 -8.968424e+000 1.546638e+002
6412657500 -9.276125e+000 2.682760e+001 -6.329868e-001 1.781416e+002 -6.272234e-001 1.781376e+002 -8.938130e+000 1.502659e+002
6480156000 -9.332705e+000 4.306859e+001 -6.237147e-001 -1.763163e+002 -6.279734e-001 -1.763162e+002 -8.972597e+000 1.453771e+002
6547654500 -9.373578e+000 5.958799e+001 -6.324610e-001 -1.707141e+002 -6.310901e-001 -1.706908e+002 -8.958565e+000 1.405308e+002
6615153000 -9.390200e+000 7.633465e+001 -6.271860e-001 -1.651239e+002 -6.295429e-001 -1.651337e+002 -9.018373e+000 1.355531e+002
6682651500 -9.420107e+000 9.319897e+001 -6.252785e-001 -1.595075e+002 -6.309381e-001 -1.594736e+002 -9.063931e+000 1.302567e+002
6750150000 -9.340021e+000 1.104060e+002 -6.305995e-001 -1.538942e+002 -6.263864e-001 -1.538490e+002 -9.134834e+000 1.248393e+002
6817648500 -9.263311e+000 1.275229e+002 -6.349761e-001 -1.481978e+002 -6.308946e-001 -1.481605e+002 -9.218068e+000 1.190975e+002
6885147000 -9.139882e+000 1.446632e+002 -6.388565e-001 -1.424758e+002 -6.322915e-001 -1.424617e+002 -9.311330e+000 1.131894e+002
6952645500 -9.033407e+000 1.617899e+002 -6.318568e-001 -1.367768e+002 -6.362549e-001 -1.367220e+002 -9.408428e+000 1.071650e+002
7020144000 -8.926577e+000 1.787510e+002 -6.378611e-001 -1.310251e+002 -6.370447e-001 -1.310302e+002 -9.505463e+000 1.010512e+002
7087642500 -8.838413e+000 -1.641639e+002 -6.397694e-001 -1.253473e+002 -6.406652e-001 -1.253161e+002 -9.578230e+000 9.462331e+001
7155141000 -8.751199e+000 -1.474735e+002 -6.391177e-001 -1.196151e+002 -6.359169e-001 -1.196152e+002 -9.666692e+000 8.871424e+001
7222639500 -8.679063e+000 -1.306380e+002 -6.369962e-001 -1.139706e+002 -6.346026e-001 -1.139387e+002 -9.792444e+000 8.244596e+001
7290138000 -8.667942e+000 -1.139000e+002 -6.323771e-001 -1.082442e+002 -6.299824e-001 -1.082595e+002 -9.883564e+000 7.640048e+001
7357636500 -8.642202e+000 -9.701329e+001 -6.216770e-001 -1.025620e+002 -6.236844e-001 -1.025503e+002 -1.004618e+001 7.020161e+001
7425135000 -8.681493e+000 -8.016843e+001 -6.089475e-001 -9.689823e+001 -6.129944e-001 -9.687119e+001 -1.013816e+001 6.379927e+001
7492633500 -8.696465e+000 -6.312100e+001 -5.948678e-001 -9.117517e+001 -6.012153e-001 -9.118328e+001 -1.022613e+001 5.765059e+001
7560132000 -8.750405e+000 -4.608722e+001 -5.845330e-001 -8.547371e+001 -5.839198e-001 -8.548163e+001 -1.030719e+001 5.149294e+001
7627630500 -8.769642e+000 -2.912583e+001 -5.738584e-001 -7.976237e+001 -5.703841e-001 -7.975809e+001 -1.038558e+001 4.508052e+001
7695129000 -8.819246e+000 -1.180046e+001 -5.623847e-001 -7.405150e+001 -5.628937e-001 -7.406346e+001 -1.038018e+001 3.885719e+001
7762627500 -8.850615e+000 4.679195e+000 -5.571308e-001 -6.838477e+001 -5.593332e-001 -6.836303e+001 -1.036088e+001 3.296237e+001
7830126000 -8.851153e+000 2.114868e+001 -5.524300e-001 -6.273926e+001 -5.558353e-001 -6.269262e+001 -1.028729e+001 2.735332e+001
7897624500 -8.879496e+000 3.741709e+001 -5.562187e-001 -5.708675e+001 -5.549650e-001 -5.705034e+001 -1.011983e+001 2.195837e+001
7965123000 -8.899385e+000 5.305093e+001 -5.608742e-001 -5.146232e+001 -5.620630e-001 -5.148520e+001 -1.001422e+001 1.709101e+001
8032621500 -8.958661e+000 6.817587e+001 -5.711163e-001 -4.593416e+001 -5.671952e-001 -4.593863e+001 -9.836899e+000 1.272726e+001
8100120000 -9.026295e+000 8.313606e+001 -5.696624e-001 -4.040266e+001 -5.677723e-001 -4.044079e+001 -9.672185e+000 8.737535e+000
8167618500 -9.144482e+000 9.763288e+001 -5.768400e-001 -3.496991e+001 -5.769347e-001 -3.491854e+001 -9.527626e+000 5.071012e+000
8235117000 -9.272364e+000 1.119878e+002 -5.770627e-001 -2.952254e+001 -5.790545e-001 -2.949873e+001 -9.429549e+000 1.466848e+000
8302615500 -9.428858e+000 1.265069e+002 -5.699140e-001 -2.409266e+001 -5.714554e-001 -2.412457e+001 -9.393010e+000 -1.753754e+000
8370114000 -9.609593e+000 1.403742e+002 -5.596201e-001 -1.864598e+001 -5.578694e-001 -1.865443e+001 -9.397433e+000 -5.090231e+000
8437612500 -9.837991e+000 1.547209e+002 -5.435098e-001 -1.325240e+001 -5.419703e-001 -1.324992e+001 -9.494132e+000 -8.195598e+000
8505111000 -1.003633e+001 1.689288e+002 -5.241095e-001 -7.801109e+000 -5.223032e-001 -7.805160e+000 -9.644020e+000 -1.179458e+001
8572609500 -1.028786e+001 -1.766011e+002 -4.914004e-001 -2.373650e+000 -4.931129e-001 -2.293419e+000 -9.865605e+000 -1.514253e+001
8640108000 -1.062927e+001 -1.619683e+002 -4.546430e-001 3.146530e+000 -4.572944e-001 3.139562e+000 -1.014317e+001 -1.924977e+001
8707606500 -1.085209e+001 -1.469872e+002 -4.324008e-001 8.633884e+000 -4.281878e-001 8.631772e+000 -1.050800e+001 -2.352951e+001
8775105000 -1.122492e+001 -1.322932e+002 -3.916322e-001 1.413369e+001 -3.927906e-001 1.415608e+001 -1.091328e+001 -2.757329e+001
8842603500 -1.159259e+001 -1.172809e+002 -3.567958e-001 1.963158e+001 -3.566743e-001 1.959945e+001 -1.143825e+001 -3.224673e+001
8910102000 -1.197591e+001 -1.021610e+002 -3.265563e-001 2.503635e+001 -3.288415e-001 2.508180e+001 -1.198661e+001 -3.695144e+001
8977600500 -1.241842e+001 -8.748599e+001 -3.022839e-001 3.044469e+001 -3.047428e-001 3.047934e+001 -1.259312e+001 -4.149615e+001
9045099000 -1.303613e+001 -7.254749e+001 -2.808537e-001 3.575686e+001 -2.769640e-001 3.578855e+001 -1.345385e+001 -4.563976e+001
9112597500 -1.361429e+001 -5.782673e+001 -2.760107e-001 4.105941e+001 -2.707906e-001 4.105808e+001 -1.429338e+001 -4.963975e+001
9180096000 -1.437426e+001 -4.421480e+001 -2.754084e-001 4.623524e+001 -2.683011e-001 4.627155e+001 -1.534688e+001 -5.033393e+001
9247594500 -1.541570e+001 -3.141284e+001 -2.641748e-001 5.147039e+001 -2.623231e-001 5.144959e+001 -1.671975e+001 -5.035806e+001
9315093000 -1.669104e+001 -1.898355e+001 -2.553509e-001 5.651210e+001 -2.572941e-001 5.656093e+001 -1.805145e+001 -4.731927e+001
9382591500 -1.829673e+001 -1.012815e+001 -2.518459e-001 6.154261e+001 -2.523714e-001 6.155230e+001 -1.950948e+001 -4.026522e+001
9450090000 -2.057599e+001 -4.343081e+000 -2.576047e-001 6.641400e+001 -2.526663e-001 6.647839e+001 -2.071187e+001 -2.761374e+001
9517588500 -2.349943e+001 -8.847862e+000 -2.796632e-001 7.125204e+001 -2.792932e-001 7.123230e+001 -2.121630e+001 -9.591257e+000
9585087000 -2.507088e+001 -2.756078e+001 -3.187821e-001 7.595769e+001 -3.252978e-001 7.598738e+001 -2.015062e+001 6.982535e+000
9652585500 -2.303922e+001 -4.995213e+001 -3.939273e-001 8.064833e+001 -3.907076e-001 8.070625e+001 -1.829058e+001 1.860224e+001
9720084000 -1.962573e+001 -5.508080e+001 -4.813297e-001 8.532513e+001 -4.854694e-001 8.534525e+001 -1.645646e+001 2.363024e+001
9787582500 -1.689778e+001 -5.108668e+001 -5.985564e-001 8.996182e+001 -5.945521e-001 8.996703e+001 -1.476901e+001 2.429811e+001
9855081000 -1.453321e+001 -4.190763e+001 -7.461800e-001 9.455343e+001 -7.481830e-001 9.452914e+001 -1.341557e+001 2.295916e+001
9922579500 -1.271930e+001 -3.111807e+001 -9.173493e-001 9.913811e+001 -9.150094e-001 9.909588e+001 -1.230264e+001 1.888431e+001
9990078000 -1.118944e+001 -1.918280e+001 -1.124282e+000 1.037113e+002 -1.123731e+000 1.036981e+002 -1.127609e+001 1.436947e+001
10057576500 -9.892533e+000 -6.607083e+000 -1.348839e+000 1.083159e+002 -1.347680e+000 1.082914e+002 -1.050739e+001 8.795334e+000
10125075000 -8.780478e+000 6.391200e+000 -1.606625e+000 1.130269e+002 -1.611099e+000 1.130427e+002 -9.782900e+000 2.040279e+000
10192573500 -7.854756e+000 1.974533e+001 -1.899481e+000 1.178704e+002 -1.895513e+000 1.178270e+002 -9.171985e+000 -4.787935e+000
10260072000 -7.039100e+000 3.308188e+001 -2.231619e+000 1.228520e+002 -2.224072e+000 1.228793e+002 -8.644326e+000 -1.244819e+001
