!Agilent Technologies,N5230C,MY48100320,A.08.04.10
!Agilent N5230C: A.08.04.10
!Date: Thursday, July 07, 2016 05:45:58
!Correction: S11(Full 2 Port(1,2)) 
!S21(Full 2 Port(1,2)) 
!S12(Full 2 Port(1,2)) 
!S22(Full 2 Port(1,2)) 
!S2P File: Measurements: S11, S21, S12, S22:
# Hz S  dB   R 50
300000 -2.519867e+001 8.110920e+001 -7.651097e-002 -3.228091e+000 -7.229345e-002 -3.233898e+000 -2.442387e+001 7.788892e+001
67798500 -4.590207e+001 -9.092834e+001 9.370576e-003 5.957651e+000 9.535043e-003 5.966167e+000 -4.467666e+001 -1.163062e+002
135297000 -3.979369e+001 -6.019261e+001 1.215530e-002 1.180647e+001 7.473117e-003 1.183190e+001 -3.915437e+001 -1.122902e+002
202795500 -3.685176e+001 -4.349664e+001 1.434051e-002 1.768424e+001 1.838168e-002 1.766357e+001 -3.565119e+001 -1.132405e+002
270294000 -3.403895e+001 -2.396061e+001 1.775066e-002 2.357225e+001 2.127161e-002 2.354888e+001 -3.319847e+001 -1.178001e+002
337792500 -3.204015e+001 -5.257177e+000 2.336184e-002 2.940774e+001 2.515814e-002 2.942987e+001 -3.126263e+001 -1.211529e+002
405291000 -3.077662e+001 1.504190e+001 2.349857e-002 3.528212e+001 2.764641e-002 3.528371e+001 -3.007005e+001 -1.272432e+002
472789500 -2.942554e+001 3.266465e+001 2.470109e-002 4.114716e+001 2.865442e-002 4.111742e+001 -2.908683e+001 -1.322840e+002
540288000 -2.823054e+001 4.879806e+001 3.135592e-002 4.697459e+001 2.964940e-002 4.698239e+001 -2.771024e+001 -1.359457e+002
607786500 -2.744473e+001 6.447020e+001 2.808226e-002 5.284157e+001 2.691467e-002 5.285272e+001 -2.699229e+001 -1.383734e+002
675285000 -2.659659e+001 7.874702e+001 2.995861e-002 5.870255e+001 2.886628e-002 5.867793e+001 -2.627871e+001 -1.420842e+002
742783500 -2.584284e+001 9.563217e+001 2.797703e-002 6.455595e+001 2.600452e-002 6.456946e+001 -2.553098e+001 -1.465690e+002
810282000 -2.528365e+001 1.136735e+002 2.742836e-002 7.043102e+001 2.315391e-002 7.042305e+001 -2.485489e+001 -1.506148e+002
877780500 -2.493551e+001 1.312868e+002 2.596577e-002 7.630557e+001 2.759645e-002 7.628706e+001 -2.453815e+001 -1.549575e+002
945279000 -2.451026e+001 1.492522e+002 2.919339e-002 8.218429e+001 2.884279e-002 8.217023e+001 -2.403942e+001 -1.600657e+002
1012777500 -2.405767e+001 1.681702e+002 3.093774e-002 8.802753e+001 3.065725e-002 8.804395e+001 -2.371632e+001 -1.657024e+002
1080276000 -2.358816e+001 -1.744645e+002 3.295070e-002 9.389097e+001 2.882988e-002 9.389761e+001 -2.354844e+001 -1.716046e+002
1147774500 -2.297316e+001 -1.561497e+002 3.043782e-002 9.974521e+001 3.316731e-002 9.974983e+001 -2.298937e+001 -1.782632e+002
1215273000 -2.226996e+001 -1.376320e+002 2.980600e-002 1.056248e+002 3.180610e-002 1.056096e+002 -2.257131e+001 1.761663e+002
1282771500 -2.164256e+001 -1.217337e+002 3.151487e-002 1.114645e+002 2.775768e-002 1.114995e+002 -2.210019e+001 1.699684e+002
1350270000 -2.094275e+001 -1.045783e+002 2.881312e-002 1.173410e+002 2.888515e-002 1.173418e+002 -2.153634e+001 1.647951e+002
1417768500 -2.031487e+001 -8.809763e+001 2.373568e-002 1.232257e+002 2.247331e-002 1.232160e+002 -2.104712e+001 1.584222e+002
1485267000 -1.981825e+001 -7.310896e+001 2.131117e-002 1.290761e+002 2.261281e-002 1.290708e+002 -2.051743e+001 1.534315e+002
1552765500 -1.940254e+001 -5.747261e+001 1.609398e-002 1.349675e+002 1.871246e-002 1.349564e+002 -2.001881e+001 1.486017e+002
1620264000 -1.889348e+001 -4.171787e+001 1.659304e-002 1.408177e+002 1.412314e-002 1.408324e+002 -1.950695e+001 1.437354e+002
1687762500 -1.860865e+001 -2.622707e+001 1.065444e-002 1.466937e+002 1.563178e-002 1.466977e+002 -1.916061e+001 1.397829e+002
1755261000 -1.836047e+001 -1.023355e+001 1.617029e-002 1.525442e+002 1.487140e-002 1.525652e+002 -1.888488e+001 1.354604e+002
1822759500 -1.811207e+001 6.594554e+000 1.562026e-002 1.584120e+002 1.524324e-002 1.583975e+002 -1.869311e+001 1.303877e+002
1890258000 -1.791073e+001 2.320374e+001 1.614622e-002 1.642531e+002 1.600575e-002 1.642944e+002 -1.849783e+001 1.258316e+002
1957756500 -1.772403e+001 4.078593e+001 1.801349e-002 1.701296e+002 1.853194e-002 1.701252e+002 -1.833165e+001 1.200692e+002
2025255000 -1.736029e+001 5.881443e+001 2.453522e-002 1.759499e+002 1.828141e-002 1.759751e+002 -1.811164e+001 1.143833e+002
2092753500 -1.711910e+001 7.675574e+001 2.215573e-002 -1.782135e+002 2.101533e-002 -1.781911e+002 -1.790287e+001 1.082653e+002
2160252000 -1.686241e+001 9.438862e+001 1.668382e-002 -1.723506e+002 2.033825e-002 -1.723483e+002 -1.763842e+001 1.017086e+002
2227750500 -1.647263e+001 1.121607e+002 9.449224e-003 -1.665356e+002 1.093487e-002 -1.665177e+002 -1.719785e+001 9.527492e+001
2295249000 -1.617340e+001 1.295894e+002 8.538536e-004 -1.606926e+002 2.549643e-003 -1.606610e+002 -1.680625e+001 8.936530e+001
2362747500 -1.580518e+001 1.467278e+002 -8.672674e-003 -1.548033e+002 -1.162116e-002 -1.547948e+002 -1.639635e+001 8.301302e+001
2430246000 -1.550893e+001 1.638154e+002 -2.240646e-002 -1.489607e+002 -2.339600e-002 -1.489600e+002 -1.594697e+001 7.758101e+001
2497744500 -1.516739e+001 -1.796801e+002 -3.389498e-002 -1.430971e+002 -3.331804e-002 -1.430912e+002 -1.558155e+001 7.238451e+001
2565243000 -1.494629e+001 -1.630016e+002 -4.174628e-002 -1.372677e+002 -4.758202e-002 -1.372619e+002 -1.518133e+001 6.735343e+001
2632741500 -1.470280e+001 -1.466535e+002 -5.692071e-002 -1.314201e+002 -5.404457e-002 -1.313933e+002 -1.482326e+001 6.266269e+001
2700240000 -1.448900e+001 -1.299548e+002 -6.658500e-002 -1.256014e+002 -6.759815e-002 -1.255886e+002 -1.457281e+001 5.837110e+001
2767738500 -1.432824e+001 -1.135841e+002 -7.481060e-002 -1.197726e+002 -7.609079e-002 -1.197476e+002 -1.434697e+001 5.366742e+001
2835237000 -1.415575e+001 -9.675483e+001 -8.176652e-002 -1.139209e+002 -8.174063e-002 -1.138966e+002 -1.406744e+001 4.930827e+001
2902735500 -1.401032e+001 -8.005778e+001 -8.826951e-002 -1.080668e+002 -8.482866e-002 -1.080837e+002 -1.402080e+001 4.443118e+001
2970234000 -1.385593e+001 -6.329131e+001 -8.893643e-002 -1.022355e+002 -8.951381e-002 -1.022232e+002 -1.385196e+001 3.965508e+001
3037732500 -1.371571e+001 -4.674892e+001 -9.337968e-002 -9.638328e+001 -9.102285e-002 -9.635329e+001 -1.376745e+001 3.523920e+001
3105231000 -1.352223e+001 -3.011632e+001 -9.978609e-002 -9.049271e+001 -9.843706e-002 -9.050070e+001 -1.365744e+001 3.013892e+001
3172729500 -1.342900e+001 -1.369323e+001 -9.905280e-002 -8.460129e+001 -1.002927e-001 -8.459278e+001 -1.348691e+001 2.507487e+001
3240228000 -1.322231e+001 2.704076e+000 -1.114133e-001 -7.872695e+001 -1.076626e-001 -7.870712e+001 -1.339805e+001 2.018298e+001
3307726500 -1.307701e+001 1.909067e+001 -1.135545e-001 -7.278370e+001 -1.142626e-001 -7.279911e+001 -1.325645e+001 1.493032e+001
3375225000 -1.297443e+001 3.559448e+001 -1.211942e-001 -6.690729e+001 -1.216743e-001 -6.689223e+001 -1.304595e+001 9.765733e+000
3442723500 -1.286461e+001 5.226603e+001 -1.266083e-001 -6.100682e+001 -1.265879e-001 -6.096785e+001 -1.292368e+001 5.006336e+000
3510222000 -1.274777e+001 6.888372e+001 -1.415988e-001 -5.511698e+001 -1.322386e-001 -5.509250e+001 -1.277821e+001 2.329267e-001
3577720500 -1.267645e+001 8.554616e+001 -1.413615e-001 -4.918845e+001 -1.431063e-001 -4.914937e+001 -1.260808e+001 -4.581823e+000
3645219000 -1.261977e+001 1.025385e+002 -1.439126e-001 -4.329902e+001 -1.417038e-001 -4.328152e+001 -1.257650e+001 -9.092611e+000
3712717500 -1.249828e+001 1.194502e+002 -1.466123e-001 -3.738702e+001 -1.469359e-001 -3.736073e+001 -1.250749e+001 -1.415713e+001
3780216000 -1.244060e+001 1.362308e+002 -1.482242e-001 -3.143946e+001 -1.485070e-001 -3.140657e+001 -1.242814e+001 -1.862280e+001
3847714500 -1.238147e+001 1.532038e+002 -1.488974e-001 -2.552164e+001 -1.475013e-001 -2.553037e+001 -1.243980e+001 -2.364175e+001
3915213000 -1.227202e+001 1.702285e+002 -1.515189e-001 -1.960251e+001 -1.495993e-001 -1.960842e+001 -1.239091e+001 -2.880297e+001
3982711500 -1.219792e+001 -1.726751e+002 -1.523369e-001 -1.365037e+001 -1.455077e-001 -1.365332e+001 -1.235794e+001 -3.401963e+001
4050210000 -1.211471e+001 -1.553484e+002 -1.462059e-001 -7.767540e+000 -1.476183e-001 -7.673299e+000 -1.236191e+001 -3.957668e+001
4117708500 -1.197713e+001 -1.382021e+002 -1.560108e-001 -1.760777e+000 -1.530515e-001 -1.755975e+000 -1.231030e+001 -4.523795e+001
4185207000 -1.188192e+001 -1.208724e+002 -1.612848e-001 4.207802e+000 -1.592703e-001 4.203802e+000 -1.216575e+001 -5.111666e+001
4252705500 -1.173195e+001 -1.034739e+002 -1.696081e-001 1.015866e+001 -1.652195e-001 1.013297e+001 -1.204886e+001 -5.689361e+001
4320204000 -1.161148e+001 -8.619235e+001 -1.800849e-001 1.607937e+001 -1.762869e-001 1.610586e+001 -1.188785e+001 -6.269379e+001
4387702500 -1.150432e+001 -6.885480e+001 -1.872544e-001 2.198295e+001 -1.881631e-001 2.201063e+001 -1.169441e+001 -6.807175e+001
4455201000 -1.137420e+001 -5.148215e+001 -1.977522e-001 2.791990e+001 -2.007849e-001 2.793742e+001 -1.156451e+001 -7.390007e+001
4522699500 -1.125168e+001 -3.410273e+001 -2.142277e-001 3.378460e+001 -2.101971e-001 3.380572e+001 -1.137714e+001 -7.910440e+001
4590198000 -1.108049e+001 -1.702085e+001 -2.212681e-001 3.970300e+001 -2.263033e-001 3.968844e+001 -1.122834e+001 -8.452752e+001
4657696500 -1.096689e+001 7.029820e-002 -2.317311e-001 4.556645e+001 -2.355413e-001 4.558345e+001 -1.106553e+001 -8.956035e+001
4725195000 -1.083982e+001 1.715311e+001 -2.429889e-001 5.141690e+001 -2.412210e-001 5.142030e+001 -1.096048e+001 -9.493172e+001
4792693500 -1.065919e+001 3.446684e+001 -2.546511e-001 5.729375e+001 -2.550243e-001 5.725777e+001 -1.080499e+001 -1.003222e+002
4860192000 -1.053244e+001 5.127992e+001 -2.632188e-001 6.315063e+001 -2.575905e-001 6.313535e+001 -1.068390e+001 -1.052461e+002
4927690500 -1.037556e+001 6.845682e+001 -2.679424e-001 6.904372e+001 -2.750582e-001 6.905323e+001 -1.063152e+001 -1.107504e+002
4995189000 -1.021931e+001 8.555026e+001 -2.801758e-001 7.492472e+001 -2.835512e-001 7.494526e+001 -1.050151e+001 -1.162864e+002
5062687500 -1.008314e+001 1.026218e+002 -2.943259e-001 8.083118e+001 -2.930747e-001 8.085023e+001 -1.041638e+001 -1.216997e+002
5130186000 -9.976761e+000 1.198481e+002 -3.048078e-001 8.675896e+001 -3.021229e-001 8.677570e+001 -1.033738e+001 -1.272125e+002
5197684500 -9.845778e+000 1.367635e+002 -3.131379e-001 9.269003e+001 -3.189815e-001 9.273643e+001 -1.023186e+001 -1.329195e+002
5265183000 -9.775167e+000 1.540710e+002 -3.266000e-001 9.863700e+001 -3.250450e-001 9.864015e+001 -1.011923e+001 -1.381268e+002
5332681500 -9.644179e+000 1.708960e+002 -3.350986e-001 1.046052e+002 -3.367438e-001 1.046139e+002 -1.004740e+001 -1.432647e+002
5400180000 -9.544281e+000 -1.718266e+002 -3.485181e-001 1.105055e+002 -3.451433e-001 1.105241e+002 -9.974418e+000 -1.483975e+002
5467678500 -9.445084e+000 -1.546483e+002 -3.576155e-001 1.164721e+002 -3.594773e-001 1.164357e+002 -9.864240e+000 -1.534319e+002
5535177000 -9.316350e+000 -1.375829e+002 -3.731545e-001 1.223980e+002 -3.684314e-001 1.223859e+002 -9.799757e+000 -1.581771e+002
5602675500 -9.211791e+000 -1.208664e+002 -3.752879e-001 1.283430e+002 -3.811173e-001 1.283343e+002 -9.694163e+000 -1.628387e+002
5670174000 -9.073191e+000 -1.038213e+002 -3.886700e-001 1.342531e+002 -3.862107e-001 1.342747e+002 -9.657470e+000 -1.676334e+002
5737672500 -8.950699e+000 -8.708372e+001 -3.965545e-001 1.402223e+002 -3.972726e-001 1.402265e+002 -9.607570e+000 -1.721928e+002
5805171000 -8.893009e+000 -7.074812e+001 -3.928312e-001 1.461591e+002 -3.952839e-001 1.461598e+002 -9.574292e+000 -1.766738e+002
5872669500 -8.765492e+000 -5.428123e+001 -4.017501e-001 1.520275e+002 -4.026266e-001 1.520619e+002 -9.513711e+000 1.787657e+002
5940168000 -8.708658e+000 -3.835742e+001 -4.102716e-001 1.579739e+002 -4.103785e-001 1.579939e+002 -9.471549e+000 1.744216e+002
6007666500 -8.728481e+000 -2.220977e+001 -4.102989e-001 1.638676e+002 -4.080515e-001 1.638941e+002 -9.443823e+000 1.701871e+002
6075165000 -8.738626e+000 -6.253017e+000 -4.176723e-001 1.697687e+002 -4.218872e-001 1.697565e+002 -9.417979e+000 1.658013e+002
6142663500 -8.770251e+000 9.790133e+000 -4.228162e-001 1.756157e+002 -4.205173e-001 1.756456e+002 -9.376963e+000 1.615251e+002
6210162000 -8.856533e+000 2.594599e+001 -4.221416e-001 -1.784943e+002 -4.222896e-001 -1.784613e+002 -9.341981e+000 1.573549e+002
6277660500 -8.893914e+000 4.244306e+001 -4.216321e-001 -1.726395e+002 -4.213794e-001 -1.726123e+002 -9.346839e+000 1.528612e+002
6345159000 -8.982757e+000 5.875401e+001 -4.242460e-001 -1.667430e+002 -4.234793e-001 -1.667374e+002 -9.294734e+000 1.484194e+002
6412657500 -9.075242e+000 7.567538e+001 -4.254502e-001 -1.608709e+002 -4.238695e-001 -1.608745e+002 -9.296159e+000 1.439867e+002
6480156000 -9.107980e+000 9.293247e+001 -4.199657e-001 -1.549735e+002 -4.270966e-001 -1.550070e+002 -9.322501e+000 1.386474e+002
6547654500 -9.110152e+000 1.102440e+002 -4.288512e-001 -1.490683e+002 -4.270228e-001 -1.490601e+002 -9.296545e+000 1.336005e+002
6615153000 -9.068408e+000 1.276643e+002 -4.262705e-001 -1.431577e+002 -4.298740e-001 -1.431549e+002 -9.302967e+000 1.281839e+002
6682651500 -9.047425e+000 1.452452e+002 -4.278921e-001 -1.372118e+002 -4.298730e-001 -1.372391e+002 -9.265104e+000 1.224071e+002
6750150000 -8.945700e+000 1.628542e+002 -4.367000e-001 -1.313260e+002 -4.339034e-001 -1.312728e+002 -9.223372e+000 1.165276e+002
6817648500 -8.829820e+000 -1.795810e+002 -4.488421e-001 -1.253499e+002 -4.458109e-001 -1.253227e+002 -9.155708e+000 1.103448e+002
6885147000 -8.705104e+000 -1.619733e+002 -4.638816e-001 -1.193830e+002 -4.554119e-001 -1.193443e+002 -9.065129e+000 1.039246e+002
6952645500 -8.589534e+000 -1.443811e+002 -4.717165e-001 -1.134082e+002 -4.742969e-001 -1.133901e+002 -8.959346e+000 9.762709e+001
7020144000 -8.479581e+000 -1.268351e+002 -4.883470e-001 -1.074683e+002 -4.879760e-001 -1.074792e+002 -8.864552e+000 9.132231e+001
7087642500 -8.383909e+000 -1.089999e+002 -5.078219e-001 -1.015320e+002 -5.107539e-001 -1.015158e+002 -8.696062e+000 8.481927e+001
7155141000 -8.308208e+000 -9.149953e+001 -5.218002e-001 -9.556590e+001 -5.172836e-001 -9.556817e+001 -8.606324e+000 7.888612e+001
7222639500 -8.217024e+000 -7.365038e+001 -5.340319e-001 -8.966138e+001 -5.321799e-001 -8.962958e+001 -8.535856e+000 7.251351e+001
7290138000 -8.139606e+000 -5.563146e+001 -5.519553e-001 -8.367193e+001 -5.492905e-001 -8.366413e+001 -8.426555e+000 6.630132e+001
7357636500 -8.027716e+000 -3.733361e+001 -5.657380e-001 -7.766521e+001 -5.666096e-001 -7.765820e+001 -8.352185e+000 6.000927e+001
7425135000 -7.945638e+000 -1.918163e+001 -5.712206e-001 -7.167658e+001 -5.802320e-001 -7.162201e+001 -8.285420e+000 5.372916e+001
7492633500 -7.814028e+000 -9.450238e-001 -5.918809e-001 -6.562331e+001 -5.941460e-001 -6.560181e+001 -8.169683e+000 4.768635e+001
7560132000 -7.682838e+000 1.717839e+001 -6.063117e-001 -5.950439e+001 -6.051393e-001 -5.953413e+001 -8.082690e+000 4.198738e+001
7627630500 -7.538610e+000 3.498694e+001 -6.227975e-001 -5.345783e+001 -6.194766e-001 -5.344468e+001 -8.006330e+000 3.596762e+001
7695129000 -7.398875e+000 5.298206e+001 -6.471952e-001 -4.743356e+001 -6.465838e-001 -4.746048e+001 -7.868417e+000 3.044335e+001
7762627500 -7.280532e+000 7.005477e+001 -6.688735e-001 -4.141284e+001 -6.713600e-001 -4.141066e+001 -7.781954e+000 2.537628e+001
7830126000 -7.192438e+000 8.681860e+001 -6.779302e-001 -3.542369e+001 -6.800575e-001 -3.538477e+001 -7.701772e+000 2.057088e+001
7897624500 -7.121992e+000 1.034188e+002 -6.941977e-001 -2.955467e+001 -6.942773e-001 -2.950732e+001 -7.595552e+000 1.608611e+001
7965123000 -7.090664e+000 1.195669e+002 -7.081155e-001 -2.360238e+001 -7.082443e-001 -2.360656e+001 -7.568091e+000 1.199105e+001
8032621500 -7.138053e+000 1.353561e+002 -7.153786e-001 -1.776844e+001 -7.126230e-001 -1.776996e+001 -7.547463e+000 8.278902e+000
8100120000 -7.188548e+000 1.511511e+002 -7.007827e-001 -1.189187e+001 -7.006674e-001 -1.192492e+001 -7.560470e+000 4.723390e+000
8167618500 -7.306089e+000 1.668546e+002 -6.928825e-001 -6.076927e+000 -6.893589e-001 -6.079165e+000 -7.614903e+000 1.395628e+000
8235117000 -7.458338e+000 -1.774369e+002 -6.645830e-001 -2.420223e-001 -6.730303e-001 -2.162423e-001 -7.708159e+000 -2.046987e+000
8302615500 -7.605431e+000 -1.614751e+002 -6.425226e-001 5.637944e+000 -6.468546e-001 5.600508e+000 -7.840789e+000 -5.617277e+000
8370114000 -7.770494e+000 -1.459045e+002 -6.184825e-001 1.160659e+001 -6.219637e-001 1.161381e+001 -7.958946e+000 -9.224944e+000
8437612500 -7.936561e+000 -1.297411e+002 -5.876571e-001 1.757084e+001 -5.902072e-001 1.754969e+001 -8.144659e+000 -1.313645e+001
8505111000 -8.068651e+000 -1.137934e+002 -5.697322e-001 2.359512e+001 -5.711723e-001 2.360210e+001 -8.271999e+000 -1.748469e+001
8572609500 -8.214499e+000 -9.766560e+001 -5.508731e-001 2.966827e+001 -5.501478e-001 2.971333e+001 -8.414586e+000 -2.183559e+001
8640108000 -8.381526e+000 -8.134774e+001 -5.331992e-001 3.574429e+001 -5.328515e-001 3.574952e+001 -8.497458e+000 -2.661572e+001
8707606500 -8.423121e+000 -6.510361e+001 -5.377226e-001 4.183871e+001 -5.365629e-001 4.184634e+001 -8.531866e+000 -3.197969e+001
8775105000 -8.522628e+000 -4.897883e+001 -5.350792e-001 4.795839e+001 -5.352194e-001 4.799397e+001 -8.523190e+000 -3.682618e+001
8842603500 -8.585673e+000 -3.257615e+001 -5.393497e-001 5.407721e+001 -5.390773e-001 5.406526e+001 -8.525074e+000 -4.216482e+001
8910102000 -8.597958e+000 -1.612449e+001 -5.520341e-001 6.010714e+001 -5.482976e-001 6.015648e+001 -8.468308e+000 -4.764507e+001
8977600500 -8.618773e+000 5.200233e-002 -5.601374e-001 6.617858e+001 -5.677817e-001 6.620032e+001 -8.380716e+000 -5.255195e+001
9045099000 -8.658447e+000 1.689723e+001 -5.636882e-001 7.212225e+001 -5.648734e-001 7.217546e+001 -8.398791e+000 -5.803443e+001
9112597500 -8.605561e+000 3.366899e+001 -5.770286e-001 7.815092e+001 -5.769956e-001 7.813296e+001 -8.324580e+000 -6.339909e+001
9180096000 -8.582966e+000 5.040277e+001 -5.750043e-001 8.404501e+001 -5.733523e-001 8.404814e+001 -8.360483e+000 -6.832062e+001
9247594500 -8.596033e+000 6.757257e+001 -5.700803e-001 9.000063e+001 -5.720934e-001 8.999367e+001 -8.421318e+000 -7.402987e+001
9315093000 -8.530462e+000 8.532748e+001 -5.687194e-001 9.588119e+001 -5.603119e-001 9.593655e+001 -8.477200e+000 -8.008120e+001
9382591500 -8.479055e+000 1.028953e+002 -5.561526e-001 1.019093e+002 -5.557535e-001 1.019267e+002 -8.542932e+000 -8.595454e+001
9450090000 -8.426251e+000 1.210721e+002 -5.435798e-001 1.078870e+002 -5.332394e-001 1.079100e+002 -8.679691e+000 -9.238037e+001
9517588500 -8.379505e+000 1.396480e+002 -5.282701e-001 1.138766e+002 -5.305606e-001 1.139156e+002 -8.709479e+000 -9.947788e+001
9585087000 -8.237844e+000 1.582476e+002 -5.321516e-001 1.198762e+002 -5.362195e-001 1.198947e+002 -8.746777e+000 -1.060383e+002
9652585500 -8.137227e+000 1.770502e+002 -5.473503e-001 1.259486e+002 -5.424570e-001 1.259841e+002 -8.762892e+000 -1.132949e+002
9720084000 -7.995809e+000 -1.642363e+002 -5.483678e-001 1.320547e+002 -5.541933e-001 1.320152e+002 -8.684111e+000 -1.202606e+002
9787582500 -7.810716e+000 -1.452137e+002 -5.752645e-001 1.379892e+002 -5.687761e-001 1.380137e+002 -8.638584e+000 -1.266679e+002
9855081000 -7.652058e+000 -1.268412e+002 -5.905876e-001 1.439941e+002 -5.946144e-001 1.440448e+002 -8.529157e+000 -1.331542e+002
9922579500 -7.446551e+000 -1.087082e+002 -6.168584e-001 1.499338e+002 -6.157843e-001 1.499081e+002 -8.438075e+000 -1.385582e+002
9990078000 -7.271008e+000 -9.105736e+001 -6.383986e-001 1.558151e+002 -6.341922e-001 1.558293e+002 -8.408398e+000 -1.438664e+002
10057576500 -7.088745e+000 -7.363098e+001 -6.496790e-001 1.616310e+002 -6.457248e-001 1.616554e+002 -8.346776e+000 -1.487995e+002
10125075000 -6.953654e+000 -5.644823e+001 -6.435974e-001 1.674592e+002 -6.510909e-001 1.674699e+002 -8.336683e+000 -1.532919e+002
10192573500 -6.814867e+000 -3.960731e+001 -6.442922e-001 1.732323e+002 -6.421948e-001 1.732634e+002 -8.389367e+000 -1.575101e+002
10260072000 -6.713470e+000 -2.258455e+001 -6.365268e-001 1.789924e+002 -6.297936e-001 1.790615e+002 -8.421108e+000 -1.619548e+002
