!Agilent Technologies,N5230C,MY48100320,A.08.04.10
!Agilent N5230C: A.08.04.10
!Date: Thursday, July 07, 2016 05:13:48
!Correction: S11(Full 2 Port(1,2)) 
!S21(Full 2 Port(1,2)) 
!S12(Full 2 Port(1,2)) 
!S22(Full 2 Port(1,2)) 
!S2P File: Measurements: S11, S21, S12, S22:
# Hz S  dB   R 50
300000 -2.520485e+001 8.087789e+001 -7.921380e-002 -3.232137e+000 -7.996052e-002 -3.273329e+000 -2.440118e+001 7.710509e+001
67798500 -3.436830e+001 -7.826344e+001 9.611043e-003 5.153675e+000 6.882997e-003 5.153484e+000 -3.407613e+001 -1.016940e+002
135297000 -2.831024e+001 -5.897332e+001 4.246369e-003 1.019379e+001 5.256554e-003 1.021364e+001 -2.826118e+001 -1.048644e+002
202795500 -2.493246e+001 -4.311133e+001 -8.856141e-004 1.526673e+001 4.947192e-003 1.525684e+001 -2.473395e+001 -1.097193e+002
270294000 -2.240493e+001 -2.682150e+001 -6.771470e-003 2.037644e+001 -4.893091e-003 2.035390e+001 -2.222275e+001 -1.153017e+002
337792500 -2.048172e+001 -1.065554e+001 -1.489509e-002 2.541675e+001 -1.562196e-002 2.542413e+001 -2.033752e+001 -1.202278e+002
405291000 -1.898092e+001 5.844455e+000 -3.172005e-002 3.053560e+001 -3.011181e-002 3.052096e+001 -1.887006e+001 -1.260101e+002
472789500 -1.770558e+001 2.185693e+001 -4.792933e-002 3.561880e+001 -4.626162e-002 3.561157e+001 -1.766585e+001 -1.315160e+002
540288000 -1.661576e+001 3.752279e+001 -6.236856e-002 4.068798e+001 -6.217751e-002 4.072248e+001 -1.652833e+001 -1.367565e+002
607786500 -1.572790e+001 5.304731e+001 -8.762427e-002 4.580449e+001 -8.946291e-002 4.581467e+001 -1.566281e+001 -1.416718e+002
675285000 -1.489997e+001 6.819581e+001 -1.048713e-001 5.094846e+001 -1.109121e-001 5.092870e+001 -1.484759e+001 -1.469205e+002
742783500 -1.419102e+001 8.413344e+001 -1.347467e-001 5.606621e+001 -1.356542e-001 5.608189e+001 -1.414913e+001 -1.521842e+002
810282000 -1.357721e+001 1.001139e+002 -1.637209e-001 6.122910e+001 -1.630783e-001 6.122429e+001 -1.350896e+001 -1.575680e+002
877780500 -1.306392e+001 1.161306e+002 -1.846197e-001 6.638773e+001 -1.874592e-001 6.641644e+001 -1.299027e+001 -1.628652e+002
945279000 -1.256793e+001 1.322635e+002 -2.135011e-001 7.162788e+001 -2.132796e-001 7.159612e+001 -1.247159e+001 -1.683004e+002
1012777500 -1.212401e+001 1.485059e+002 -2.344196e-001 7.681941e+001 -2.377714e-001 7.683056e+001 -1.204482e+001 -1.738232e+002
1080276000 -1.169254e+001 1.645807e+002 -2.592224e-001 8.206218e+001 -2.674774e-001 8.204333e+001 -1.168148e+001 -1.793882e+002
1147774500 -1.127362e+001 -1.791295e+002 -2.911402e-001 8.730195e+001 -2.876877e-001 8.730916e+001 -1.127092e+001 1.748501e+002
1215273000 -1.088432e+001 -1.626866e+002 -3.196159e-001 9.259184e+001 -3.164250e-001 9.260067e+001 -1.092708e+001 1.694385e+002
1282771500 -1.051819e+001 -1.467097e+002 -3.478807e-001 9.789359e+001 -3.509047e-001 9.792095e+001 -1.060564e+001 1.636785e+002
1350270000 -1.014780e+001 -1.303611e+002 -3.787617e-001 1.032381e+002 -3.748661e-001 1.032349e+002 -1.028814e+001 1.582514e+002
1417768500 -9.818208e+000 -1.142550e+002 -4.033183e-001 1.086048e+002 -4.048688e-001 1.085914e+002 -1.002268e+001 1.525995e+002
1485267000 -9.525214e+000 -9.854875e+001 -4.336740e-001 1.139724e+002 -4.331973e-001 1.139385e+002 -9.735714e+000 1.471342e+002
1552765500 -9.267838e+000 -8.263421e+001 -4.673885e-001 1.193401e+002 -4.659262e-001 1.193332e+002 -9.472502e+000 1.417200e+002
1620264000 -9.004620e+000 -6.674857e+001 -4.937627e-001 1.247072e+002 -4.961117e-001 1.247215e+002 -9.233414e+000 1.363616e+002
1687762500 -8.803843e+000 -5.095041e+001 -5.249805e-001 1.301230e+002 -5.199208e-001 1.301143e+002 -9.026259e+000 1.312717e+002
1755261000 -8.631499e+000 -3.496706e+001 -5.434362e-001 1.355003e+002 -5.406685e-001 1.355098e+002 -8.853480e+000 1.260545e+002
1822759500 -8.485685e+000 -1.879794e+001 -5.581985e-001 1.408978e+002 -5.566440e-001 1.408903e+002 -8.726793e+000 1.207230e+002
1890258000 -8.374645e+000 -2.703145e+000 -5.714837e-001 1.462840e+002 -5.723859e-001 1.463317e+002 -8.606703e+000 1.155536e+002
1957756500 -8.266906e+000 1.372529e+001 -5.840853e-001 1.517241e+002 -5.799059e-001 1.517277e+002 -8.521253e+000 1.100832e+002
2025255000 -8.153603e+000 3.028604e+001 -5.923200e-001 1.571421e+002 -5.944260e-001 1.571539e+002 -8.439945e+000 1.046394e+002
2092753500 -8.077338e+000 4.684572e+001 -5.954952e-001 1.625683e+002 -5.953556e-001 1.625577e+002 -8.383987e+000 9.910847e+001
2160252000 -8.021362e+000 6.343670e+001 -6.086331e-001 1.680524e+002 -6.014221e-001 1.680465e+002 -8.337596e+000 9.335112e+001
2227750500 -7.933336e+000 8.013940e+001 -6.189203e-001 1.735292e+002 -6.207881e-001 1.735192e+002 -8.253695e+000 8.748144e+001
2295249000 -7.882924e+000 9.676392e+001 -6.305877e-001 1.789919e+002 -6.321604e-001 1.789975e+002 -8.194627e+000 8.170506e+001
2362747500 -7.821753e+000 1.133068e+002 -6.428156e-001 -1.754648e+002 -6.439553e-001 -1.754515e+002 -8.141807e+000 7.579572e+001
2430246000 -7.780533e+000 1.299263e+002 -6.549656e-001 -1.699812e+002 -6.594992e-001 -1.699962e+002 -8.071834e+000 7.006875e+001
2497744500 -7.734356e+000 1.462584e+002 -6.707472e-001 -1.645005e+002 -6.685000e-001 -1.644984e+002 -8.025905e+000 6.440291e+001
2565243000 -7.722527e+000 1.626165e+002 -6.811896e-001 -1.590301e+002 -6.807272e-001 -1.590326e+002 -7.950991e+000 5.878845e+001
2632741500 -7.712624e+000 1.787702e+002 -6.905230e-001 -1.535576e+002 -6.846724e-001 -1.535542e+002 -7.910863e+000 5.334109e+001
2700240000 -7.723489e+000 -1.650330e+002 -6.920664e-001 -1.481574e+002 -6.950818e-001 -1.481564e+002 -7.895297e+000 4.816563e+001
2767738500 -7.761751e+000 -1.490630e+002 -6.934911e-001 -1.427574e+002 -6.926625e-001 -1.427646e+002 -7.892682e+000 4.295322e+001
2835237000 -7.825627e+000 -1.329118e+002 -6.888185e-001 -1.373309e+002 -6.879547e-001 -1.373130e+002 -7.894822e+000 3.785759e+001
2902735500 -7.894424e+000 -1.170265e+002 -6.753347e-001 -1.319622e+002 -6.719379e-001 -1.319889e+002 -8.000617e+000 3.286213e+001
2970234000 -7.980191e+000 -1.010849e+002 -6.570652e-001 -1.265920e+002 -6.560866e-001 -1.265748e+002 -8.065701e+000 2.784220e+001
3037732500 -8.086727e+000 -8.532755e+001 -6.373618e-001 -1.212081e+002 -6.364089e-001 -1.211998e+002 -8.190364e+000 2.310655e+001
3105231000 -8.189316e+000 -6.941369e+001 -6.148263e-001 -1.157901e+002 -6.150931e-001 -1.158057e+002 -8.327782e+000 1.800843e+001
3172729500 -8.340670e+000 -5.362474e+001 -5.825189e-001 -1.103677e+002 -5.841988e-001 -1.103607e+002 -8.463638e+000 1.304049e+001
3240228000 -8.458300e+000 -3.793113e+001 -5.635296e-001 -1.049628e+002 -5.572618e-001 -1.049527e+002 -8.660403e+000 8.138669e+000
3307726500 -8.611979e+000 -2.226809e+001 -5.281507e-001 -9.950425e+001 -5.278503e-001 -9.954441e+001 -8.853018e+000 2.980683e+000
3375225000 -8.821095e+000 -6.577810e+000 -4.968752e-001 -9.410258e+001 -4.998670e-001 -9.408827e+001 -9.038431e+000 -2.200047e+000
3442723500 -9.043796e+000 9.037767e+000 -4.647643e-001 -8.870753e+001 -4.654113e-001 -8.868037e+001 -9.267886e+000 -7.107924e+000
3510222000 -9.305908e+000 2.469248e+001 -4.439068e-001 -8.333790e+001 -4.381951e-001 -8.330167e+001 -9.508534e+000 -1.213207e+001
3577720500 -9.626032e+000 4.026080e+001 -4.027261e-001 -7.794111e+001 -4.029319e-001 -7.790686e+001 -9.778278e+000 -1.707834e+001
3645219000 -9.974456e+000 5.596294e+001 -3.666436e-001 -7.264376e+001 -3.624475e-001 -7.261098e+001 -1.011128e+001 -2.165575e+001
3712717500 -1.033576e+001 7.147134e+001 -3.312011e-001 -6.732909e+001 -3.282750e-001 -6.733108e+001 -1.048754e+001 -2.657736e+001
3780216000 -1.077614e+001 8.689343e+001 -2.893692e-001 -6.203156e+001 -2.932543e-001 -6.201131e+001 -1.085041e+001 -3.110618e+001
3847714500 -1.125335e+001 1.024965e+002 -2.538661e-001 -5.676630e+001 -2.502862e-001 -5.678805e+001 -1.135621e+001 -3.574615e+001
3915213000 -1.172223e+001 1.181219e+002 -2.165687e-001 -5.153368e+001 -2.137373e-001 -5.152282e+001 -1.184966e+001 -4.048150e+001
3982711500 -1.230426e+001 1.338153e+002 -1.735204e-001 -4.628550e+001 -1.711350e-001 -4.629026e+001 -1.243808e+001 -4.521080e+001
4050210000 -1.291380e+001 1.497629e+002 -1.349544e-001 -4.109136e+001 -1.341472e-001 -4.102910e+001 -1.313767e+001 -5.006359e+001
4117708500 -1.356455e+001 1.654984e+002 -1.052288e-001 -3.581669e+001 -1.037038e-001 -3.582154e+001 -1.384558e+001 -5.520025e+001
4185207000 -1.432926e+001 -1.783724e+002 -6.897841e-002 -3.060549e+001 -6.599734e-002 -3.060514e+001 -1.465927e+001 -6.091502e+001
4252705500 -1.512284e+001 -1.620523e+002 -3.800899e-002 -2.537696e+001 -3.648577e-002 -2.540955e+001 -1.557628e+001 -6.696086e+001
4320204000 -1.607635e+001 -1.457871e+002 -1.389825e-002 -2.021236e+001 -7.078094e-003 -2.021857e+001 -1.659795e+001 -7.352611e+001
4387702500 -1.719156e+001 -1.290829e+002 1.188306e-002 -1.508457e+001 1.400673e-002 -1.507023e+001 -1.759867e+001 -8.027224e+001
4455201000 -1.842201e+001 -1.124310e+002 4.015723e-002 -9.936382e+000 3.723659e-002 -9.967087e+000 -1.897511e+001 -8.772603e+001
4522699500 -1.982602e+001 -9.516593e+001 4.947160e-002 -4.863027e+000 5.568831e-002 -4.867959e+000 -2.024245e+001 -9.528951e+001
4590198000 -2.142189e+001 -7.819746e+001 8.039360e-002 2.354526e-001 7.292841e-002 2.312289e-001 -2.187285e+001 -1.033183e+002
4657696500 -2.358580e+001 -6.151362e+001 8.812429e-002 5.275777e+000 9.055990e-002 5.319447e+000 -2.382745e+001 -1.123237e+002
4725195000 -2.629046e+001 -4.246877e+001 9.745744e-002 1.035557e+001 9.905675e-002 1.034300e+001 -2.653278e+001 -1.231290e+002
4792693500 -2.968731e+001 -2.002411e+001 1.088199e-001 1.537848e+001 1.076776e-001 1.534669e+001 -2.989780e+001 -1.384606e+002
4860192000 -3.673420e+001 9.826967e+000 1.142329e-001 2.040135e+001 1.196860e-001 2.038947e+001 -3.570189e+001 -1.633534e+002
4927690500 -4.082315e+001 1.208217e+002 1.210973e-001 2.543135e+001 1.128759e-001 2.542367e+001 -3.711870e+001 1.063058e+002
4995189000 -3.249183e+001 1.753239e+002 1.221480e-001 3.044609e+001 1.165184e-001 3.045236e+001 -3.095135e+001 7.070408e+001
5062687500 -2.765229e+001 -1.592918e+002 1.179056e-001 3.547836e+001 1.164015e-001 3.547459e+001 -2.656466e+001 5.288927e+001
5130186000 -2.441755e+001 -1.400912e+002 1.061766e-001 4.051117e+001 1.063287e-001 4.050848e+001 -2.346936e+001 4.259672e+001
5197684500 -2.212707e+001 -1.204982e+002 9.652803e-002 4.551974e+001 9.326518e-002 4.556068e+001 -2.130914e+001 3.462463e+001
5265183000 -2.020240e+001 -1.031091e+002 8.007237e-002 5.060223e+001 8.134452e-002 5.058667e+001 -1.963611e+001 2.641591e+001
5332681500 -1.868007e+001 -8.464128e+001 6.687347e-002 5.562398e+001 6.293098e-002 5.564444e+001 -1.818250e+001 1.909818e+001
5400180000 -1.737848e+001 -6.841307e+001 4.801080e-002 6.071376e+001 4.433775e-002 6.071983e+001 -1.705230e+001 1.194429e+001
5467678500 -1.617994e+001 -5.173391e+001 2.256072e-002 6.579692e+001 2.678104e-002 6.575568e+001 -1.606500e+001 5.107244e+000
5535177000 -1.524042e+001 -3.505211e+001 2.964820e-003 7.091039e+001 2.889243e-003 7.087128e+001 -1.523245e+001 -1.793134e+000
5602675500 -1.431036e+001 -1.888028e+001 -2.302122e-002 7.599673e+001 -2.360668e-002 7.597396e+001 -1.453366e+001 -8.332089e+000
5670174000 -1.361522e+001 -3.035247e+000 -5.531530e-002 8.114808e+001 -5.066188e-002 8.114564e+001 -1.383389e+001 -1.531306e+001
5737672500 -1.294038e+001 1.321023e+001 -8.003620e-002 8.628658e+001 -8.013813e-002 8.627264e+001 -1.323993e+001 -2.166235e+001
5805171000 -1.232276e+001 2.931268e+001 -1.137413e-001 9.144906e+001 -1.111838e-001 9.144724e+001 -1.272851e+001 -2.800667e+001
5872669500 -1.192743e+001 4.546993e+001 -1.316448e-001 9.665031e+001 -1.323053e-001 9.660880e+001 -1.225360e+001 -3.401823e+001
5940168000 -1.150170e+001 6.209344e+001 -1.660401e-001 1.018307e+002 -1.632174e-001 1.018369e+002 -1.186984e+001 -4.014378e+001
6007666500 -1.111490e+001 7.830363e+001 -1.943316e-001 1.070863e+002 -1.989815e-001 1.070426e+002 -1.147957e+001 -4.611648e+001
6075165000 -1.080534e+001 9.496893e+001 -2.221761e-001 1.122824e+002 -2.169404e-001 1.122937e+002 -1.115866e+001 -5.162670e+001
6142663500 -1.051453e+001 1.115181e+002 -2.462583e-001 1.175616e+002 -2.413958e-001 1.175773e+002 -1.088306e+001 -5.730456e+001
6210162000 -1.017407e+001 1.280214e+002 -2.668391e-001 1.228949e+002 -2.670464e-001 1.228499e+002 -1.062874e+001 -6.275465e+001
6277660500 -9.927753e+000 1.445886e+002 -2.876192e-001 1.281990e+002 -2.841350e-001 1.282196e+002 -1.038886e+001 -6.808543e+001
6345159000 -9.603789e+000 1.609002e+002 -3.127012e-001 1.334951e+002 -3.077555e-001 1.334768e+002 -1.017148e+001 -7.329272e+001
6412657500 -9.300858e+000 1.769200e+002 -3.359441e-001 1.388419e+002 -3.342683e-001 1.388537e+002 -9.964673e+000 -7.831519e+001
6480156000 -9.062716e+000 -1.672873e+002 -3.545013e-001 1.442331e+002 -3.609149e-001 1.442069e+002 -9.723886e+000 -8.311199e+001
6547654500 -8.830807e+000 -1.515874e+002 -3.849536e-001 1.495773e+002 -3.848709e-001 1.495951e+002 -9.546123e+000 -8.805579e+001
6615153000 -8.613473e+000 -1.362989e+002 -4.056726e-001 1.549781e+002 -4.079265e-001 1.549512e+002 -9.292964e+000 -9.274391e+001
6682651500 -8.395778e+000 -1.212683e+002 -4.434111e-001 1.603451e+002 -4.384576e-001 1.603354e+002 -9.093253e+000 -9.710574e+001
6750150000 -8.277791e+000 -1.063241e+002 -4.676907e-001 1.657425e+002 -4.637621e-001 1.657521e+002 -8.894059e+000 -1.016923e+002
6817648500 -8.151743e+000 -9.135203e+001 -5.022699e-001 1.711176e+002 -4.923523e-001 1.711115e+002 -8.678756e+000 -1.060012e+002
6885147000 -8.080020e+000 -7.625558e+001 -5.301036e-001 1.765027e+002 -5.255069e-001 1.765206e+002 -8.516856e+000 -1.104199e+002
6952645500 -8.008580e+000 -6.133739e+001 -5.540870e-001 -1.780698e+002 -5.548621e-001 -1.780568e+002 -8.322114e+000 -1.148637e+002
7020144000 -7.951247e+000 -4.616000e+001 -5.785543e-001 -1.726680e+002 -5.839846e-001 -1.726346e+002 -8.196084e+000 -1.191825e+002
7087642500 -7.929624e+000 -3.095548e+001 -6.001954e-001 -1.671825e+002 -5.999065e-001 -1.672034e+002 -8.074888e+000 -1.237127e+002
7155141000 -7.894173e+000 -1.521050e+001 -6.179563e-001 -1.617517e+002 -6.142102e-001 -1.617566e+002 -7.980571e+000 -1.286319e+002
7222639500 -7.905570e+000 5.365655e-001 -6.274170e-001 -1.562690e+002 -6.268940e-001 -1.562736e+002 -7.897889e+000 -1.334556e+002
7290138000 -7.870360e+000 1.664977e+001 -6.429313e-001 -1.507258e+002 -6.345430e-001 -1.507457e+002 -7.882788e+000 -1.386479e+002
7357636500 -7.866659e+000 3.290826e+001 -6.424075e-001 -1.452287e+002 -6.457368e-001 -1.452328e+002 -7.799066e+000 -1.440150e+002
7425135000 -7.819444e+000 4.933320e+001 -6.427475e-001 -1.396904e+002 -6.492116e-001 -1.396778e+002 -7.816492e+000 -1.492562e+002
7492633500 -7.785649e+000 6.576385e+001 -6.453099e-001 -1.341907e+002 -6.527598e-001 -1.341772e+002 -7.827093e+000 -1.549984e+002
7560132000 -7.748387e+000 8.242683e+001 -6.523119e-001 -1.286622e+002 -6.455858e-001 -1.287095e+002 -7.831555e+000 -1.607265e+002
7627630500 -7.746756e+000 9.912114e+001 -6.447912e-001 -1.232754e+002 -6.411825e-001 -1.232384e+002 -7.868076e+000 -1.665395e+002
7695129000 -7.787337e+000 1.154563e+002 -6.308270e-001 -1.178057e+002 -6.364480e-001 -1.178517e+002 -7.937607e+000 -1.723460e+002
7762627500 -7.839958e+000 1.321854e+002 -6.182997e-001 -1.125085e+002 -6.213005e-001 -1.124918e+002 -8.031541e+000 -1.781039e+002
7830126000 -7.949160e+000 1.486783e+002 -5.955139e-001 -1.071619e+002 -6.016755e-001 -1.071498e+002 -8.196287e+000 1.760043e+002
7897624500 -8.117455e+000 1.653181e+002 -5.652903e-001 -1.019018e+002 -5.673169e-001 -1.018799e+002 -8.409668e+000 1.702734e+002
7965123000 -8.332190e+000 -1.777373e+002 -5.248446e-001 -9.659731e+001 -5.315185e-001 -9.660811e+001 -8.656225e+000 1.644510e+002
8032621500 -8.588360e+000 -1.606188e+002 -4.901530e-001 -9.137508e+001 -4.898695e-001 -9.135971e+001 -8.995612e+000 1.584235e+002
8100120000 -8.903681e+000 -1.433592e+002 -4.421460e-001 -8.606535e+001 -4.389958e-001 -8.608717e+001 -9.374212e+000 1.522932e+002
8167618500 -9.223298e+000 -1.256170e+002 -3.983209e-001 -8.077891e+001 -3.951112e-001 -8.079533e+001 -9.808282e+000 1.459694e+002
8235117000 -9.592340e+000 -1.077133e+002 -3.554598e-001 -7.550491e+001 -3.537073e-001 -7.548600e+001 -1.024762e+001 1.393680e+002
8302615500 -9.999270e+000 -8.967294e+001 -3.146901e-001 -7.013541e+001 -3.171824e-001 -7.015780e+001 -1.067987e+001 1.324033e+002
8370114000 -1.034549e+001 -7.135385e+001 -2.998886e-001 -6.483803e+001 -2.943307e-001 -6.486867e+001 -1.108559e+001 1.253690e+002
8437612500 -1.076293e+001 -5.349935e+001 -2.810951e-001 -5.952401e+001 -2.830567e-001 -5.954350e+001 -1.142253e+001 1.180628e+002
8505111000 -1.117830e+001 -3.561328e+001 -2.783783e-001 -5.430042e+001 -2.801170e-001 -5.428681e+001 -1.164852e+001 1.109539e+002
8572609500 -1.159959e+001 -1.852470e+001 -2.898035e-001 -4.907090e+001 -2.901404e-001 -4.906439e+001 -1.179968e+001 1.041883e+002
8640108000 -1.204837e+001 -2.531684e+000 -3.040810e-001 -4.385475e+001 -3.051491e-001 -4.390945e+001 -1.187185e+001 9.870269e+001
8707606500 -1.261878e+001 1.352100e+001 -3.313205e-001 -3.879816e+001 -3.372214e-001 -3.879664e+001 -1.188635e+001 9.301659e+001
8775105000 -1.314202e+001 2.808028e+001 -3.728971e-001 -3.367311e+001 -3.718924e-001 -3.367746e+001 -1.178218e+001 8.801590e+001
8842603500 -1.382237e+001 4.178573e+001 -4.122819e-001 -2.853823e+001 -4.184604e-001 -2.858131e+001 -1.167972e+001 8.390359e+001
8910102000 -1.461857e+001 5.463500e+001 -4.599180e-001 -2.344717e+001 -4.620990e-001 -2.342214e+001 -1.159381e+001 7.956013e+001
8977600500 -1.544385e+001 6.651194e+001 -5.195491e-001 -1.822647e+001 -5.260985e-001 -1.820513e+001 -1.147980e+001 7.526771e+001
9045099000 -1.638031e+001 7.654372e+001 -5.767052e-001 -1.279960e+001 -5.799135e-001 -1.282354e+001 -1.145265e+001 7.048963e+001
9112597500 -1.736767e+001 8.673114e+001 -6.229457e-001 -7.349782e+000 -6.267506e-001 -7.353853e+000 -1.159939e+001 6.524477e+001
9180096000 -1.810520e+001 9.506385e+001 -6.601368e-001 -1.865852e+000 -6.607573e-001 -1.850137e+000 -1.181391e+001 5.905437e+001
9247594500 -1.858654e+001 1.010332e+002 -7.016832e-001 3.646479e+000 -7.031361e-001 3.674716e+000 -1.202180e+001 5.331251e+001
9315093000 -1.920273e+001 1.045816e+002 -7.585869e-001 9.281976e+000 -7.589377e-001 9.328493e+000 -1.243423e+001 4.552176e+001
9382591500 -1.954574e+001 1.091923e+002 -8.068745e-001 1.523386e+001 -8.060339e-001 1.523286e+001 -1.290816e+001 3.639333e+001
9450090000 -1.977685e+001 1.134545e+002 -8.183652e-001 2.135142e+001 -8.162007e-001 2.136355e+001 -1.375209e+001 2.612865e+001
9517588500 -1.976770e+001 1.200227e+002 -7.836362e-001 2.755747e+001 -7.795480e-001 2.755710e+001 -1.489626e+001 1.454590e+001
9585087000 -1.993366e+001 1.275700e+002 -6.938501e-001 3.358464e+001 -6.964073e-001 3.360541e+001 -1.653205e+001 2.489240e+000
9652585500 -1.989146e+001 1.380173e+002 -5.862243e-001 3.944620e+001 -5.816491e-001 3.945409e+001 -1.874502e+001 -9.846522e+000
9720084000 -1.972394e+001 1.498939e+002 -4.543522e-001 4.504300e+001 -4.561070e-001 4.504401e+001 -2.186577e+001 -2.369250e+001
9787582500 -1.931923e+001 1.607204e+002 -3.402586e-001 5.033096e+001 -3.277024e-001 5.032486e+001 -2.658540e+001 -4.199498e+001
9855081000 -1.898244e+001 1.734346e+002 -2.391456e-001 5.546327e+001 -2.396373e-001 5.549817e+001 -3.437424e+001 -9.245722e+001
9922579500 -1.838502e+001 -1.754973e+002 -1.636639e-001 6.053518e+001 -1.605645e-001 6.049193e+001 -2.968618e+001 -1.770274e+002
9990078000 -1.779068e+001 -1.639404e+002 -1.069886e-001 6.550291e+001 -1.051720e-001 6.551942e+001 -2.436876e+001 1.586892e+002
10057576500 -1.709899e+001 -1.527211e+002 -6.396221e-002 7.049683e+001 -6.154718e-002 7.049780e+001 -2.052029e+001 1.477988e+002
10125075000 -1.632427e+001 -1.418662e+002 -3.892317e-002 7.543826e+001 -4.793098e-002 7.543752e+001 -1.815891e+001 1.422212e+002
10192573500 -1.556885e+001 -1.321353e+002 -3.903070e-002 8.043026e+001 -3.118902e-002 8.043425e+001 -1.621892e+001 1.357574e+002
10260072000 -1.466596e+001 -1.221794e+002 -4.312848e-002 8.546027e+001 -3.260155e-002 8.546880e+001 -1.461466e+001 1.322087e+002
