!Agilent Technologies,N5230C,MY48100320,A.08.04.10
!Agilent N5230C: A.08.04.10
!Date: Friday, September 23, 2016 16:42:18
!Correction: S11(Full 2 Port(1,2)) 
!S21(Full 2 Port(1,2)) 
!S12(Full 2 Port(1,2)) 
!S22(Full 2 Port(1,2)) 
!S2P File: Measurements: S11, S21, S12, S22:
# Hz S  dB   R 50
300000 -2.685414e+001 7.883746e+001 -7.174795e-002 -2.836643e+000 -7.125799e-002 -2.818180e+000 -2.536271e+001 7.728365e+001
17174625 -4.125623e+001 -1.065550e+002 -9.280695e-003 -1.841508e+000 -1.208005e-002 -1.833331e+000 -4.213138e+001 -1.015651e+002
34049250 -3.443692e+001 -9.913756e+001 -2.901255e-002 -3.337609e+000 -3.154622e-002 -3.341986e+000 -3.461869e+001 -9.994482e+001
50923875 -3.121719e+001 -9.771753e+001 -4.393796e-002 -4.934662e+000 -4.913344e-002 -4.906405e+000 -3.110050e+001 -9.966138e+001
67798500 -2.879400e+001 -9.822940e+001 -5.676637e-002 -6.498837e+000 -6.443010e-002 -6.470337e+000 -2.874625e+001 -1.024999e+002
84673125 -2.690088e+001 -9.906100e+001 -7.283381e-002 -8.050982e+000 -7.600420e-002 -8.035626e+000 -2.701225e+001 -1.034654e+002
101547750 -2.532983e+001 -1.005650e+002 -8.624389e-002 -9.623175e+000 -9.399587e-002 -9.618150e+000 -2.554239e+001 -1.050575e+002
118422375 -2.408169e+001 -1.013082e+002 -9.991023e-002 -1.115279e+001 -1.033579e-001 -1.114806e+001 -2.424465e+001 -1.062523e+002
135297000 -2.296576e+001 -1.026613e+002 -1.175687e-001 -1.266305e+001 -1.269633e-001 -1.269408e+001 -2.307454e+001 -1.081399e+002
152171625 -2.190131e+001 -1.036086e+002 -1.344899e-001 -1.419398e+001 -1.430165e-001 -1.415489e+001 -2.213959e+001 -1.104651e+002
169046250 -2.108879e+001 -1.045773e+002 -1.500516e-001 -1.567861e+001 -1.512121e-001 -1.572301e+001 -2.128687e+001 -1.117457e+002
185920875 -2.039850e+001 -1.059114e+002 -1.658965e-001 -1.720525e+001 -1.763454e-001 -1.719287e+001 -2.047156e+001 -1.135027e+002
202795500 -1.967989e+001 -1.073256e+002 -1.874754e-001 -1.871272e+001 -1.880917e-001 -1.869449e+001 -1.978370e+001 -1.147307e+002
219670125 -1.903793e+001 -1.084395e+002 -2.064082e-001 -2.022293e+001 -2.096968e-001 -2.022369e+001 -1.911779e+001 -1.166434e+002
236544750 -1.840333e+001 -1.094075e+002 -2.261437e-001 -2.171268e+001 -2.306425e-001 -2.172176e+001 -1.855369e+001 -1.183462e+002
253419375 -1.785776e+001 -1.104277e+002 -2.431322e-001 -2.321035e+001 -2.496536e-001 -2.318212e+001 -1.800937e+001 -1.199790e+002
270294000 -1.730623e+001 -1.117900e+002 -2.678060e-001 -2.466537e+001 -2.670128e-001 -2.469780e+001 -1.750159e+001 -1.216506e+002
287168625 -1.683780e+001 -1.127817e+002 -2.835512e-001 -2.617155e+001 -2.865224e-001 -2.617342e+001 -1.701785e+001 -1.234379e+002
304043250 -1.638359e+001 -1.139532e+002 -3.048164e-001 -2.764510e+001 -3.052840e-001 -2.764055e+001 -1.656403e+001 -1.254449e+002
320917875 -1.596498e+001 -1.148589e+002 -3.297850e-001 -2.912841e+001 -3.300404e-001 -2.912870e+001 -1.610767e+001 -1.271347e+002
337792500 -1.556894e+001 -1.159127e+002 -3.475074e-001 -3.061816e+001 -3.533128e-001 -3.059108e+001 -1.571815e+001 -1.288040e+002
354667125 -1.516819e+001 -1.169953e+002 -3.722327e-001 -3.205832e+001 -3.745204e-001 -3.205460e+001 -1.535528e+001 -1.307686e+002
371541750 -1.485118e+001 -1.181230e+002 -3.952310e-001 -3.352548e+001 -3.981930e-001 -3.349686e+001 -1.498892e+001 -1.322343e+002
388416375 -1.450033e+001 -1.191593e+002 -4.237088e-001 -3.498351e+001 -4.219403e-001 -3.499997e+001 -1.466838e+001 -1.339487e+002
405291000 -1.418308e+001 -1.203121e+002 -4.415666e-001 -3.643357e+001 -4.470620e-001 -3.646154e+001 -1.433487e+001 -1.356185e+002
422165625 -1.386521e+001 -1.213188e+002 -4.698029e-001 -3.788924e+001 -4.691311e-001 -3.787419e+001 -1.402929e+001 -1.374763e+002
439040250 -1.359611e+001 -1.224170e+002 -4.968832e-001 -3.937982e+001 -4.999039e-001 -3.935958e+001 -1.370229e+001 -1.390983e+002
455914875 -1.329883e+001 -1.236775e+002 -5.250186e-001 -4.082828e+001 -5.250530e-001 -4.081370e+001 -1.339094e+001 -1.407030e+002
472789500 -1.298425e+001 -1.246470e+002 -5.479587e-001 -4.228448e+001 -5.533657e-001 -4.225740e+001 -1.311899e+001 -1.423241e+002
489664125 -1.269546e+001 -1.258564e+002 -5.755944e-001 -4.371035e+001 -5.829221e-001 -4.371788e+001 -1.285130e+001 -1.440197e+002
506538750 -1.242290e+001 -1.269663e+002 -6.063576e-001 -4.513862e+001 -6.100742e-001 -4.515885e+001 -1.254451e+001 -1.455878e+002
523413375 -1.214994e+001 -1.281118e+002 -6.370044e-001 -4.657534e+001 -6.407527e-001 -4.655302e+001 -1.228188e+001 -1.472448e+002
540288000 -1.191647e+001 -1.291401e+002 -6.649221e-001 -4.799208e+001 -6.693304e-001 -4.798235e+001 -1.204961e+001 -1.488065e+002
557162625 -1.170149e+001 -1.300870e+002 -6.968353e-001 -4.941196e+001 -6.949133e-001 -4.941007e+001 -1.181590e+001 -1.504065e+002
574037250 -1.150091e+001 -1.311728e+002 -7.280439e-001 -5.082288e+001 -7.270991e-001 -5.080984e+001 -1.159716e+001 -1.522053e+002
590911875 -1.128444e+001 -1.321767e+002 -7.553988e-001 -5.222714e+001 -7.566060e-001 -5.221272e+001 -1.138773e+001 -1.537871e+002
607786500 -1.111193e+001 -1.331639e+002 -7.814037e-001 -5.363839e+001 -7.868205e-001 -5.364606e+001 -1.121801e+001 -1.554657e+002
624661125 -1.092584e+001 -1.341220e+002 -8.148405e-001 -5.505841e+001 -8.168281e-001 -5.503979e+001 -1.104675e+001 -1.571733e+002
641535750 -1.075263e+001 -1.351097e+002 -8.425046e-001 -5.644561e+001 -8.444061e-001 -5.644333e+001 -1.086641e+001 -1.589403e+002
658410375 -1.059148e+001 -1.360700e+002 -8.755959e-001 -5.788404e+001 -8.745370e-001 -5.787115e+001 -1.070444e+001 -1.605952e+002
675285000 -1.042602e+001 -1.370992e+002 -9.024611e-001 -5.928833e+001 -9.080868e-001 -5.926194e+001 -1.050510e+001 -1.622899e+002
692159625 -1.024683e+001 -1.380912e+002 -9.375761e-001 -6.070358e+001 -9.426425e-001 -6.066743e+001 -1.033593e+001 -1.639628e+002
709034250 -1.008023e+001 -1.390561e+002 -9.765584e-001 -6.214984e+001 -9.780583e-001 -6.212375e+001 -1.015667e+001 -1.657148e+002
725908875 -9.933357e+000 -1.399242e+002 -1.007205e+000 -6.352231e+001 -1.008860e+000 -6.351277e+001 -9.998928e+000 -1.673497e+002
742783500 -9.752531e+000 -1.409209e+002 -1.043146e+000 -6.490086e+001 -1.047544e+000 -6.490228e+001 -9.837804e+000 -1.690441e+002
759658125 -9.584404e+000 -1.418848e+002 -1.081235e+000 -6.631030e+001 -1.079046e+000 -6.632131e+001 -9.689382e+000 -1.707642e+002
776532750 -9.452552e+000 -1.428127e+002 -1.111329e+000 -6.768583e+001 -1.117031e+000 -6.766302e+001 -9.543675e+000 -1.723786e+002
793407375 -9.316680e+000 -1.436826e+002 -1.151200e+000 -6.904383e+001 -1.148670e+000 -6.906086e+001 -9.408904e+000 -1.740784e+002
810282000 -9.197022e+000 -1.445017e+002 -1.181044e+000 -7.045826e+001 -1.187498e+000 -7.041307e+001 -9.273985e+000 -1.757493e+002
827156625 -9.054913e+000 -1.455368e+002 -1.216168e+000 -7.178581e+001 -1.219684e+000 -7.176975e+001 -9.142258e+000 -1.774635e+002
844031250 -8.945754e+000 -1.463867e+002 -1.254545e+000 -7.315454e+001 -1.253703e+000 -7.314675e+001 -9.019281e+000 -1.791483e+002
860905875 -8.810291e+000 -1.472243e+002 -1.288480e+000 -7.453919e+001 -1.293144e+000 -7.448654e+001 -8.896683e+000 1.792419e+002
877780500 -8.699264e+000 -1.481650e+002 -1.324883e+000 -7.588044e+001 -1.324317e+000 -7.588013e+001 -8.770968e+000 1.774779e+002
894655125 -8.578994e+000 -1.490127e+002 -1.361479e+000 -7.721128e+001 -1.364170e+000 -7.723647e+001 -8.659507e+000 1.758438e+002
911529750 -8.446280e+000 -1.499543e+002 -1.401884e+000 -7.861765e+001 -1.400452e+000 -7.863161e+001 -8.543443e+000 1.741420e+002
928404375 -8.335182e+000 -1.508354e+002 -1.440230e+000 -7.997986e+001 -1.442666e+000 -7.996419e+001 -8.419097e+000 1.725807e+002
945279000 -8.206631e+000 -1.518188e+002 -1.481016e+000 -8.129940e+001 -1.473776e+000 -8.131919e+001 -8.290867e+000 1.708906e+002
962153625 -8.102440e+000 -1.526688e+002 -1.513608e+000 -8.264473e+001 -1.521188e+000 -8.263453e+001 -8.195094e+000 1.692005e+002
979028250 -7.997361e+000 -1.535105e+002 -1.555424e+000 -8.397477e+001 -1.554894e+000 -8.397916e+001 -8.086354e+000 1.675914e+002
995902875 -7.887925e+000 -1.544036e+002 -1.590638e+000 -8.528548e+001 -1.594114e+000 -8.530741e+001 -7.966812e+000 1.658821e+002
1012777500 -7.788415e+000 -1.553221e+002 -1.631399e+000 -8.662463e+001 -1.630563e+000 -8.662337e+001 -7.881445e+000 1.642309e+002
1029652125 -7.696983e+000 -1.561406e+002 -1.668998e+000 -8.794555e+001 -1.673017e+000 -8.794363e+001 -7.792773e+000 1.625839e+002
1046526750 -7.610333e+000 -1.569636e+002 -1.706321e+000 -8.924130e+001 -1.704678e+000 -8.926572e+001 -7.704726e+000 1.609498e+002
1063401375 -7.524200e+000 -1.578635e+002 -1.740036e+000 -9.059650e+001 -1.740204e+000 -9.056863e+001 -7.621830e+000 1.592937e+002
1080276000 -7.443760e+000 -1.587428e+002 -1.777450e+000 -9.190889e+001 -1.779003e+000 -9.191131e+001 -7.523996e+000 1.575846e+002
1097150625 -7.350253e+000 -1.595499e+002 -1.819220e+000 -9.323301e+001 -1.821365e+000 -9.324593e+001 -7.444962e+000 1.560094e+002
1114025250 -7.267874e+000 -1.604106e+002 -1.851792e+000 -9.458568e+001 -1.858843e+000 -9.457164e+001 -7.365024e+000 1.543494e+002
1130899875 -7.183943e+000 -1.612702e+002 -1.899401e+000 -9.590804e+001 -1.903915e+000 -9.589216e+001 -7.274249e+000 1.527128e+002
1147774500 -7.096485e+000 -1.621263e+002 -1.943532e+000 -9.720145e+001 -1.943027e+000 -9.723633e+001 -7.185034e+000 1.510444e+002
1164649125 -7.004249e+000 -1.629990e+002 -1.986496e+000 -9.848850e+001 -1.982327e+000 -9.850024e+001 -7.106914e+000 1.494288e+002
1181523750 -6.928699e+000 -1.638335e+002 -2.025924e+000 -9.982191e+001 -2.018849e+000 -9.978276e+001 -7.026741e+000 1.477708e+002
1198398375 -6.841469e+000 -1.646708e+002 -2.066138e+000 -1.011132e+002 -2.067485e+000 -1.011077e+002 -6.952241e+000 1.461012e+002
1215273000 -6.765543e+000 -1.654514e+002 -2.115265e+000 -1.023960e+002 -2.106360e+000 -1.023862e+002 -6.860365e+000 1.445675e+002
1232147625 -6.686525e+000 -1.662360e+002 -2.146330e+000 -1.036734e+002 -2.150021e+000 -1.037017e+002 -6.792705e+000 1.429804e+002
1249022250 -6.620571e+000 -1.670432e+002 -2.190221e+000 -1.049560e+002 -2.189845e+000 -1.049457e+002 -6.723593e+000 1.413351e+002
1265896875 -6.553796e+000 -1.678404e+002 -2.230627e+000 -1.062254e+002 -2.231754e+000 -1.062538e+002 -6.664735e+000 1.397241e+002
1282771500 -6.480618e+000 -1.686919e+002 -2.266971e+000 -1.075278e+002 -2.277119e+000 -1.075187e+002 -6.597559e+000 1.381603e+002
1299646125 -6.427901e+000 -1.694908e+002 -2.314717e+000 -1.088170e+002 -2.316442e+000 -1.088172e+002 -6.531903e+000 1.365700e+002
1316520750 -6.360024e+000 -1.703440e+002 -2.359617e+000 -1.100930e+002 -2.361313e+000 -1.100630e+002 -6.465043e+000 1.349989e+002
1333395375 -6.285703e+000 -1.711250e+002 -2.401698e+000 -1.113114e+002 -2.406368e+000 -1.113484e+002 -6.401989e+000 1.333758e+002
1350270000 -6.225727e+000 -1.720063e+002 -2.445906e+000 -1.126373e+002 -2.437777e+000 -1.126143e+002 -6.332070e+000 1.317811e+002
1367144625 -6.160106e+000 -1.728694e+002 -2.485479e+000 -1.139036e+002 -2.485697e+000 -1.138848e+002 -6.258859e+000 1.302127e+002
1384019250 -6.090690e+000 -1.737180e+002 -2.528784e+000 -1.151716e+002 -2.532494e+000 -1.151522e+002 -6.202526e+000 1.286284e+002
1400893875 -6.039654e+000 -1.744987e+002 -2.577288e+000 -1.164132e+002 -2.577230e+000 -1.163939e+002 -6.144071e+000 1.271279e+002
1417768500 -5.977861e+000 -1.752672e+002 -2.612776e+000 -1.176632e+002 -2.607045e+000 -1.176412e+002 -6.085486e+000 1.256143e+002
1434643125 -5.914003e+000 -1.760245e+002 -2.661145e+000 -1.189092e+002 -2.661978e+000 -1.188975e+002 -6.028885e+000 1.240927e+002
1451517750 -5.867947e+000 -1.768259e+002 -2.703634e+000 -1.201552e+002 -2.703662e+000 -1.201480e+002 -5.976249e+000 1.224961e+002
1468392375 -5.811105e+000 -1.775625e+002 -2.740497e+000 -1.214086e+002 -2.744636e+000 -1.213901e+002 -5.925877e+000 1.209628e+002
1485267000 -5.762883e+000 -1.783439e+002 -2.781269e+000 -1.226072e+002 -2.782047e+000 -1.226399e+002 -5.866662e+000 1.194362e+002
1502141625 -5.723674e+000 -1.791425e+002 -2.838804e+000 -1.239517e+002 -2.836404e+000 -1.239139e+002 -5.845169e+000 1.177242e+002
1519016250 -5.665522e+000 -1.798660e+002 -2.875341e+000 -1.251317e+002 -2.873592e+000 -1.251094e+002 -5.784920e+000 1.162174e+002
1535890875 -5.623394e+000 1.793620e+002 -2.920269e+000 -1.263596e+002 -2.923540e+000 -1.263621e+002 -5.743233e+000 1.147114e+002
1552765500 -5.566137e+000 1.785966e+002 -2.958007e+000 -1.275952e+002 -2.962010e+000 -1.275681e+002 -5.684988e+000 1.131564e+002
1569640125 -5.522624e+000 1.777886e+002 -3.011114e+000 -1.288224e+002 -3.009305e+000 -1.288047e+002 -5.642635e+000 1.116079e+002
1586514750 -5.467987e+000 1.769498e+002 -3.054558e+000 -1.300578e+002 -3.060678e+000 -1.300651e+002 -5.587772e+000 1.101807e+002
1603389375 -5.421862e+000 1.761681e+002 -3.104370e+000 -1.312476e+002 -3.099985e+000 -1.312251e+002 -5.526810e+000 1.086816e+002
1620264000 -5.374087e+000 1.754081e+002 -3.154799e+000 -1.324765e+002 -3.151069e+000 -1.324565e+002 -5.491982e+000 1.072702e+002
1637138625 -5.343176e+000 1.746913e+002 -3.189822e+000 -1.336463e+002 -3.193405e+000 -1.336947e+002 -5.452009e+000 1.057236e+002
1654013250 -5.292025e+000 1.739278e+002 -3.237890e+000 -1.348684e+002 -3.241815e+000 -1.348702e+002 -5.406826e+000 1.043134e+002
1670887875 -5.259248e+000 1.732140e+002 -3.274318e+000 -1.360668e+002 -3.286249e+000 -1.360654e+002 -5.367797e+000 1.028017e+002
1687762500 -5.217909e+000 1.724167e+002 -3.319147e+000 -1.372781e+002 -3.324745e+000 -1.372843e+002 -5.334686e+000 1.013386e+002
1704637125 -5.181245e+000 1.717458e+002 -3.368086e+000 -1.384714e+002 -3.363116e+000 -1.385006e+002 -5.293728e+000 9.984718e+001
1721511750 -5.150409e+000 1.709078e+002 -3.412742e+000 -1.397022e+002 -3.416740e+000 -1.396837e+002 -5.263627e+000 9.835947e+001
1738386375 -5.105342e+000 1.701684e+002 -3.452475e+000 -1.408994e+002 -3.454062e+000 -1.408729e+002 -5.223593e+000 9.689236e+001
1755261000 -5.080294e+000 1.694016e+002 -3.504139e+000 -1.421097e+002 -3.506245e+000 -1.420816e+002 -5.189542e+000 9.541864e+001
1772135625 -5.037807e+000 1.686471e+002 -3.541702e+000 -1.432707e+002 -3.553835e+000 -1.432460e+002 -5.150043e+000 9.397263e+001
1789010250 -5.010046e+000 1.678739e+002 -3.591832e+000 -1.444549e+002 -3.594038e+000 -1.444269e+002 -5.107944e+000 9.255832e+001
1805884875 -4.976360e+000 1.670995e+002 -3.638474e+000 -1.456146e+002 -3.638120e+000 -1.456329e+002 -5.073026e+000 9.112435e+001
1822759500 -4.942544e+000 1.663239e+002 -3.691615e+000 -1.468032e+002 -3.689659e+000 -1.468332e+002 -5.036681e+000 8.974687e+001
1839634125 -4.909297e+000 1.656332e+002 -3.731327e+000 -1.479698e+002 -3.734832e+000 -1.479794e+002 -5.002112e+000 8.832374e+001
1856508750 -4.879682e+000 1.648565e+002 -3.781374e+000 -1.491650e+002 -3.776014e+000 -1.491425e+002 -4.974665e+000 8.692752e+001
1873383375 -4.841274e+000 1.640976e+002 -3.822160e+000 -1.503628e+002 -3.818649e+000 -1.503001e+002 -4.948590e+000 8.551684e+001
1890258000 -4.815691e+000 1.633942e+002 -3.865608e+000 -1.514617e+002 -3.868943e+000 -1.514650e+002 -4.925254e+000 8.415192e+001
1907132625 -4.797809e+000 1.626450e+002 -3.916599e+000 -1.526639e+002 -3.914203e+000 -1.526307e+002 -4.898908e+000 8.274516e+001
1924007250 -4.768213e+000 1.619002e+002 -3.957073e+000 -1.538304e+002 -3.959199e+000 -1.538327e+002 -4.867025e+000 8.133179e+001
1940881875 -4.735754e+000 1.611458e+002 -3.998968e+000 -1.549942e+002 -4.001959e+000 -1.549549e+002 -4.843995e+000 7.997559e+001
1957756500 -4.705842e+000 1.604028e+002 -4.038384e+000 -1.561296e+002 -4.045819e+000 -1.561236e+002 -4.812823e+000 7.854952e+001
1974631125 -4.681699e+000 1.596613e+002 -4.076519e+000 -1.572786e+002 -4.089526e+000 -1.572976e+002 -4.790313e+000 7.717550e+001
1991505750 -4.660168e+000 1.589353e+002 -4.136324e+000 -1.584336e+002 -4.133487e+000 -1.584195e+002 -4.761914e+000 7.582974e+001
2008380375 -4.636569e+000 1.581808e+002 -4.173502e+000 -1.595522e+002 -4.186764e+000 -1.595363e+002 -4.742322e+000 7.444956e+001
2025255000 -4.603856e+000 1.574661e+002 -4.216773e+000 -1.606846e+002 -4.232278e+000 -1.606903e+002 -4.719247e+000 7.311027e+001
2042129625 -4.584315e+000 1.567089e+002 -4.260863e+000 -1.618331e+002 -4.269034e+000 -1.618187e+002 -4.691804e+000 7.180608e+001
2059004250 -4.567013e+000 1.559734e+002 -4.324106e+000 -1.629476e+002 -4.311353e+000 -1.629564e+002 -4.666356e+000 7.044396e+001
2075878875 -4.532344e+000 1.552421e+002 -4.352160e+000 -1.641238e+002 -4.365418e+000 -1.641087e+002 -4.648452e+000 6.908601e+001
2092753500 -4.521363e+000 1.545322e+002 -4.400198e+000 -1.652007e+002 -4.402924e+000 -1.652126e+002 -4.629739e+000 6.774948e+001
2109628125 -4.503590e+000 1.538457e+002 -4.441655e+000 -1.663291e+002 -4.448606e+000 -1.663459e+002 -4.614710e+000 6.637823e+001
2126502750 -4.485023e+000 1.531507e+002 -4.483215e+000 -1.674369e+002 -4.482279e+000 -1.674446e+002 -4.589732e+000 6.501983e+001
2143377375 -4.470598e+000 1.524592e+002 -4.533094e+000 -1.685754e+002 -4.527589e+000 -1.685945e+002 -4.580462e+000 6.368678e+001
2160252000 -4.453105e+000 1.517184e+002 -4.575861e+000 -1.696982e+002 -4.577156e+000 -1.697088e+002 -4.566061e+000 6.238591e+001
2177126625 -4.439799e+000 1.509694e+002 -4.630553e+000 -1.708228e+002 -4.616765e+000 -1.708487e+002 -4.552094e+000 6.102995e+001
2194001250 -4.410403e+000 1.502314e+002 -4.657235e+000 -1.719729e+002 -4.672105e+000 -1.720023e+002 -4.521818e+000 5.967644e+001
2210875875 -4.393884e+000 1.495000e+002 -4.692041e+000 -1.730912e+002 -4.700244e+000 -1.730998e+002 -4.490206e+000 5.835673e+001
2227750500 -4.381049e+000 1.487634e+002 -4.746520e+000 -1.741827e+002 -4.755260e+000 -1.741705e+002 -4.490197e+000 5.704272e+001
2244625125 -4.367721e+000 1.480523e+002 -4.787666e+000 -1.752918e+002 -4.788157e+000 -1.752704e+002 -4.470111e+000 5.577626e+001
2261499750 -4.356966e+000 1.473495e+002 -4.838969e+000 -1.763730e+002 -4.831942e+000 -1.763490e+002 -4.450242e+000 5.446737e+001
2278374375 -4.344491e+000 1.466681e+002 -4.880572e+000 -1.774811e+002 -4.879965e+000 -1.774951e+002 -4.443743e+000 5.321324e+001
2295249000 -4.328510e+000 1.459372e+002 -4.920627e+000 -1.786130e+002 -4.917093e+000 -1.785559e+002 -4.425350e+000 5.189521e+001
2312123625 -4.321287e+000 1.452497e+002 -4.965281e+000 -1.796985e+002 -4.964791e+000 -1.796922e+002 -4.416574e+000 5.060615e+001
2328998250 -4.303118e+000 1.445665e+002 -4.988618e+000 1.792117e+002 -4.994164e+000 1.792224e+002 -4.399039e+000 4.928933e+001
2345872875 -4.292752e+000 1.438580e+002 -5.034450e+000 1.780891e+002 -5.037329e+000 1.780858e+002 -4.388627e+000 4.795226e+001
2362747500 -4.279378e+000 1.431852e+002 -5.070507e+000 1.770336e+002 -5.082434e+000 1.770244e+002 -4.376458e+000 4.666879e+001
2379622125 -4.283575e+000 1.424467e+002 -5.120906e+000 1.759547e+002 -5.118712e+000 1.759433e+002 -4.369874e+000 4.542300e+001
2396496750 -4.269727e+000 1.416898e+002 -5.166929e+000 1.748404e+002 -5.162066e+000 1.748270e+002 -4.367785e+000 4.413868e+001
2413371375 -4.264598e+000 1.410210e+002 -5.211093e+000 1.737638e+002 -5.207052e+000 1.737446e+002 -4.343902e+000 4.286659e+001
2430246000 -4.250316e+000 1.402861e+002 -5.250090e+000 1.726627e+002 -5.245465e+000 1.726544e+002 -4.332219e+000 4.157244e+001
2447120625 -4.239126e+000 1.395727e+002 -5.278908e+000 1.715809e+002 -5.285861e+000 1.715757e+002 -4.317717e+000 4.033258e+001
2463995250 -4.234767e+000 1.388925e+002 -5.324933e+000 1.705061e+002 -5.317506e+000 1.704962e+002 -4.312880e+000 3.904753e+001
2480869875 -4.217542e+000 1.382124e+002 -5.359534e+000 1.694152e+002 -5.364177e+000 1.694290e+002 -4.305151e+000 3.778542e+001
2497744500 -4.209919e+000 1.375286e+002 -5.394258e+000 1.683034e+002 -5.403211e+000 1.683251e+002 -4.302181e+000 3.651059e+001
2514619125 -4.208747e+000 1.368070e+002 -5.441321e+000 1.672376e+002 -5.444930e+000 1.672447e+002 -4.304323e+000 3.528652e+001
2531493750 -4.205817e+000 1.361459e+002 -5.482320e+000 1.661544e+002 -5.486165e+000 1.661333e+002 -4.286563e+000 3.397667e+001
2548368375 -4.197232e+000 1.354508e+002 -5.513208e+000 1.650648e+002 -5.519243e+000 1.650333e+002 -4.290550e+000 3.265831e+001
