!Agilent Technologies,N5230C,MY48100320,A.08.04.10
!Agilent N5230C: A.08.04.10
!Date: Thursday, September 15, 2016 22:10:22
!Correction: S11(Full 2 Port(1,2)) 
!S21(Full 2 Port(1,2)) 
!S12(Full 2 Port(1,2)) 
!S22(Full 2 Port(1,2)) 
!S2P File: Measurements: S11, S21, S12, S22:
# Hz S  dB   R 50
300000 -2.669398e+001 7.845123e+001 -6.941809e-002 -2.882350e+000 -7.110021e-002 -2.873583e+000 -2.516950e+001 7.751263e+001
17174625 -5.963740e+001 9.752025e+001 -1.480925e-004 -1.463806e+000 -1.874907e-003 -1.473807e+000 -5.313375e+001 6.986263e+001
34049250 -5.631308e+001 -6.475961e+001 -1.188680e-002 -2.639016e+000 -1.205101e-002 -2.632590e+000 -5.976635e+001 -3.009888e+001
50923875 -5.209756e+001 -5.473760e+001 -1.609819e-002 -3.919367e+000 -1.945790e-002 -3.905470e+000 -5.198862e+001 -4.760039e+001
67798500 -4.858146e+001 -6.269502e+001 -2.076769e-002 -5.166300e+000 -2.198909e-002 -5.177967e+000 -4.962051e+001 -7.278461e+001
84673125 -4.621855e+001 -6.924799e+001 -2.456225e-002 -6.467641e+000 -2.201951e-002 -6.457757e+000 -4.722518e+001 -7.030977e+001
101547750 -4.415875e+001 -8.080669e+001 -2.395564e-002 -7.728856e+000 -3.088436e-002 -7.745460e+000 -4.506054e+001 -7.501698e+001
118422375 -4.314899e+001 -8.121235e+001 -2.918544e-002 -9.006198e+000 -3.070247e-002 -9.031467e+000 -4.281976e+001 -7.575368e+001
135297000 -4.220123e+001 -8.658792e+001 -3.047414e-002 -1.025468e+001 -3.341256e-002 -1.026216e+001 -4.064180e+001 -7.844745e+001
152171625 -4.017453e+001 -8.923408e+001 -2.830424e-002 -1.151350e+001 -3.223997e-002 -1.149618e+001 -4.017910e+001 -8.392628e+001
169046250 -3.956057e+001 -8.927645e+001 -3.718014e-002 -1.276449e+001 -3.201304e-002 -1.276364e+001 -3.906503e+001 -8.065179e+001
185920875 -3.944191e+001 -9.411956e+001 -3.740854e-002 -1.403535e+001 -3.629992e-002 -1.405215e+001 -3.805537e+001 -8.317969e+001
202795500 -3.851296e+001 -9.997643e+001 -3.965401e-002 -1.530616e+001 -4.011868e-002 -1.530173e+001 -3.725373e+001 -8.084821e+001
219670125 -3.778653e+001 -1.037542e+002 -4.317997e-002 -1.654577e+001 -3.821226e-002 -1.654774e+001 -3.656145e+001 -8.468707e+001
236544750 -3.667645e+001 -1.051464e+002 -4.058888e-002 -1.782640e+001 -4.356554e-002 -1.783176e+001 -3.626358e+001 -8.708884e+001
253419375 -3.609376e+001 -1.078411e+002 -4.045563e-002 -1.908924e+001 -4.128060e-002 -1.907161e+001 -3.569110e+001 -8.820139e+001
270294000 -3.514398e+001 -1.138396e+002 -4.387845e-002 -2.033878e+001 -4.353777e-002 -2.033752e+001 -3.512453e+001 -9.017767e+001
287168625 -3.485274e+001 -1.157095e+002 -4.058950e-002 -2.160413e+001 -4.498593e-002 -2.162390e+001 -3.451016e+001 -9.149712e+001
304043250 -3.431837e+001 -1.193894e+002 -4.000232e-002 -2.285572e+001 -4.471858e-002 -2.285617e+001 -3.400521e+001 -9.507877e+001
320917875 -3.405657e+001 -1.210381e+002 -4.631801e-002 -2.411406e+001 -4.501294e-002 -2.410619e+001 -3.314609e+001 -9.582633e+001
337792500 -3.371812e+001 -1.229124e+002 -4.358912e-002 -2.540926e+001 -5.101613e-002 -2.537860e+001 -3.275898e+001 -9.560065e+001
354667125 -3.317905e+001 -1.254765e+002 -4.703426e-002 -2.663656e+001 -4.502704e-002 -2.663407e+001 -3.255613e+001 -9.756958e+001
371541750 -3.305516e+001 -1.285276e+002 -4.557502e-002 -2.790869e+001 -4.793719e-002 -2.786269e+001 -3.204096e+001 -9.629573e+001
388416375 -3.252771e+001 -1.297964e+002 -5.079351e-002 -2.914181e+001 -4.792796e-002 -2.915566e+001 -3.177694e+001 -9.709727e+001
405291000 -3.219775e+001 -1.328508e+002 -5.008491e-002 -3.041254e+001 -5.379938e-002 -3.039606e+001 -3.144898e+001 -9.749216e+001
422165625 -3.173480e+001 -1.336843e+002 -5.143893e-002 -3.164588e+001 -4.955134e-002 -3.166514e+001 -3.132673e+001 -9.974352e+001
439040250 -3.154757e+001 -1.371941e+002 -4.957882e-002 -3.291758e+001 -5.258622e-002 -3.291193e+001 -3.075495e+001 -1.010891e+002
455914875 -3.096524e+001 -1.397549e+002 -5.316278e-002 -3.419761e+001 -5.132864e-002 -3.417624e+001 -3.017575e+001 -1.032956e+002
472789500 -3.037785e+001 -1.400842e+002 -5.359928e-002 -3.546022e+001 -5.432194e-002 -3.544901e+001 -2.989761e+001 -1.047284e+002
489664125 -2.980207e+001 -1.431014e+002 -5.287554e-002 -3.670274e+001 -5.353813e-002 -3.671777e+001 -2.958546e+001 -1.060753e+002
506538750 -2.940793e+001 -1.455774e+002 -5.721917e-002 -3.793328e+001 -5.789491e-002 -3.795292e+001 -2.883764e+001 -1.076405e+002
523413375 -2.896465e+001 -1.475382e+002 -5.493872e-002 -3.919733e+001 -5.489727e-002 -3.920896e+001 -2.842393e+001 -1.086531e+002
540288000 -2.862215e+001 -1.497934e+002 -5.604976e-002 -4.045715e+001 -5.649062e-002 -4.045523e+001 -2.806338e+001 -1.088075e+002
557162625 -2.849420e+001 -1.515585e+002 -5.958267e-002 -4.174174e+001 -5.973636e-002 -4.172264e+001 -2.770662e+001 -1.087240e+002
574037250 -2.830672e+001 -1.542749e+002 -6.256105e-002 -4.299316e+001 -5.896544e-002 -4.298793e+001 -2.750133e+001 -1.105529e+002
590911875 -2.794751e+001 -1.556800e+002 -6.081363e-002 -4.424441e+001 -6.400318e-002 -4.421164e+001 -2.719060e+001 -1.106545e+002
607786500 -2.779646e+001 -1.580699e+002 -6.283443e-002 -4.548899e+001 -6.281975e-002 -4.549769e+001 -2.716134e+001 -1.106887e+002
624661125 -2.761263e+001 -1.595052e+002 -6.253541e-002 -4.676300e+001 -6.227383e-002 -4.673608e+001 -2.704990e+001 -1.114619e+002
641535750 -2.741675e+001 -1.618830e+002 -6.866354e-002 -4.800231e+001 -6.171113e-002 -4.799540e+001 -2.691216e+001 -1.126786e+002
658410375 -2.731014e+001 -1.638149e+002 -6.577229e-002 -4.926731e+001 -6.134805e-002 -4.928473e+001 -2.687361e+001 -1.132437e+002
675285000 -2.708924e+001 -1.660544e+002 -6.019136e-002 -5.054419e+001 -6.586656e-002 -5.050660e+001 -2.655167e+001 -1.148822e+002
692159625 -2.685282e+001 -1.673915e+002 -6.498251e-002 -5.182387e+001 -6.482606e-002 -5.176983e+001 -2.625384e+001 -1.165100e+002
709034250 -2.666244e+001 -1.692338e+002 -6.693814e-002 -5.310442e+001 -6.830505e-002 -5.308434e+001 -2.601113e+001 -1.183376e+002
725908875 -2.665769e+001 -1.714500e+002 -7.334176e-002 -5.434076e+001 -6.579247e-002 -5.435234e+001 -2.581556e+001 -1.192280e+002
742783500 -2.632765e+001 -1.726105e+002 -7.029640e-002 -5.560353e+001 -7.338288e-002 -5.560195e+001 -2.558874e+001 -1.206598e+002
759658125 -2.611071e+001 -1.729074e+002 -7.710613e-002 -5.686060e+001 -7.066326e-002 -5.686985e+001 -2.539704e+001 -1.211834e+002
776532750 -2.593469e+001 -1.750401e+002 -7.174627e-002 -5.811964e+001 -7.679731e-002 -5.810950e+001 -2.517954e+001 -1.217337e+002
793407375 -2.584975e+001 -1.763450e+002 -8.139455e-002 -5.935679e+001 -7.832915e-002 -5.937550e+001 -2.502781e+001 -1.224593e+002
810282000 -2.578847e+001 -1.776066e+002 -7.921928e-002 -6.063052e+001 -7.621243e-002 -6.060188e+001 -2.490346e+001 -1.232461e+002
827156625 -2.549706e+001 -1.795154e+002 -7.757664e-002 -6.187621e+001 -7.759752e-002 -6.186913e+001 -2.487697e+001 -1.246212e+002
844031250 -2.550016e+001 1.787329e+002 -8.175299e-002 -6.310565e+001 -7.583239e-002 -6.311087e+001 -2.478554e+001 -1.256161e+002
860905875 -2.526091e+001 1.781895e+002 -7.889814e-002 -6.437439e+001 -8.431584e-002 -6.433863e+001 -2.463569e+001 -1.266918e+002
877780500 -2.517298e+001 1.759652e+002 -8.008154e-002 -6.562138e+001 -8.117367e-002 -6.564964e+001 -2.455976e+001 -1.284880e+002
894655125 -2.502295e+001 1.744182e+002 -8.122485e-002 -6.685817e+001 -7.923920e-002 -6.687215e+001 -2.439446e+001 -1.297267e+002
911529750 -2.485170e+001 1.735858e+002 -8.113670e-002 -6.815356e+001 -8.166442e-002 -6.815789e+001 -2.423018e+001 -1.309577e+002
928404375 -2.475192e+001 1.718987e+002 -8.343131e-002 -6.938708e+001 -8.539193e-002 -6.940464e+001 -2.395111e+001 -1.321826e+002
945279000 -2.445780e+001 1.705189e+002 -8.396643e-002 -7.065382e+001 -8.154020e-002 -7.067110e+001 -2.378876e+001 -1.338816e+002
962153625 -2.433997e+001 1.688412e+002 -8.418903e-002 -7.190210e+001 -8.516890e-002 -7.191098e+001 -2.365206e+001 -1.346107e+002
979028250 -2.426588e+001 1.677301e+002 -8.545711e-002 -7.316465e+001 -8.496310e-002 -7.316970e+001 -2.348880e+001 -1.352999e+002
995902875 -2.411261e+001 1.662477e+002 -8.262552e-002 -7.441113e+001 -8.451589e-002 -7.443911e+001 -2.338016e+001 -1.370920e+002
1012777500 -2.391243e+001 1.649673e+002 -8.546500e-002 -7.568951e+001 -8.685834e-002 -7.567439e+001 -2.335110e+001 -1.375752e+002
1029652125 -2.379084e+001 1.637059e+002 -8.472944e-002 -7.695512e+001 -8.821815e-002 -7.693615e+001 -2.332007e+001 -1.384750e+002
1046526750 -2.374239e+001 1.619098e+002 -8.514433e-002 -7.817124e+001 -8.824691e-002 -7.820416e+001 -2.332428e+001 -1.394135e+002
1063401375 -2.362487e+001 1.597892e+002 -8.632876e-002 -7.946735e+001 -8.678889e-002 -7.944793e+001 -2.334451e+001 -1.405422e+002
1080276000 -2.349987e+001 1.576187e+002 -8.299579e-002 -8.070159e+001 -9.010793e-002 -8.072031e+001 -2.326112e+001 -1.422402e+002
1097150625 -2.345489e+001 1.568394e+002 -8.349600e-002 -8.196574e+001 -9.035002e-002 -8.197226e+001 -2.315890e+001 -1.434804e+002
1114025250 -2.339977e+001 1.547605e+002 -8.154769e-002 -8.322934e+001 -8.954702e-002 -8.322483e+001 -2.311355e+001 -1.446001e+002
1130899875 -2.331890e+001 1.536258e+002 -8.955676e-002 -8.448441e+001 -8.996596e-002 -8.448853e+001 -2.296053e+001 -1.462066e+002
1147774500 -2.324443e+001 1.523938e+002 -8.899796e-002 -8.572429e+001 -9.114851e-002 -8.574283e+001 -2.285111e+001 -1.474740e+002
1164649125 -2.312717e+001 1.512075e+002 -9.032986e-002 -8.698515e+001 -8.886802e-002 -8.700088e+001 -2.280264e+001 -1.484162e+002
1181523750 -2.308589e+001 1.498186e+002 -8.882578e-002 -8.825435e+001 -8.852911e-002 -8.824194e+001 -2.278212e+001 -1.490881e+002
1198398375 -2.296222e+001 1.487767e+002 -9.020058e-002 -8.954232e+001 -9.015785e-002 -8.951640e+001 -2.268773e+001 -1.501777e+002
1215273000 -2.289965e+001 1.476369e+002 -9.525664e-002 -9.079002e+001 -9.004106e-002 -9.075687e+001 -2.253425e+001 -1.514562e+002
1232147625 -2.283842e+001 1.463048e+002 -9.262455e-002 -9.202593e+001 -9.180143e-002 -9.203589e+001 -2.249823e+001 -1.521474e+002
1249022250 -2.272489e+001 1.446704e+002 -9.163778e-002 -9.328575e+001 -8.936842e-002 -9.325817e+001 -2.250377e+001 -1.536611e+002
1265896875 -2.263533e+001 1.427760e+002 -9.689146e-002 -9.454562e+001 -9.443069e-002 -9.455094e+001 -2.252871e+001 -1.548497e+002
1282771500 -2.251450e+001 1.412349e+002 -9.404460e-002 -9.580791e+001 -9.628145e-002 -9.578529e+001 -2.245571e+001 -1.556811e+002
1299646125 -2.247106e+001 1.394228e+002 -9.738394e-002 -9.706137e+001 -9.228192e-002 -9.703777e+001 -2.241423e+001 -1.568447e+002
1316520750 -2.242123e+001 1.379076e+002 -9.735650e-002 -9.831868e+001 -9.360909e-002 -9.828626e+001 -2.230656e+001 -1.583768e+002
1333395375 -2.232368e+001 1.368995e+002 -9.015554e-002 -9.953823e+001 -9.369458e-002 -9.955419e+001 -2.227888e+001 -1.598340e+002
1350270000 -2.230164e+001 1.352257e+002 -9.777272e-002 -1.008387e+002 -9.130983e-002 -1.008086e+002 -2.219264e+001 -1.608568e+002
1367144625 -2.221848e+001 1.337822e+002 -9.737358e-002 -1.020898e+002 -9.368180e-002 -1.020877e+002 -2.203556e+001 -1.623505e+002
1384019250 -2.205886e+001 1.325030e+002 -9.683409e-002 -1.033689e+002 -9.443048e-002 -1.033324e+002 -2.201716e+001 -1.631850e+002
1400893875 -2.208466e+001 1.307152e+002 -9.970742e-002 -1.046140e+002 -9.390874e-002 -1.046078e+002 -2.192319e+001 -1.643637e+002
1417768500 -2.201340e+001 1.295906e+002 -9.413781e-002 -1.058471e+002 -9.161349e-002 -1.058324e+002 -2.194295e+001 -1.643798e+002
1434643125 -2.189691e+001 1.284911e+002 -9.858445e-002 -1.071177e+002 -9.869205e-002 -1.071074e+002 -2.184287e+001 -1.657002e+002
1451517750 -2.183893e+001 1.264285e+002 -9.860924e-002 -1.083562e+002 -9.974858e-002 -1.083502e+002 -2.187548e+001 -1.668131e+002
1468392375 -2.177664e+001 1.248735e+002 -9.785907e-002 -1.096307e+002 -9.498504e-002 -1.096329e+002 -2.183939e+001 -1.676583e+002
1485267000 -2.168560e+001 1.228340e+002 -9.506917e-002 -1.109031e+002 -9.453060e-002 -1.108861e+002 -2.176890e+001 -1.686363e+002
1502141625 -2.174165e+001 1.211669e+002 -1.151502e-001 -1.122003e+002 -1.071635e-001 -1.121513e+002 -2.183407e+001 -1.696724e+002
1519016250 -2.167561e+001 1.197985e+002 -1.069526e-001 -1.134049e+002 -1.024842e-001 -1.133968e+002 -2.178489e+001 -1.708535e+002
1535890875 -2.165124e+001 1.177295e+002 -9.440435e-002 -1.146267e+002 -1.025393e-001 -1.146592e+002 -2.167299e+001 -1.716270e+002
1552765500 -2.163202e+001 1.162036e+002 -1.027320e-001 -1.159084e+002 -9.864055e-002 -1.158989e+002 -2.165897e+001 -1.727293e+002
1569640125 -2.157068e+001 1.146512e+002 -1.087680e-001 -1.171619e+002 -1.028747e-001 -1.171609e+002 -2.160238e+001 -1.737986e+002
1586514750 -2.149576e+001 1.135277e+002 -1.017861e-001 -1.184287e+002 -1.057728e-001 -1.184475e+002 -2.141254e+001 -1.747372e+002
1603389375 -2.135652e+001 1.123046e+002 -1.015278e-001 -1.196985e+002 -1.030577e-001 -1.196744e+002 -2.139494e+001 -1.763923e+002
1620264000 -2.127489e+001 1.112747e+002 -1.057657e-001 -1.209783e+002 -1.058357e-001 -1.209624e+002 -2.126342e+001 -1.765723e+002
1637138625 -2.125844e+001 1.088024e+002 -1.079013e-001 -1.222065e+002 -1.078075e-001 -1.222419e+002 -2.131374e+001 -1.774344e+002
1654013250 -2.116365e+001 1.081412e+002 -1.127146e-001 -1.234681e+002 -1.031115e-001 -1.234779e+002 -2.119301e+001 -1.782583e+002
1670887875 -2.110313e+001 1.058906e+002 -1.062397e-001 -1.247268e+002 -1.080103e-001 -1.247495e+002 -2.118475e+001 -1.791400e+002
1687762500 -2.095077e+001 1.040982e+002 -1.091625e-001 -1.259867e+002 -1.083838e-001 -1.259910e+002 -2.109544e+001 -1.796580e+002
1704637125 -2.102377e+001 1.023536e+002 -1.007240e-001 -1.272392e+002 -1.056957e-001 -1.272711e+002 -2.108744e+001 1.792545e+002
1721511750 -2.092069e+001 1.002937e+002 -1.120959e-001 -1.285469e+002 -1.127052e-001 -1.285114e+002 -2.100291e+001 1.785150e+002
1738386375 -2.089942e+001 9.854816e+001 -1.105996e-001 -1.297719e+002 -1.063622e-001 -1.297959e+002 -2.095025e+001 1.775797e+002
1755261000 -2.085620e+001 9.638985e+001 -1.159802e-001 -1.310443e+002 -1.061827e-001 -1.310695e+002 -2.087705e+001 1.765776e+002
1772135625 -2.078857e+001 9.498029e+001 -1.051199e-001 -1.323020e+002 -1.143664e-001 -1.323079e+002 -2.082676e+001 1.762252e+002
1789010250 -2.069050e+001 9.314502e+001 -1.074703e-001 -1.335712e+002 -1.099976e-001 -1.335600e+002 -2.071748e+001 1.754445e+002
1805884875 -2.059853e+001 9.149660e+001 -1.175699e-001 -1.348261e+002 -1.136794e-001 -1.348417e+002 -2.061226e+001 1.748545e+002
1822759500 -2.051508e+001 9.016103e+001 -1.117861e-001 -1.360698e+002 -1.134765e-001 -1.361311e+002 -2.045078e+001 1.738129e+002
1839634125 -2.044322e+001 8.892902e+001 -1.167359e-001 -1.373597e+002 -1.134831e-001 -1.373875e+002 -2.039520e+001 1.732266e+002
1856508750 -2.028634e+001 8.716451e+001 -1.148915e-001 -1.386385e+002 -1.103622e-001 -1.386342e+002 -2.030905e+001 1.726685e+002
1873383375 -2.017960e+001 8.568093e+001 -1.190011e-001 -1.399103e+002 -1.117740e-001 -1.398954e+002 -2.023513e+001 1.722270e+002
1890258000 -2.006013e+001 8.369061e+001 -1.140104e-001 -1.411390e+002 -1.157534e-001 -1.411687e+002 -2.016667e+001 1.717263e+002
1907132625 -1.998640e+001 8.140642e+001 -1.256769e-001 -1.424121e+002 -1.188262e-001 -1.424177e+002 -2.007113e+001 1.710467e+002
1924007250 -1.990247e+001 7.944361e+001 -1.150079e-001 -1.436888e+002 -1.171200e-001 -1.436875e+002 -1.994573e+001 1.703308e+002
1940881875 -1.979790e+001 7.783167e+001 -1.198556e-001 -1.449589e+002 -1.189245e-001 -1.449336e+002 -1.979752e+001 1.699977e+002
1957756500 -1.970502e+001 7.587369e+001 -1.157278e-001 -1.462260e+002 -1.184866e-001 -1.462201e+002 -1.973512e+001 1.689994e+002
1974631125 -1.960721e+001 7.395510e+001 -1.185215e-001 -1.474727e+002 -1.183710e-001 -1.474934e+002 -1.960074e+001 1.685874e+002
1991505750 -1.954697e+001 7.270093e+001 -1.266720e-001 -1.487379e+002 -1.270252e-001 -1.487327e+002 -1.945953e+001 1.679217e+002
2008380375 -1.942269e+001 7.093613e+001 -1.263560e-001 -1.499756e+002 -1.238569e-001 -1.500292e+002 -1.938883e+001 1.672402e+002
2025255000 -1.930058e+001 6.984472e+001 -1.263048e-001 -1.512844e+002 -1.227069e-001 -1.512921e+002 -1.925536e+001 1.667779e+002
2042129625 -1.912981e+001 6.779372e+001 -1.229398e-001 -1.525345e+002 -1.298359e-001 -1.525273e+002 -1.907963e+001 1.664205e+002
2059004250 -1.900179e+001 6.677834e+001 -1.305019e-001 -1.538029e+002 -1.322909e-001 -1.538034e+002 -1.898436e+001 1.657062e+002
2075878875 -1.893420e+001 6.487422e+001 -1.319751e-001 -1.550969e+002 -1.381897e-001 -1.550879e+002 -1.886752e+001 1.649881e+002
2092753500 -1.873887e+001 6.286044e+001 -1.332358e-001 -1.563612e+002 -1.353589e-001 -1.563565e+002 -1.880671e+001 1.645552e+002
2109628125 -1.862748e+001 6.071357e+001 -1.381164e-001 -1.576052e+002 -1.343436e-001 -1.576191e+002 -1.870033e+001 1.637959e+002
2126502750 -1.849232e+001 5.871874e+001 -1.353569e-001 -1.588702e+002 -1.358086e-001 -1.588746e+002 -1.858941e+001 1.630938e+002
2143377375 -1.839873e+001 5.683266e+001 -1.399130e-001 -1.601344e+002 -1.310543e-001 -1.601391e+002 -1.843258e+001 1.625915e+002
2160252000 -1.826398e+001 5.507343e+001 -1.453995e-001 -1.613966e+002 -1.438027e-001 -1.613895e+002 -1.826182e+001 1.619597e+002
2177126625 -1.811530e+001 5.366384e+001 -1.538677e-001 -1.626529e+002 -1.468117e-001 -1.626817e+002 -1.811907e+001 1.611740e+002
2194001250 -1.807946e+001 5.218068e+001 -1.430237e-001 -1.639321e+002 -1.486171e-001 -1.639643e+002 -1.795585e+001 1.600439e+002
2210875875 -1.792078e+001 5.045270e+001 -1.326769e-001 -1.652249e+002 -1.438082e-001 -1.652171e+002 -1.783369e+001 1.594307e+002
2227750500 -1.776201e+001 4.916957e+001 -1.421896e-001 -1.664917e+002 -1.524409e-001 -1.664894e+002 -1.774236e+001 1.589359e+002
2244625125 -1.766041e+001 4.719358e+001 -1.562092e-001 -1.677503e+002 -1.564698e-001 -1.677275e+002 -1.758426e+001 1.584950e+002
2261499750 -1.748667e+001 4.583353e+001 -1.632741e-001 -1.690116e+002 -1.546755e-001 -1.689957e+002 -1.750768e+001 1.575811e+002
2278374375 -1.735740e+001 4.400175e+001 -1.617364e-001 -1.702707e+002 -1.641115e-001 -1.702845e+002 -1.732837e+001 1.567987e+002
2295249000 -1.721451e+001 4.230029e+001 -1.610162e-001 -1.715539e+002 -1.649103e-001 -1.715123e+002 -1.719671e+001 1.560719e+002
2312123625 -1.710017e+001 4.061605e+001 -1.650399e-001 -1.727805e+002 -1.683543e-001 -1.727789e+002 -1.708313e+001 1.550135e+002
2328998250 -1.695136e+001 3.859983e+001 -1.657216e-001 -1.740814e+002 -1.786873e-001 -1.740580e+002 -1.693928e+001 1.545285e+002
2345872875 -1.681849e+001 3.676724e+001 -1.742850e-001 -1.753244e+002 -1.691591e-001 -1.753130e+002 -1.684326e+001 1.532693e+002
2362747500 -1.670091e+001 3.535334e+001 -1.642870e-001 -1.765754e+002 -1.747297e-001 -1.765797e+002 -1.670158e+001 1.525747e+002
2379622125 -1.653066e+001 3.341894e+001 -1.751029e-001 -1.778221e+002 -1.757385e-001 -1.778492e+002 -1.653485e+001 1.518869e+002
2396496750 -1.641543e+001 3.192838e+001 -1.834500e-001 -1.791007e+002 -1.867743e-001 -1.790827e+002 -1.637107e+001 1.512659e+002
2413371375 -1.635726e+001 3.032343e+001 -1.864425e-001 1.796441e+002 -1.887329e-001 1.796300e+002 -1.623890e+001 1.501767e+002
2430246000 -1.623074e+001 2.890400e+001 -1.856986e-001 1.783499e+002 -1.875566e-001 1.783721e+002 -1.610417e+001 1.493636e+002
2447120625 -1.610279e+001 2.737416e+001 -1.853517e-001 1.770979e+002 -1.969590e-001 1.771030e+002 -1.598072e+001 1.485592e+002
2463995250 -1.597548e+001 2.588882e+001 -1.959134e-001 1.758385e+002 -1.968551e-001 1.758302e+002 -1.586559e+001 1.479209e+002
2480869875 -1.583196e+001 2.442705e+001 -1.961435e-001 1.745950e+002 -1.995264e-001 1.746045e+002 -1.577272e+001 1.467005e+002
2497744500 -1.570982e+001 2.269365e+001 -1.986188e-001 1.733248e+002 -2.004486e-001 1.733515e+002 -1.566266e+001 1.458913e+002
2514619125 -1.555101e+001 2.115123e+001 -2.074071e-001 1.720802e+002 -2.114049e-001 1.720809e+002 -1.549639e+001 1.449463e+002
2531493750 -1.546124e+001 1.958850e+001 -2.125141e-001 1.708426e+002 -2.109279e-001 1.708151e+002 -1.540562e+001 1.436905e+002
2548368375 -1.532794e+001 1.782798e+001 -2.119351e-001 1.695692e+002 -2.155378e-001 1.695647e+002 -1.524825e+001 1.431357e+002
