!Agilent Technologies,N5230C,MY48100320,A.08.04.10
!Agilent N5230C: A.08.04.10
!Date: Thursday, September 15, 2016 22:09:13
!Correction: S11(Full 2 Port(1,2)) 
!S21(Full 2 Port(1,2)) 
!S12(Full 2 Port(1,2)) 
!S22(Full 2 Port(1,2)) 
!S2P File: Measurements: S11, S21, S12, S22:
# Hz S  dB   R 50
300000 -2.668217e+001 7.855195e+001 -7.250968e-002 -2.884372e+000 -6.944738e-002 -2.874462e+000 -2.518015e+001 7.717343e+001
17174625 -7.467466e+001 -1.428155e+002 -2.162938e-003 -1.520221e+000 -2.783765e-003 -1.540636e+000 -5.833272e+001 4.440413e+001
34049250 -4.862642e+001 -8.009453e+001 -1.277100e-002 -2.774473e+000 -1.393662e-002 -2.786647e+000 -5.059476e+001 -7.152554e+001
50923875 -4.494245e+001 -7.659833e+001 -2.079892e-002 -4.138369e+000 -2.003136e-002 -4.096907e+000 -4.473242e+001 -7.502509e+001
67798500 -4.183441e+001 -8.092928e+001 -2.180082e-002 -5.455243e+000 -2.327730e-002 -5.454608e+000 -4.210865e+001 -8.371290e+001
84673125 -3.967299e+001 -8.514267e+001 -2.981179e-002 -6.800607e+000 -2.756785e-002 -6.798048e+000 -3.997174e+001 -8.368880e+001
101547750 -3.762241e+001 -9.138184e+001 -3.006206e-002 -8.155969e+000 -3.193534e-002 -8.148379e+000 -3.822477e+001 -8.564832e+001
118422375 -3.651420e+001 -9.279488e+001 -3.078141e-002 -9.481979e+000 -3.459129e-002 -9.512232e+000 -3.645479e+001 -8.638570e+001
135297000 -3.527619e+001 -9.629321e+001 -3.391258e-002 -1.080608e+001 -3.951080e-002 -1.080299e+001 -3.489635e+001 -8.730225e+001
152171625 -3.381286e+001 -9.821029e+001 -3.276869e-002 -1.213850e+001 -3.810721e-002 -1.209785e+001 -3.393866e+001 -9.125921e+001
169046250 -3.321003e+001 -9.942874e+001 -3.401604e-002 -1.342909e+001 -3.631625e-002 -1.346153e+001 -3.301025e+001 -9.014815e+001
185920875 -3.256713e+001 -1.029700e+002 -3.750377e-002 -1.476380e+001 -4.103968e-002 -1.477585e+001 -3.208771e+001 -9.207382e+001
202795500 -3.167844e+001 -1.065838e+002 -4.102998e-002 -1.612791e+001 -4.340219e-002 -1.609090e+001 -3.131579e+001 -9.107756e+001
219670125 -3.099898e+001 -1.097631e+002 -4.480140e-002 -1.743828e+001 -4.230529e-002 -1.741425e+001 -3.057329e+001 -9.379884e+001
236544750 -3.022794e+001 -1.109571e+002 -4.210019e-002 -1.875568e+001 -4.653148e-002 -1.877542e+001 -3.004717e+001 -9.544826e+001
253419375 -2.956964e+001 -1.133464e+002 -4.791262e-002 -2.010248e+001 -4.735529e-002 -2.008137e+001 -2.951252e+001 -9.648609e+001
270294000 -2.883931e+001 -1.166833e+002 -5.037743e-002 -2.142478e+001 -4.670644e-002 -2.140781e+001 -2.897404e+001 -9.783858e+001
287168625 -2.844097e+001 -1.191160e+002 -5.051719e-002 -2.274784e+001 -5.095771e-002 -2.274165e+001 -2.839458e+001 -9.908028e+001
304043250 -2.792001e+001 -1.214964e+002 -5.122669e-002 -2.405845e+001 -5.221882e-002 -2.404749e+001 -2.788352e+001 -1.012151e+002
320917875 -2.754683e+001 -1.233749e+002 -5.399163e-002 -2.538958e+001 -5.058833e-002 -2.538574e+001 -2.720020e+001 -1.021486e+002
337792500 -2.713011e+001 -1.251824e+002 -5.475891e-002 -2.672875e+001 -6.061360e-002 -2.671997e+001 -2.681211e+001 -1.025862e+002
354667125 -2.667870e+001 -1.273508e+002 -5.589714e-002 -2.804023e+001 -5.354031e-002 -2.805245e+001 -2.645073e+001 -1.040074e+002
371541750 -2.641665e+001 -1.297976e+002 -5.622729e-002 -2.936126e+001 -5.876451e-002 -2.935168e+001 -2.603374e+001 -1.039437e+002
388416375 -2.595045e+001 -1.314935e+002 -6.310887e-002 -3.067917e+001 -6.262388e-002 -3.067648e+001 -2.570167e+001 -1.048777e+002
405291000 -2.560106e+001 -1.338647e+002 -5.962349e-002 -3.199608e+001 -6.307562e-002 -3.201559e+001 -2.534579e+001 -1.056175e+002
422165625 -2.518265e+001 -1.357039e+002 -6.772255e-002 -3.332648e+001 -6.427366e-002 -3.331076e+001 -2.509853e+001 -1.071886e+002
439040250 -2.494167e+001 -1.378734e+002 -6.381485e-002 -3.465557e+001 -7.032153e-002 -3.464906e+001 -2.464980e+001 -1.083281e+002
455914875 -2.452869e+001 -1.401726e+002 -6.728175e-002 -3.597687e+001 -6.705771e-002 -3.596473e+001 -2.417048e+001 -1.096641e+002
472789500 -2.404240e+001 -1.413437e+002 -6.490587e-002 -3.731142e+001 -7.140659e-002 -3.732178e+001 -2.387607e+001 -1.109348e+002
489664125 -2.365126e+001 -1.437747e+002 -7.381482e-002 -3.863624e+001 -7.264929e-002 -3.864555e+001 -2.354942e+001 -1.120650e+002
506538750 -2.331548e+001 -1.457445e+002 -7.246434e-002 -3.995422e+001 -7.405236e-002 -3.994735e+001 -2.305391e+001 -1.132278e+002
523413375 -2.294116e+001 -1.476817e+002 -7.753024e-002 -4.128742e+001 -7.784946e-002 -4.125861e+001 -2.268330e+001 -1.142241e+002
540288000 -2.266194e+001 -1.496436e+002 -7.562764e-002 -4.259122e+001 -8.050864e-002 -4.258289e+001 -2.238037e+001 -1.147107e+002
557162625 -2.247801e+001 -1.515797e+002 -8.316673e-002 -4.393436e+001 -8.192011e-002 -4.391714e+001 -2.207918e+001 -1.153411e+002
574037250 -2.224587e+001 -1.539273e+002 -8.458824e-002 -4.524326e+001 -8.585405e-002 -4.520868e+001 -2.182709e+001 -1.165349e+002
590911875 -2.194182e+001 -1.555225e+002 -8.885336e-002 -4.655366e+001 -8.510225e-002 -4.654417e+001 -2.156664e+001 -1.170896e+002
607786500 -2.175786e+001 -1.575120e+002 -8.782585e-002 -4.787738e+001 -8.865846e-002 -4.788221e+001 -2.144070e+001 -1.175282e+002
624661125 -2.155625e+001 -1.592268e+002 -8.812413e-002 -4.918838e+001 -9.058911e-002 -4.917792e+001 -2.128740e+001 -1.184705e+002
641535750 -2.135104e+001 -1.613317e+002 -9.401978e-002 -5.050564e+001 -9.057599e-002 -5.049578e+001 -2.110727e+001 -1.194958e+002
658410375 -2.121079e+001 -1.631919e+002 -8.990678e-002 -5.184871e+001 -9.092743e-002 -5.183510e+001 -2.096710e+001 -1.204285e+002
675285000 -2.099055e+001 -1.651210e+002 -9.229143e-002 -5.316073e+001 -9.680221e-002 -5.313632e+001 -2.069529e+001 -1.216762e+002
692159625 -2.077759e+001 -1.668150e+002 -9.723901e-002 -5.450563e+001 -9.574626e-002 -5.446413e+001 -2.045684e+001 -1.228182e+002
709034250 -2.058914e+001 -1.685995e+002 -1.048585e-001 -5.587117e+001 -1.038997e-001 -5.582891e+001 -2.021504e+001 -1.242065e+002
725908875 -2.048641e+001 -1.704665e+002 -1.056224e-001 -5.716798e+001 -1.018674e-001 -5.714749e+001 -2.002103e+001 -1.251264e+002
742783500 -2.020998e+001 -1.719533e+002 -1.099438e-001 -5.847303e+001 -1.114681e-001 -5.848452e+001 -1.981050e+001 -1.263641e+002
759658125 -2.001275e+001 -1.731796e+002 -1.166642e-001 -5.981216e+001 -1.078700e-001 -5.980306e+001 -1.961304e+001 -1.270406e+002
776532750 -1.984351e+001 -1.750650e+002 -1.139532e-001 -6.111016e+001 -1.149136e-001 -6.111537e+001 -1.943150e+001 -1.278491e+002
793407375 -1.969017e+001 -1.765793e+002 -1.203438e-001 -6.242798e+001 -1.179252e-001 -6.245818e+001 -1.928023e+001 -1.287178e+002
810282000 -1.958951e+001 -1.780847e+002 -1.200305e-001 -6.376704e+001 -1.218941e-001 -6.375096e+001 -1.911835e+001 -1.296142e+002
827156625 -1.935941e+001 -1.799757e+002 -1.182101e-001 -6.505952e+001 -1.190909e-001 -6.507018e+001 -1.900843e+001 -1.306710e+002
844031250 -1.926320e+001 1.782075e+002 -1.252145e-001 -6.636946e+001 -1.239566e-001 -6.635719e+001 -1.890583e+001 -1.316774e+002
860905875 -1.908058e+001 1.770978e+002 -1.282350e-001 -6.771304e+001 -1.285037e-001 -6.765239e+001 -1.874234e+001 -1.326550e+002
877780500 -1.897229e+001 1.749979e+002 -1.305945e-001 -6.901248e+001 -1.304028e-001 -6.901973e+001 -1.861866e+001 -1.339957e+002
894655125 -1.881126e+001 1.734848e+002 -1.311313e-001 -7.031002e+001 -1.334236e-001 -7.033534e+001 -1.847517e+001 -1.351523e+002
911529750 -1.864248e+001 1.721048e+002 -1.317430e-001 -7.166381e+001 -1.314424e-001 -7.167799e+001 -1.832474e+001 -1.362563e+002
928404375 -1.852698e+001 1.704079e+002 -1.369162e-001 -7.297746e+001 -1.371877e-001 -7.297336e+001 -1.810439e+001 -1.372483e+002
945279000 -1.830655e+001 1.688044e+002 -1.334727e-001 -7.427529e+001 -1.362674e-001 -7.428708e+001 -1.796790e+001 -1.386231e+002
962153625 -1.818480e+001 1.670892e+002 -1.379016e-001 -7.559165e+001 -1.425131e-001 -7.559564e+001 -1.783344e+001 -1.394545e+002
979028250 -1.806649e+001 1.657267e+002 -1.425617e-001 -7.690614e+001 -1.432563e-001 -7.689720e+001 -1.767911e+001 -1.403329e+002
995902875 -1.792223e+001 1.640483e+002 -1.463852e-001 -7.820404e+001 -1.493323e-001 -7.824109e+001 -1.755363e+001 -1.416600e+002
1012777500 -1.774721e+001 1.624108e+002 -1.412141e-001 -7.957169e+001 -1.470853e-001 -7.953610e+001 -1.747687e+001 -1.424307e+002
1029652125 -1.765188e+001 1.607779e+002 -1.482548e-001 -8.088622e+001 -1.487437e-001 -8.086562e+001 -1.739114e+001 -1.433118e+002
1046526750 -1.753860e+001 1.591362e+002 -1.442760e-001 -8.216485e+001 -1.499653e-001 -8.216048e+001 -1.734822e+001 -1.441637e+002
1063401375 -1.742624e+001 1.571046e+002 -1.533568e-001 -8.349222e+001 -1.550103e-001 -8.349026e+001 -1.728360e+001 -1.452075e+002
1080276000 -1.732242e+001 1.550651e+002 -1.517658e-001 -8.481206e+001 -1.530588e-001 -8.479111e+001 -1.717323e+001 -1.465821e+002
1097150625 -1.721327e+001 1.538008e+002 -1.538541e-001 -8.609599e+001 -1.539660e-001 -8.610461e+001 -1.706495e+001 -1.475867e+002
1114025250 -1.713762e+001 1.520387e+002 -1.527476e-001 -8.743729e+001 -1.642583e-001 -8.742715e+001 -1.699945e+001 -1.486012e+002
1130899875 -1.701746e+001 1.503991e+002 -1.572132e-001 -8.876430e+001 -1.602473e-001 -8.875930e+001 -1.685980e+001 -1.498605e+002
1147774500 -1.692280e+001 1.488594e+002 -1.639296e-001 -9.006735e+001 -1.618796e-001 -9.005808e+001 -1.675899e+001 -1.509984e+002
1164649125 -1.680966e+001 1.473668e+002 -1.664181e-001 -9.140272e+001 -1.636924e-001 -9.138930e+001 -1.667477e+001 -1.519070e+002
1181523750 -1.671771e+001 1.458236e+002 -1.668832e-001 -9.269871e+001 -1.650772e-001 -9.271335e+001 -1.661301e+001 -1.527207e+002
1198398375 -1.661266e+001 1.443455e+002 -1.688683e-001 -9.404074e+001 -1.721630e-001 -9.400152e+001 -1.651040e+001 -1.537833e+002
1215273000 -1.652334e+001 1.428509e+002 -1.781900e-001 -9.535764e+001 -1.697991e-001 -9.534122e+001 -1.637906e+001 -1.548301e+002
1232147625 -1.642574e+001 1.412354e+002 -1.744255e-001 -9.664484e+001 -1.732157e-001 -9.664731e+001 -1.630403e+001 -1.556260e+002
1249022250 -1.632207e+001 1.395060e+002 -1.749714e-001 -9.796635e+001 -1.750483e-001 -9.794424e+001 -1.626419e+001 -1.568207e+002
1265896875 -1.622260e+001 1.376720e+002 -1.824519e-001 -9.926443e+001 -1.792330e-001 -9.927967e+001 -1.622215e+001 -1.577757e+002
1282771500 -1.611889e+001 1.359165e+002 -1.826817e-001 -1.005966e+002 -1.835973e-001 -1.005788e+002 -1.611449e+001 -1.587245e+002
1299646125 -1.605990e+001 1.340950e+002 -1.858115e-001 -1.019346e+002 -1.811566e-001 -1.018951e+002 -1.604791e+001 -1.597773e+002
1316520750 -1.597632e+001 1.325063e+002 -1.873844e-001 -1.032236e+002 -1.824804e-001 -1.032080e+002 -1.596505e+001 -1.609695e+002
1333395375 -1.588038e+001 1.309771e+002 -1.869767e-001 -1.045207e+002 -1.871390e-001 -1.045358e+002 -1.589762e+001 -1.620764e+002
1350270000 -1.582073e+001 1.292713e+002 -1.888986e-001 -1.058518e+002 -1.872580e-001 -1.058348e+002 -1.581265e+001 -1.630096e+002
1367144625 -1.574599e+001 1.276398e+002 -1.911347e-001 -1.071794e+002 -1.872813e-001 -1.071791e+002 -1.570310e+001 -1.642573e+002
1384019250 -1.561178e+001 1.260894e+002 -1.929880e-001 -1.085002e+002 -1.924429e-001 -1.084698e+002 -1.564276e+001 -1.650685e+002
1400893875 -1.556046e+001 1.242753e+002 -2.014284e-001 -1.097938e+002 -1.942449e-001 -1.097888e+002 -1.555402e+001 -1.661568e+002
1417768500 -1.548923e+001 1.227246e+002 -2.004852e-001 -1.111230e+002 -1.934267e-001 -1.111100e+002 -1.550587e+001 -1.666338e+002
1434643125 -1.539910e+001 1.212449e+002 -2.006788e-001 -1.124458e+002 -2.012042e-001 -1.124137e+002 -1.541291e+001 -1.677968e+002
1451517750 -1.533215e+001 1.192476e+002 -2.079836e-001 -1.137268e+002 -2.042518e-001 -1.137327e+002 -1.538779e+001 -1.687218e+002
1468392375 -1.525147e+001 1.175258e+002 -2.011560e-001 -1.150583e+002 -2.003494e-001 -1.150518e+002 -1.531062e+001 -1.695351e+002
1485267000 -1.517147e+001 1.156477e+002 -2.031164e-001 -1.163624e+002 -1.996346e-001 -1.163771e+002 -1.523072e+001 -1.704797e+002
1502141625 -1.515944e+001 1.138610e+002 -2.258219e-001 -1.177399e+002 -2.133273e-001 -1.176999e+002 -1.522152e+001 -1.714254e+002
1519016250 -1.508319e+001 1.122069e+002 -2.209260e-001 -1.189954e+002 -2.085082e-001 -1.189908e+002 -1.514738e+001 -1.723492e+002
1535890875 -1.502867e+001 1.102633e+002 -2.139442e-001 -1.202831e+002 -2.169315e-001 -1.203112e+002 -1.506402e+001 -1.732789e+002
1552765500 -1.496690e+001 1.086185e+002 -2.132272e-001 -1.216280e+002 -2.127814e-001 -1.216100e+002 -1.501143e+001 -1.741555e+002
1569640125 -1.490016e+001 1.069583e+002 -2.173909e-001 -1.229523e+002 -2.192120e-001 -1.229394e+002 -1.495924e+001 -1.751526e+002
1586514750 -1.484223e+001 1.054979e+002 -2.215453e-001 -1.242466e+002 -2.240281e-001 -1.242621e+002 -1.481695e+001 -1.761508e+002
1603389375 -1.472115e+001 1.038421e+002 -2.206873e-001 -1.255838e+002 -2.174281e-001 -1.255525e+002 -1.477324e+001 -1.773597e+002
1620264000 -1.465015e+001 1.024075e+002 -2.329130e-001 -1.269117e+002 -2.250906e-001 -1.269005e+002 -1.466094e+001 -1.779788e+002
1637138625 -1.459265e+001 1.002809e+002 -2.207757e-001 -1.282012e+002 -2.253326e-001 -1.282432e+002 -1.463353e+001 -1.787986e+002
1654013250 -1.451933e+001 9.894750e+001 -2.319695e-001 -1.295342e+002 -2.290464e-001 -1.295582e+002 -1.454437e+001 -1.797064e+002
1670887875 -1.444872e+001 9.690050e+001 -2.261808e-001 -1.308537e+002 -2.393176e-001 -1.308484e+002 -1.450062e+001 1.794681e+002
1687762500 -1.434990e+001 9.511755e+001 -2.400906e-001 -1.321792e+002 -2.326396e-001 -1.321801e+002 -1.441140e+001 1.787382e+002
1704637125 -1.433829e+001 9.337720e+001 -2.371567e-001 -1.334675e+002 -2.352469e-001 -1.335024e+002 -1.436646e+001 1.778098e+002
1721511750 -1.424595e+001 9.140813e+001 -2.355696e-001 -1.348427e+002 -2.385605e-001 -1.348184e+002 -1.428918e+001 1.769820e+002
1738386375 -1.420533e+001 8.962534e+001 -2.454337e-001 -1.361273e+002 -2.403384e-001 -1.361335e+002 -1.422394e+001 1.761283e+002
1755261000 -1.414315e+001 8.764399e+001 -2.526202e-001 -1.374460e+002 -2.411342e-001 -1.374762e+002 -1.415192e+001 1.751519e+002
1772135625 -1.407730e+001 8.603067e+001 -2.427629e-001 -1.387715e+002 -2.478278e-001 -1.387836e+002 -1.408880e+001 1.745585e+002
1789010250 -1.400693e+001 8.421348e+001 -2.454353e-001 -1.400826e+002 -2.521377e-001 -1.400956e+002 -1.400707e+001 1.736958e+002
1805884875 -1.392074e+001 8.251124e+001 -2.569273e-001 -1.414044e+002 -2.527432e-001 -1.414142e+002 -1.392134e+001 1.729180e+002
1822759500 -1.384525e+001 8.091357e+001 -2.498213e-001 -1.427109e+002 -2.531048e-001 -1.427480e+002 -1.381672e+001 1.719315e+002
1839634125 -1.378774e+001 7.931449e+001 -2.616128e-001 -1.440644e+002 -2.608154e-001 -1.440824e+002 -1.373884e+001 1.711824e+002
1856508750 -1.367842e+001 7.756433e+001 -2.670384e-001 -1.453750e+002 -2.579715e-001 -1.453980e+002 -1.365212e+001 1.704072e+002
1873383375 -1.359387e+001 7.580531e+001 -2.725634e-001 -1.467454e+002 -2.641935e-001 -1.467251e+002 -1.358087e+001 1.696931e+002
1890258000 -1.350591e+001 7.385599e+001 -2.707838e-001 -1.480289e+002 -2.715136e-001 -1.480420e+002 -1.351902e+001 1.690533e+002
1907132625 -1.343808e+001 7.185760e+001 -2.816750e-001 -1.493433e+002 -2.743841e-001 -1.493373e+002 -1.343931e+001 1.682824e+002
1924007250 -1.335203e+001 7.002553e+001 -2.753569e-001 -1.506668e+002 -2.740187e-001 -1.506847e+002 -1.334168e+001 1.674189e+002
1940881875 -1.328624e+001 6.835143e+001 -2.886735e-001 -1.519993e+002 -2.796466e-001 -1.519953e+002 -1.323526e+001 1.667891e+002
1957756500 -1.321319e+001 6.649171e+001 -2.810859e-001 -1.533145e+002 -2.887596e-001 -1.533158e+002 -1.319199e+001 1.658177e+002
1974631125 -1.312726e+001 6.461756e+001 -2.846110e-001 -1.546288e+002 -2.918288e-001 -1.546696e+002 -1.309173e+001 1.651756e+002
1991505750 -1.308127e+001 6.309647e+001 -3.058488e-001 -1.559710e+002 -2.969561e-001 -1.559559e+002 -1.298975e+001 1.643294e+002
2008380375 -1.298175e+001 6.133337e+001 -2.960294e-001 -1.572857e+002 -2.995926e-001 -1.573102e+002 -1.292684e+001 1.635707e+002
2025255000 -1.288882e+001 5.977092e+001 -2.953104e-001 -1.586274e+002 -3.056718e-001 -1.586391e+002 -1.283434e+001 1.628362e+002
2042129625 -1.279430e+001 5.785603e+001 -3.085334e-001 -1.599426e+002 -3.132900e-001 -1.599153e+002 -1.272079e+001 1.621474e+002
2059004250 -1.269938e+001 5.637954e+001 -3.209744e-001 -1.612851e+002 -3.131496e-001 -1.612680e+002 -1.264409e+001 1.613053e+002
2075878875 -1.263265e+001 5.459627e+001 -3.118007e-001 -1.626034e+002 -3.209285e-001 -1.626108e+002 -1.255735e+001 1.605034e+002
2092753500 -1.250356e+001 5.266285e+001 -3.217332e-001 -1.639403e+002 -3.253742e-001 -1.639398e+002 -1.249453e+001 1.598387e+002
2109628125 -1.244012e+001 5.069119e+001 -3.324753e-001 -1.652260e+002 -3.344327e-001 -1.652571e+002 -1.242035e+001 1.590095e+002
2126502750 -1.234457e+001 4.880209e+001 -3.372385e-001 -1.665425e+002 -3.317888e-001 -1.665517e+002 -1.233871e+001 1.582137e+002
2143377375 -1.226890e+001 4.699296e+001 -3.384225e-001 -1.678655e+002 -3.385194e-001 -1.678641e+002 -1.223875e+001 1.574885e+002
2160252000 -1.219447e+001 4.523034e+001 -3.540935e-001 -1.691887e+002 -3.546951e-001 -1.691843e+002 -1.213761e+001 1.566521e+002
2177126625 -1.209355e+001 4.357063e+001 -3.678834e-001 -1.705152e+002 -3.580710e-001 -1.705134e+002 -1.203844e+001 1.557993e+002
2194001250 -1.203188e+001 4.197533e+001 -3.476917e-001 -1.718262e+002 -3.584285e-001 -1.718553e+002 -1.193777e+001 1.547180e+002
2210875875 -1.193401e+001 4.022950e+001 -3.521577e-001 -1.731585e+002 -3.591105e-001 -1.731391e+002 -1.185299e+001 1.539707e+002
2227750500 -1.184218e+001 3.865371e+001 -3.657209e-001 -1.744751e+002 -3.700323e-001 -1.744859e+002 -1.178234e+001 1.532228e+002
2244625125 -1.176813e+001 3.678467e+001 -3.777899e-001 -1.757972e+002 -3.780089e-001 -1.757696e+002 -1.168564e+001 1.525296e+002
2261499750 -1.166399e+001 3.516548e+001 -3.888770e-001 -1.771333e+002 -3.853404e-001 -1.770737e+002 -1.163072e+001 1.516732e+002
2278374375 -1.157931e+001 3.338322e+001 -3.968884e-001 -1.784193e+002 -3.926983e-001 -1.784002e+002 -1.151315e+001 1.507438e+002
2295249000 -1.148914e+001 3.164624e+001 -3.998213e-001 -1.797388e+002 -4.066496e-001 -1.796985e+002 -1.143748e+001 1.498867e+002
2312123625 -1.141278e+001 2.989681e+001 -4.059754e-001 1.789573e+002 -4.097500e-001 1.789726e+002 -1.135774e+001 1.489737e+002
2328998250 -1.131676e+001 2.801388e+001 -4.117796e-001 1.776558e+002 -4.183615e-001 1.776457e+002 -1.126188e+001 1.481916e+002
2345872875 -1.122965e+001 2.623127e+001 -4.204617e-001 1.763502e+002 -4.150503e-001 1.763458e+002 -1.119396e+001 1.471363e+002
2362747500 -1.115654e+001 2.460920e+001 -4.151677e-001 1.750436e+002 -4.222381e-001 1.750421e+002 -1.110234e+001 1.463504e+002
2379622125 -1.105924e+001 2.278144e+001 -4.339872e-001 1.737805e+002 -4.263622e-001 1.737173e+002 -1.100664e+001 1.454786e+002
2396496750 -1.098983e+001 2.114875e+001 -4.500226e-001 1.724292e+002 -4.486436e-001 1.724255e+002 -1.091207e+001 1.446810e+002
2413371375 -1.093760e+001 1.947897e+001 -4.552070e-001 1.711429e+002 -4.517488e-001 1.711328e+002 -1.082866e+001 1.437095e+002
2430246000 -1.085513e+001 1.789906e+001 -4.588091e-001 1.698203e+002 -4.618767e-001 1.698042e+002 -1.074647e+001 1.427917e+002
2447120625 -1.077460e+001 1.625586e+001 -4.608522e-001 1.685249e+002 -4.682986e-001 1.684994e+002 -1.066330e+001 1.418721e+002
2463995250 -1.069487e+001 1.463009e+001 -4.762233e-001 1.672095e+002 -4.738440e-001 1.672176e+002 -1.059242e+001 1.411395e+002
2480869875 -1.060715e+001 1.299545e+001 -4.801883e-001 1.659070e+002 -4.787152e-001 1.659357e+002 -1.052291e+001 1.400351e+002
2497744500 -1.054713e+001 1.125970e+001 -4.925480e-001 1.646088e+002 -4.949373e-001 1.646135e+002 -1.046642e+001 1.391390e+002
2514619125 -1.045075e+001 9.637532e+000 -5.016443e-001 1.633174e+002 -5.123750e-001 1.633136e+002 -1.037216e+001 1.381382e+002
2531493750 -1.038318e+001 7.949113e+000 -5.067281e-001 1.620524e+002 -5.156187e-001 1.620191e+002 -1.031413e+001 1.370975e+002
2548368375 -1.030851e+001 6.241194e+000 -5.119139e-001 1.607274e+002 -5.217177e-001 1.607559e+002 -1.020331e+001 1.362998e+002
