!Agilent Technologies,N5230C,MY48100320,A.08.04.10
!Agilent N5230C: A.08.04.10
!Date: Tuesday, August 23, 2016 04:13:50
!Correction: S11(Full 2 Port(1,2)) 
!S21(Full 2 Port(1,2)) 
!S12(Full 2 Port(1,2)) 
!S22(Full 2 Port(1,2)) 
!S2P File: Measurements: S11, S21, S12, S22:
# Hz S  dB   R 50
1350270000 -4.104492e+000 8.571632e+001 -5.357327e+000 1.739917e+002 -5.368283e+000 1.739638e+002 -4.024810e+000 5.678852e+001
1411018650 -4.020229e+000 7.944216e+001 -5.538631e+000 1.667076e+002 -5.552885e+000 1.667058e+002 -3.942343e+000 4.948779e+001
1471767300 -3.949362e+000 7.314236e+001 -5.709458e+000 1.595348e+002 -5.724799e+000 1.595313e+002 -3.853059e+000 4.242641e+001
1532515950 -3.889920e+000 6.673876e+001 -5.896143e+000 1.521770e+002 -5.898825e+000 1.521725e+002 -3.793046e+000 3.537730e+001
1593264600 -3.819805e+000 6.061393e+001 -6.053497e+000 1.451793e+002 -6.066851e+000 1.451862e+002 -3.738990e+000 2.845399e+001
1654013250 -3.773265e+000 5.424088e+001 -6.218794e+000 1.380297e+002 -6.232664e+000 1.380273e+002 -3.684725e+000 2.152724e+001
1714761900 -3.713835e+000 4.795934e+001 -6.374678e+000 1.309971e+002 -6.384114e+000 1.309998e+002 -3.628604e+000 1.475487e+001
1775510550 -3.654403e+000 4.172162e+001 -6.542564e+000 1.238689e+002 -6.547997e+000 1.238667e+002 -3.604684e+000 7.889613e+000
1836259200 -3.618331e+000 3.555116e+001 -6.703173e+000 1.169975e+002 -6.716112e+000 1.169979e+002 -3.578015e+000 1.102876e+000
1897007850 -3.575351e+000 2.933457e+001 -6.858244e+000 1.098977e+002 -6.864747e+000 1.099066e+002 -3.543952e+000 -5.688846e+000
1957756500 -3.521877e+000 2.330464e+001 -7.003636e+000 1.030472e+002 -7.014335e+000 1.030698e+002 -3.527607e+000 -1.241390e+001
2018505150 -3.481333e+000 1.734830e+001 -7.162263e+000 9.612354e+001 -7.166485e+000 9.612583e+001 -3.520048e+000 -1.930946e+001
2079253800 -3.442805e+000 1.142823e+001 -7.291115e+000 8.932813e+001 -7.294616e+000 8.932420e+001 -3.484866e+000 -2.610182e+001
2140002450 -3.400839e+000 5.598939e+000 -7.439836e+000 8.245116e+001 -7.456218e+000 8.244631e+001 -3.479722e+000 -3.287796e+001
2200751100 -3.358521e+000 -7.664867e-002 -7.574199e+000 7.567560e+001 -7.583647e+000 7.567101e+001 -3.474296e+000 -3.984021e+001
2261499750 -3.333148e+000 -5.615605e+000 -7.713550e+000 6.890901e+001 -7.718065e+000 6.890513e+001 -3.451736e+000 -4.679180e+001
2322248400 -3.310019e+000 -1.116391e+001 -7.842382e+000 6.220193e+001 -7.847428e+000 6.218036e+001 -3.446692e+000 -5.370213e+001
2382997050 -3.276173e+000 -1.651250e+001 -7.975166e+000 5.541811e+001 -7.974240e+000 5.540176e+001 -3.452274e+000 -6.073359e+001
2443745700 -3.256114e+000 -2.178344e+001 -8.091834e+000 4.882130e+001 -8.100651e+000 4.879503e+001 -3.454980e+000 -6.782682e+001
2504494350 -3.231766e+000 -2.696583e+001 -8.205889e+000 4.211509e+001 -8.222546e+000 4.211150e+001 -3.450566e+000 -7.486391e+001
2565243000 -3.223899e+000 -3.211204e+001 -8.319056e+000 3.546771e+001 -8.326802e+000 3.545668e+001 -3.458482e+000 -8.193627e+001
2625991650 -3.205307e+000 -3.715495e+001 -8.434956e+000 2.884481e+001 -8.441721e+000 2.885741e+001 -3.469671e+000 -8.911179e+001
2686740300 -3.204100e+000 -4.216687e+001 -8.520729e+000 2.218634e+001 -8.532922e+000 2.217713e+001 -3.469113e+000 -9.632572e+001
2747488950 -3.200781e+000 -4.715506e+001 -8.623715e+000 1.553457e+001 -8.631006e+000 1.553970e+001 -3.464816e+000 -1.034225e+002
2808237600 -3.205239e+000 -5.218472e+001 -8.723969e+000 8.936588e+000 -8.741521e+000 8.934481e+000 -3.497955e+000 -1.106090e+002
2868986250 -3.212713e+000 -5.710459e+001 -8.812774e+000 2.348446e+000 -8.832431e+000 2.336468e+000 -3.492007e+000 -1.178249e+002
2929734900 -3.226274e+000 -6.216090e+001 -8.894899e+000 -4.295167e+000 -8.910394e+000 -4.296071e+000 -3.484679e+000 -1.248737e+002
2990483550 -3.254243e+000 -6.720797e+001 -9.001917e+000 -1.092791e+001 -9.007285e+000 -1.093650e+001 -3.516826e+000 -1.319889e+002
3051232200 -3.275093e+000 -7.234030e+001 -9.064502e+000 -1.754731e+001 -9.077318e+000 -1.755061e+001 -3.510132e+000 -1.391475e+002
3111980850 -3.299781e+000 -7.753741e+001 -9.147075e+000 -2.420938e+001 -9.153645e+000 -2.419467e+001 -3.482046e+000 -1.460145e+002
3172729500 -3.328739e+000 -8.286179e+001 -9.215660e+000 -3.083582e+001 -9.235159e+000 -3.084144e+001 -3.512304e+000 -1.528884e+002
3233478150 -3.361600e+000 -8.821982e+001 -9.290433e+000 -3.746045e+001 -9.300877e+000 -3.746991e+001 -3.498633e+000 -1.598056e+002
3294226800 -3.392087e+000 -9.366294e+001 -9.359487e+000 -4.413714e+001 -9.364699e+000 -4.415413e+001 -3.476121e+000 -1.665446e+002
3354975450 -3.433608e+000 -9.932171e+001 -9.452663e+000 -5.089317e+001 -9.438737e+000 -5.090353e+001 -3.480367e+000 -1.731558e+002
3415724100 -3.446771e+000 -1.050331e+002 -9.491985e+000 -5.747848e+001 -9.510700e+000 -5.748448e+001 -3.491850e+000 -1.798616e+002
3476472750 -3.469126e+000 -1.108720e+002 -9.578465e+000 -6.420419e+001 -9.584684e+000 -6.420584e+001 -3.463270e+000 1.736645e+002
3537221400 -3.497204e+000 -1.168513e+002 -9.655774e+000 -7.094091e+001 -9.672262e+000 -7.095319e+001 -3.482741e+000 1.672643e+002
3597970050 -3.522543e+000 -1.229452e+002 -9.739214e+000 -7.762427e+001 -9.731587e+000 -7.764190e+001 -3.470919e+000 1.608880e+002
3658718700 -3.517030e+000 -1.289552e+002 -9.798115e+000 -8.431704e+001 -9.813791e+000 -8.432076e+001 -3.478150e+000 1.545685e+002
3719467350 -3.536199e+000 -1.350250e+002 -9.883688e+000 -9.104928e+001 -9.887052e+000 -9.105674e+001 -3.475837e+000 1.483504e+002
3780216000 -3.534366e+000 -1.412587e+002 -9.949158e+000 -9.773537e+001 -9.957415e+000 -9.772348e+001 -3.480573e+000 1.421500e+002
3840964650 -3.529713e+000 -1.473918e+002 -1.004282e+001 -1.044123e+002 -1.004082e+001 -1.044036e+002 -3.485780e+000 1.359532e+002
3901713300 -3.522918e+000 -1.534169e+002 -1.010187e+001 -1.110927e+002 -1.011136e+001 -1.110757e+002 -3.496748e+000 1.297189e+002
3962461950 -3.509822e+000 -1.595324e+002 -1.019840e+001 -1.177297e+002 -1.020085e+001 -1.177322e+002 -3.513998e+000 1.236348e+002
4023210600 -3.487169e+000 -1.654371e+002 -1.025651e+001 -1.243943e+002 -1.028343e+001 -1.243753e+002 -3.537282e+000 1.173623e+002
4083959250 -3.476394e+000 -1.712578e+002 -1.034665e+001 -1.309322e+002 -1.034039e+001 -1.309366e+002 -3.530169e+000 1.110564e+002
4144707900 -3.440832e+000 -1.770194e+002 -1.042680e+001 -1.376257e+002 -1.043336e+001 -1.376238e+002 -3.558674e+000 1.048093e+002
4205456550 -3.406900e+000 1.773971e+002 -1.048933e+001 -1.441627e+002 -1.050331e+001 -1.441442e+002 -3.579773e+000 9.848169e+001
4266205200 -3.394673e+000 1.719425e+002 -1.056177e+001 -1.506775e+002 -1.058163e+001 -1.506393e+002 -3.610636e+000 9.207399e+001
4326953850 -3.375932e+000 1.666338e+002 -1.064582e+001 -1.572751e+002 -1.066107e+001 -1.572589e+002 -3.620966e+000 8.562830e+001
4387702500 -3.350712e+000 1.614077e+002 -1.068515e+001 -1.637374e+002 -1.071406e+001 -1.637128e+002 -3.645704e+000 7.924809e+001
4448451150 -3.351685e+000 1.560734e+002 -1.076325e+001 -1.702780e+002 -1.077507e+001 -1.702805e+002 -3.674347e+000 7.260279e+001
4509199800 -3.323611e+000 1.510234e+002 -1.082463e+001 -1.769295e+002 -1.083640e+001 -1.769187e+002 -3.682044e+000 6.595124e+001
4569948450 -3.332053e+000 1.460172e+002 -1.089284e+001 1.766552e+002 -1.089037e+001 1.766599e+002 -3.713409e+000 5.944257e+001
4630697100 -3.331812e+000 1.410009e+002 -1.093517e+001 1.700968e+002 -1.096018e+001 1.701135e+002 -3.755197e+000 5.258646e+001
4691445750 -3.311798e+000 1.361442e+002 -1.100354e+001 1.634886e+002 -1.100547e+001 1.634994e+002 -3.750152e+000 4.572815e+001
4752194400 -3.321048e+000 1.314193e+002 -1.103786e+001 1.570160e+002 -1.105974e+001 1.570271e+002 -3.779129e+000 3.900474e+001
4812943050 -3.340582e+000 1.265374e+002 -1.108709e+001 1.504437e+002 -1.110181e+001 1.504713e+002 -3.811058e+000 3.204443e+001
4873691700 -3.359958e+000 1.218875e+002 -1.113258e+001 1.438615e+002 -1.116643e+001 1.438659e+002 -3.809566e+000 2.500159e+001
4934440350 -3.393162e+000 1.170174e+002 -1.118822e+001 1.373175e+002 -1.118294e+001 1.373360e+002 -3.805157e+000 1.829521e+001
4995189000 -3.425654e+000 1.121343e+002 -1.122192e+001 1.307094e+002 -1.124429e+001 1.307227e+002 -3.845540e+000 1.136051e+001
5055937650 -3.468589e+000 1.072453e+002 -1.127247e+001 1.241200e+002 -1.128471e+001 1.241640e+002 -3.813666e+000 4.445011e+000
5116686300 -3.517027e+000 1.021354e+002 -1.131827e+001 1.175452e+002 -1.132676e+001 1.175723e+002 -3.815411e+000 -2.194696e+000
5177434950 -3.557528e+000 9.707806e+001 -1.137764e+001 1.109326e+002 -1.137803e+001 1.109881e+002 -3.835735e+000 -8.912086e+000
5238183600 -3.609881e+000 9.196455e+001 -1.142584e+001 1.042898e+002 -1.143537e+001 1.043035e+002 -3.817098e+000 -1.563996e+001
5298932250 -3.658345e+000 8.651720e+001 -1.146023e+001 9.773038e+001 -1.147709e+001 9.778076e+001 -3.812225e+000 -2.207237e+001
5359680900 -3.698252e+000 8.133056e+001 -1.150442e+001 9.110515e+001 -1.152658e+001 9.112113e+001 -3.818989e+000 -2.856701e+001
5420429550 -3.766867e+000 7.604728e+001 -1.156639e+001 8.467765e+001 -1.158237e+001 8.472501e+001 -3.822170e+000 -3.493889e+001
5481178200 -3.822490e+000 7.048438e+001 -1.159554e+001 7.811604e+001 -1.161092e+001 7.813744e+001 -3.829943e+000 -4.125133e+001
5541926850 -3.858960e+000 6.495792e+001 -1.163607e+001 7.153875e+001 -1.165058e+001 7.158932e+001 -3.833337e+000 -4.747855e+001
5602675500 -3.919384e+000 5.935520e+001 -1.167434e+001 6.510352e+001 -1.168699e+001 6.513802e+001 -3.856509e+000 -5.358735e+001
5663424150 -3.960207e+000 5.365723e+001 -1.169416e+001 5.862541e+001 -1.169418e+001 5.867588e+001 -3.849880e+000 -5.981190e+001
5724172800 -4.005561e+000 4.794681e+001 -1.172218e+001 5.205891e+001 -1.172704e+001 5.206892e+001 -3.856424e+000 -6.588367e+001
5784921450 -4.025282e+000 4.211106e+001 -1.174088e+001 4.560247e+001 -1.176642e+001 4.566162e+001 -3.917041e+000 -7.189706e+001
5845670100 -4.058975e+000 3.641248e+001 -1.176077e+001 3.904435e+001 -1.176327e+001 3.905056e+001 -3.921448e+000 -7.817344e+001
5906418750 -4.059163e+000 3.064228e+001 -1.175557e+001 3.243298e+001 -1.176770e+001 3.247332e+001 -3.937698e+000 -8.430666e+001
5967167400 -4.094060e+000 2.485861e+001 -1.177511e+001 2.595448e+001 -1.178231e+001 2.596827e+001 -3.985039e+000 -9.038627e+001
6027916050 -4.104562e+000 1.915057e+001 -1.178482e+001 1.946547e+001 -1.179094e+001 1.951898e+001 -4.033743e+000 -9.664612e+001
6088664700 -4.104484e+000 1.352469e+001 -1.178366e+001 1.273756e+001 -1.178702e+001 1.276897e+001 -4.048861e+000 -1.029978e+002
6149413350 -4.124521e+000 7.820287e+000 -1.178309e+001 6.255123e+000 -1.179781e+001 6.306684e+000 -4.087403e+000 -1.092423e+002
6210162000 -4.118339e+000 2.199917e+000 -1.179085e+001 -4.486167e-001 -1.179048e+001 -4.149653e-001 -4.137390e+000 -1.157742e+002
6270910650 -4.104510e+000 -3.328042e+000 -1.176915e+001 -7.144554e+000 -1.177592e+001 -7.107042e+000 -4.148817e+000 -1.222422e+002
6331659300 -4.110071e+000 -8.816748e+000 -1.177741e+001 -1.369188e+001 -1.179362e+001 -1.367703e+001 -4.199227e+000 -1.286633e+002
6392407950 -4.110675e+000 -1.418197e+001 -1.177116e+001 -2.039423e+001 -1.178021e+001 -2.036229e+001 -4.240120e+000 -1.353496e+002
6453156600 -4.110156e+000 -1.959291e+001 -1.175844e+001 -2.719417e+001 -1.177175e+001 -2.717122e+001 -4.258328e+000 -1.420286e+002
6513905250 -4.118955e+000 -2.490388e+001 -1.177367e+001 -3.377407e+001 -1.179017e+001 -3.369603e+001 -4.312770e+000 -1.487264e+002
6574653900 -4.132347e+000 -3.019524e+001 -1.176029e+001 -4.059474e+001 -1.176961e+001 -4.057577e+001 -4.322821e+000 -1.555198e+002
6635402550 -4.142026e+000 -3.543457e+001 -1.175707e+001 -4.734841e+001 -1.176540e+001 -4.728022e+001 -4.357428e+000 -1.623174e+002
6696151200 -4.169648e+000 -4.060551e+001 -1.176286e+001 -5.406774e+001 -1.177601e+001 -5.405728e+001 -4.382093e+000 -1.692681e+002
6756899850 -4.196653e+000 -4.585820e+001 -1.175273e+001 -6.093132e+001 -1.176390e+001 -6.086804e+001 -4.383768e+000 -1.760429e+002
6817648500 -4.227116e+000 -5.109705e+001 -1.175918e+001 -6.768428e+001 -1.176564e+001 -6.765546e+001 -4.405051e+000 1.771558e+002
6878397150 -4.274412e+000 -5.637471e+001 -1.176583e+001 -7.452309e+001 -1.177573e+001 -7.445508e+001 -4.411442e+000 1.700990e+002
6939145800 -4.307637e+000 -6.160398e+001 -1.176288e+001 -8.133987e+001 -1.176810e+001 -8.133347e+001 -4.399679e+000 1.634341e+002
6999894450 -4.363878e+000 -6.681549e+001 -1.176842e+001 -8.810317e+001 -1.178135e+001 -8.804301e+001 -4.414773e+000 1.566624e+002
7060643100 -4.414991e+000 -7.211455e+001 -1.177023e+001 -9.500990e+001 -1.177895e+001 -9.500745e+001 -4.405931e+000 1.497220e+002
7121391750 -4.465483e+000 -7.745581e+001 -1.177689e+001 -1.017971e+002 -1.178581e+001 -1.017377e+002 -4.381717e+000 1.431915e+002
7182140400 -4.530855e+000 -8.281501e+001 -1.179168e+001 -1.085524e+002 -1.180772e+001 -1.085340e+002 -4.387656e+000 1.366200e+002
7242889050 -4.592143e+000 -8.819132e+001 -1.180787e+001 -1.154304e+002 -1.181143e+001 -1.153677e+002 -4.383896e+000 1.299616e+002
7303637700 -4.645697e+000 -9.343752e+001 -1.181184e+001 -1.221414e+002 -1.182358e+001 -1.221348e+002 -4.362474e+000 1.235760e+002
7364386350 -4.721006e+000 -9.880145e+001 -1.184381e+001 -1.289249e+002 -1.185850e+001 -1.288507e+002 -4.385516e+000 1.171762e+002
7425135000 -4.767075e+000 -1.041047e+002 -1.184500e+001 -1.356784e+002 -1.185167e+001 -1.356555e+002 -4.387773e+000 1.107393e+002
7485883650 -4.831274e+000 -1.093265e+002 -1.185511e+001 -1.423525e+002 -1.187296e+001 -1.422863e+002 -4.373983e+000 1.044865e+002
7546632300 -4.890666e+000 -1.146396e+002 -1.189092e+001 -1.489951e+002 -1.189998e+001 -1.489769e+002 -4.409524e+000 9.828711e+001
7607380950 -4.906996e+000 -1.198620e+002 -1.186841e+001 -1.556886e+002 -1.187148e+001 -1.556242e+002 -4.423034e+000 9.211290e+001
7668129600 -4.933380e+000 -1.249376e+002 -1.186720e+001 -1.622959e+002 -1.188384e+001 -1.622462e+002 -4.437378e+000 8.595690e+001
7728878250 -4.973763e+000 -1.302289e+002 -1.189391e+001 -1.690217e+002 -1.189479e+001 -1.689603e+002 -4.484288e+000 7.986783e+001
7789626900 -4.953651e+000 -1.352995e+002 -1.183725e+001 -1.756460e+002 -1.184292e+001 -1.756164e+002 -4.507870e+000 7.385828e+001
7850375550 -4.972947e+000 -1.402802e+002 -1.184479e+001 1.776815e+002 -1.185817e+001 1.777184e+002 -4.555289e+000 6.781411e+001
7911124200 -4.996547e+000 -1.453409e+002 -1.183313e+001 1.709618e+002 -1.183757e+001 1.709896e+002 -4.595826e+000 6.170390e+001
7971872850 -4.979987e+000 -1.502338e+002 -1.178145e+001 1.643444e+002 -1.178685e+001 1.644094e+002 -4.643589e+000 5.578676e+001
8032621500 -4.999035e+000 -1.550673e+002 -1.178290e+001 1.575683e+002 -1.179263e+001 1.576178e+002 -4.701852e+000 4.968135e+001
8093370150 -5.010172e+000 -1.599187e+002 -1.174423e+001 1.508459e+002 -1.174434e+001 1.508702e+002 -4.753481e+000 4.357383e+001
8154118800 -5.000330e+000 -1.645502e+002 -1.169139e+001 1.441942e+002 -1.169930e+001 1.442426e+002 -4.807173e+000 3.757465e+001
8214867450 -5.030030e+000 -1.692995e+002 -1.168881e+001 1.373341e+002 -1.169800e+001 1.373597e+002 -4.875320e+000 3.145963e+001
8275616100 -5.041345e+000 -1.739814e+002 -1.162577e+001 1.305128e+002 -1.163632e+001 1.305668e+002 -4.936908e+000 2.529673e+001
8336364750 -5.060086e+000 -1.786012e+002 -1.158269e+001 1.237796e+002 -1.158625e+001 1.238256e+002 -5.012638e+000 1.911181e+001
8397113400 -5.087012e+000 1.766221e+002 -1.155019e+001 1.166975e+002 -1.156107e+001 1.167675e+002 -5.070595e+000 1.282894e+001
8457862050 -5.111872e+000 1.719658e+002 -1.148842e+001 1.098536e+002 -1.149498e+001 1.098738e+002 -5.141144e+000 6.537234e+000
8518610700 -5.154459e+000 1.672679e+002 -1.144463e+001 1.028765e+002 -1.146388e+001 1.029432e+002 -5.210350e+000 8.894070e-002
8579359350 -5.197148e+000 1.624097e+002 -1.141766e+001 9.578889e+001 -1.142714e+001 9.584088e+001 -5.257947e+000 -6.281195e+000
8640108000 -5.231218e+000 1.576716e+002 -1.135553e+001 8.879429e+001 -1.136854e+001 8.886273e+001 -5.331357e+000 -1.262102e+001
8700856650 -5.296990e+000 1.528204e+002 -1.131629e+001 8.169740e+001 -1.132940e+001 8.173051e+001 -5.397932e+000 -1.936710e+001
8761605300 -5.353947e+000 1.477314e+002 -1.129476e+001 7.441327e+001 -1.130514e+001 7.449966e+001 -5.427081e+000 -2.594688e+001
8822353950 -5.406915e+000 1.428535e+002 -1.124934e+001 6.743336e+001 -1.126167e+001 6.747922e+001 -5.486053e+000 -3.239042e+001
8883102600 -5.501094e+000 1.377000e+002 -1.123194e+001 6.010572e+001 -1.125065e+001 6.019561e+001 -5.543334e+000 -3.926288e+001
8943851250 -5.562471e+000 1.323808e+002 -1.121570e+001 5.290464e+001 -1.121913e+001 5.293159e+001 -5.544921e+000 -4.594622e+001
9004599900 -5.639117e+000 1.271671e+002 -1.119825e+001 4.574805e+001 -1.121665e+001 4.585115e+001 -5.589194e+000 -5.241077e+001
9065348550 -5.730547e+000 1.216435e+002 -1.120533e+001 3.841123e+001 -1.120903e+001 3.841710e+001 -5.629861e+000 -5.935357e+001
9126097200 -5.771003e+000 1.161247e+002 -1.121081e+001 3.115629e+001 -1.121843e+001 3.122425e+001 -5.619581e+000 -6.602058e+001
9186845850 -5.836028e+000 1.108248e+002 -1.122592e+001 2.414608e+001 -1.123694e+001 2.416599e+001 -5.650331e+000 -7.249860e+001
9247594500 -5.894379e+000 1.051434e+002 -1.125230e+001 1.665690e+001 -1.125643e+001 1.673552e+001 -5.675037e+000 -7.933408e+001
9308343150 -5.897227e+000 9.958521e+001 -1.127103e+001 9.719732e+000 -1.127145e+001 9.748304e+000 -5.652846e+000 -8.576254e+001
9369091800 -5.922133e+000 9.413547e+001 -1.129818e+001 2.533502e+000 -1.131352e+001 2.601026e+000 -5.682900e+000 -9.210585e+001
9429840450 -5.918280e+000 8.839812e+001 -1.132446e+001 -4.853729e+000 -1.132998e+001 -4.810215e+000 -5.701029e+000 -9.884275e+001
9490589100 -5.862894e+000 8.292145e+001 -1.135604e+001 -1.175885e+001 -1.136809e+001 -1.164660e+001 -5.678859e+000 -1.051476e+002
9551337750 -5.834606e+000 7.754162e+001 -1.139146e+001 -1.890102e+001 -1.140322e+001 -1.884366e+001 -5.693456e+000 -1.113416e+002
9612086400 -5.765967e+000 7.195493e+001 -1.140484e+001 -2.622122e+001 -1.141426e+001 -2.612386e+001 -5.701540e+000 -1.177857e+002
9672835050 -5.682182e+000 6.672679e+001 -1.145958e+001 -3.296715e+001 -1.146367e+001 -3.295899e+001 -5.702391e+000 -1.240645e+002
9733583700 -5.609998e+000 6.156020e+001 -1.149027e+001 -4.021814e+001 -1.150741e+001 -4.013032e+001 -5.693123e+000 -1.303015e+002
9794332350 -5.513922e+000 5.640129e+001 -1.151531e+001 -4.734478e+001 -1.152489e+001 -4.729615e+001 -5.691393e+000 -1.366224e+002
9855081000 -5.418034e+000 5.157900e+001 -1.157946e+001 -5.408944e+001 -1.158804e+001 -5.397550e+001 -5.684691e+000 -1.428509e+002
9915829650 -5.326300e+000 4.674537e+001 -1.161206e+001 -6.125522e+001 -1.161280e+001 -6.119908e+001 -5.663873e+000 -1.491261e+002
9976578300 -5.222834e+000 4.203251e+001 -1.163662e+001 -6.824429e+001 -1.164139e+001 -6.814425e+001 -5.647322e+000 -1.553366e+002
10037326950 -5.138457e+000 3.762106e+001 -1.171018e+001 -7.491322e+001 -1.171288e+001 -7.484822e+001 -5.639107e+000 -1.615873e+002
10098075600 -5.031534e+000 3.310217e+001 -1.172113e+001 -8.204409e+001 -1.172472e+001 -8.191980e+001 -5.587895e+000 -1.678860e+002
10158824250 -4.941994e+000 2.903534e+001 -1.174904e+001 -8.875463e+001 -1.175369e+001 -8.868845e+001 -5.557379e+000 -1.740166e+002
10219572900 -4.881068e+000 2.492537e+001 -1.180068e+001 -9.549454e+001 -1.180449e+001 -9.539062e+001 -5.533848e+000 1.796861e+002
10280321550 -4.797265e+000 2.061573e+001 -1.179104e+001 -1.025801e+002 -1.179351e+001 -1.025542e+002 -5.465385e+000 1.732032e+002
10341070200 -4.733815e+000 1.671844e+001 -1.181990e+001 -1.093000e+002 -1.182788e+001 -1.092000e+002 -5.420197e+000 1.670644e+002
10401818850 -4.694737e+000 1.277117e+001 -1.184890e+001 -1.160926e+002 -1.185462e+001 -1.160532e+002 -5.370474e+000 1.607110e+002
10462567500 -4.652570e+000 8.451749e+000 -1.181441e+001 -1.231730e+002 -1.181572e+001 -1.230696e+002 -5.281941e+000 1.543540e+002
10523316150 -4.624833e+000 4.351867e+000 -1.185150e+001 -1.299313e+002 -1.185777e+001 -1.298650e+002 -5.230639e+000 1.481003e+002
