!Agilent Technologies,N5230C,MY48100320,A.08.04.10
!Agilent N5230C: A.08.04.10
!Date: Tuesday, August 23, 2016 04:19:49
!Correction: S11(Full 2 Port(1,2)) 
!S21(Full 2 Port(1,2)) 
!S12(Full 2 Port(1,2)) 
!S22(Full 2 Port(1,2)) 
!S2P File: Measurements: S11, S21, S12, S22:
# Hz S  dB   R 50
1350270000 -1.632931e+001 1.274196e+002 -2.048062e-001 -1.468770e+002 -2.146340e-001 -1.468864e+002 -1.613639e+001 1.181014e+002
1411018650 -1.595543e+001 1.210368e+002 -2.156195e-001 -1.534793e+002 -2.256630e-001 -1.534748e+002 -1.581263e+001 1.110515e+002
1471767300 -1.556776e+001 1.145615e+002 -2.255090e-001 -1.600417e+002 -2.387702e-001 -1.600388e+002 -1.547626e+001 1.047056e+002
1532515950 -1.532289e+001 1.078003e+002 -2.457598e-001 -1.666910e+002 -2.538163e-001 -1.666819e+002 -1.520952e+001 9.873362e+001
1593264600 -1.492557e+001 1.012023e+002 -2.475229e-001 -1.732224e+002 -2.643196e-001 -1.732097e+002 -1.484746e+001 9.240215e+001
1654013250 -1.461178e+001 9.389648e+001 -2.664150e-001 -1.798008e+002 -2.801324e-001 -1.797920e+002 -1.460054e+001 8.654334e+001
1714761900 -1.426126e+001 8.653642e+001 -2.741032e-001 1.736376e+002 -2.774188e-001 1.736457e+002 -1.418420e+001 8.092863e+001
1775510550 -1.398095e+001 7.942423e+001 -2.925010e-001 1.670347e+002 -2.971742e-001 1.670516e+002 -1.392989e+001 7.529211e+001
1836259200 -1.354452e+001 7.229839e+001 -3.007210e-001 1.604862e+002 -3.130020e-001 1.605013e+002 -1.357931e+001 6.979944e+001
1897007850 -1.333133e+001 6.450063e+001 -3.212687e-001 1.538923e+002 -3.304107e-001 1.539177e+002 -1.331203e+001 6.432937e+001
1957756500 -1.296046e+001 5.741307e+001 -3.308932e-001 1.473609e+002 -3.407431e-001 1.473869e+002 -1.295432e+001 5.905091e+001
2018505150 -1.267519e+001 4.996121e+001 -3.504803e-001 1.407920e+002 -3.619180e-001 1.407973e+002 -1.269945e+001 5.352944e+001
2079253800 -1.235998e+001 4.274911e+001 -3.670851e-001 1.342706e+002 -3.738451e-001 1.342798e+002 -1.238342e+001 4.779914e+001
2140002450 -1.208282e+001 3.533393e+001 -3.829704e-001 1.277213e+002 -4.004854e-001 1.277301e+002 -1.208374e+001 4.239108e+001
2200751100 -1.179114e+001 2.834868e+001 -3.947254e-001 1.211892e+002 -4.019130e-001 1.212042e+002 -1.178692e+001 3.679245e+001
2261499750 -1.156697e+001 2.124936e+001 -4.335822e-001 1.146955e+002 -4.366575e-001 1.147063e+002 -1.153817e+001 3.069281e+001
2322248400 -1.128618e+001 1.443876e+001 -4.423613e-001 1.081923e+002 -4.540456e-001 1.082043e+002 -1.125716e+001 2.465108e+001
2382997050 -1.109935e+001 7.505827e+000 -4.607347e-001 1.016993e+002 -4.784918e-001 1.017137e+002 -1.103788e+001 1.870136e+001
2443745700 -1.083226e+001 1.332424e+000 -4.889981e-001 9.525171e+001 -4.958238e-001 9.525816e+001 -1.081266e+001 1.217335e+001
2504494350 -1.066272e+001 -5.160338e+000 -5.098075e-001 8.878837e+001 -5.194754e-001 8.879710e+001 -1.061928e+001 5.375767e+000
2565243000 -1.050082e+001 -1.125784e+001 -5.278823e-001 8.236352e+001 -5.381647e-001 8.237630e+001 -1.041472e+001 -1.064963e+000
2625991650 -1.032900e+001 -1.721597e+001 -5.522582e-001 7.591328e+001 -5.608551e-001 7.594169e+001 -1.029797e+001 -8.021306e+000
2686740300 -1.022212e+001 -2.296601e+001 -5.499833e-001 6.953470e+001 -5.639765e-001 6.954277e+001 -1.017415e+001 -1.515562e+001
2747488950 -1.016295e+001 -2.895881e+001 -5.758773e-001 6.312215e+001 -5.862335e-001 6.314265e+001 -1.004057e+001 -2.233332e+001
2808237600 -1.003996e+001 -3.428504e+001 -5.890610e-001 5.668751e+001 -6.068032e-001 5.670305e+001 -9.967013e+000 -2.930239e+001
2868986250 -9.987825e+000 -3.993856e+001 -6.005005e-001 5.029899e+001 -6.155448e-001 5.031882e+001 -9.902878e+000 -3.701551e+001
2929734900 -9.922557e+000 -4.525308e+001 -5.969803e-001 4.388042e+001 -6.119043e-001 4.390131e+001 -9.800487e+000 -4.434388e+001
2990483550 -9.921790e+000 -5.057686e+001 -6.249284e-001 3.745122e+001 -6.391727e-001 3.746179e+001 -9.808920e+000 -5.160422e+001
3051232200 -9.874436e+000 -5.577566e+001 -6.234460e-001 3.104298e+001 -6.313481e-001 3.104700e+001 -9.787761e+000 -5.928307e+001
3111980850 -9.856401e+000 -6.127671e+001 -6.388732e-001 2.459181e+001 -6.448196e-001 2.461296e+001 -9.735949e+000 -6.690571e+001
3172729500 -9.799075e+000 -6.642471e+001 -6.321374e-001 1.812043e+001 -6.484852e-001 1.814540e+001 -9.731542e+000 -7.393546e+001
3233478150 -9.779541e+000 -7.221090e+001 -6.444547e-001 1.175690e+001 -6.563017e-001 1.177197e+001 -9.735709e+000 -8.125378e+001
3294226800 -9.727382e+000 -7.771508e+001 -6.460176e-001 5.341197e+000 -6.490424e-001 5.373029e+000 -9.704666e+000 -8.865965e+001
3354975450 -9.725804e+000 -8.367998e+001 -6.586178e-001 -1.120491e+000 -6.737114e-001 -1.106902e+000 -9.704944e+000 -9.544135e+001
3415724100 -9.645156e+000 -8.963928e+001 -6.502124e-001 -7.492461e+000 -6.777724e-001 -7.474327e+000 -9.763826e+000 -1.026502e+002
3476472750 -9.604961e+000 -9.612264e+001 -6.794301e-001 -1.397110e+001 -6.769461e-001 -1.395351e+001 -9.729515e+000 -1.096012e+002
3537221400 -9.565027e+000 -1.025464e+002 -6.686765e-001 -2.043164e+001 -6.761499e-001 -2.042393e+001 -9.682714e+000 -1.160097e+002
3597970050 -9.505955e+000 -1.098161e+002 -6.788477e-001 -2.692318e+001 -6.753437e-001 -2.690287e+001 -9.660822e+000 -1.223507e+002
3658718700 -9.418040e+000 -1.166168e+002 -6.689643e-001 -3.339758e+001 -6.786942e-001 -3.335656e+001 -9.628968e+000 -1.287038e+002
3719467350 -9.384118e+000 -1.241063e+002 -6.758729e-001 -3.988619e+001 -6.822554e-001 -3.986863e+001 -9.546402e+000 -1.347224e+002
3780216000 -9.263261e+000 -1.313680e+002 -6.706374e-001 -4.642722e+001 -6.977982e-001 -4.639032e+001 -9.487990e+000 -1.403612e+002
3840964650 -9.146623e+000 -1.388404e+002 -6.951290e-001 -5.300588e+001 -7.053255e-001 -5.297494e+001 -9.394651e+000 -1.459724e+002
3901713300 -9.049218e+000 -1.466042e+002 -6.984845e-001 -5.944117e+001 -7.067561e-001 -5.941055e+001 -9.254329e+000 -1.516609e+002
3962461950 -8.901724e+000 -1.541589e+002 -7.265623e-001 -6.607143e+001 -7.450483e-001 -6.602283e+001 -9.133064e+000 -1.569042e+002
4023210600 -8.763935e+000 -1.616702e+002 -7.252212e-001 -7.252090e+001 -7.453798e-001 -7.247952e+001 -8.970842e+000 -1.622488e+002
4083959250 -8.598654e+000 -1.695668e+002 -7.772651e-001 -7.899818e+001 -7.759309e-001 -7.895632e+001 -8.825394e+000 -1.678353e+002
4144707900 -8.440698e+000 -1.764727e+002 -7.810770e-001 -8.552009e+001 -7.919922e-001 -8.550208e+001 -8.639607e+000 -1.732708e+002
4205456550 -8.267608e+000 1.760293e+002 -8.234718e-001 -9.200377e+001 -8.317067e-001 -9.194456e+001 -8.475535e+000 -1.789230e+002
4266205200 -8.109349e+000 1.688497e+002 -8.451672e-001 -9.830823e+001 -8.524903e-001 -9.828387e+001 -8.310452e+000 1.755074e+002
4326953850 -7.984860e+000 1.619967e+002 -8.817596e-001 -1.047650e+002 -8.982646e-001 -1.047161e+002 -8.167599e+000 1.695136e+002
4387702500 -7.852823e+000 1.552136e+002 -8.917683e-001 -1.110511e+002 -9.150873e-001 -1.110265e+002 -7.997999e+000 1.637150e+002
4448451150 -7.736131e+000 1.482708e+002 -9.389149e-001 -1.174413e+002 -9.437684e-001 -1.173889e+002 -7.900609e+000 1.578539e+002
4509199800 -7.669001e+000 1.420665e+002 -9.434091e-001 -1.237698e+002 -9.643674e-001 -1.237456e+002 -7.783902e+000 1.514537e+002
4569948450 -7.575418e+000 1.354338e+002 -9.766326e-001 -1.300514e+002 -9.985655e-001 -1.300005e+002 -7.687126e+000 1.451828e+002
4630697100 -7.514445e+000 1.292606e+002 -9.733303e-001 -1.362816e+002 -1.011082e+000 -1.362498e+002 -7.622234e+000 1.387755e+002
4691445750 -7.499104e+000 1.232676e+002 -1.015306e+000 -1.426240e+002 -1.009700e+000 -1.425977e+002 -7.551904e+000 1.319080e+002
4752194400 -7.486782e+000 1.174611e+002 -1.007578e+000 -1.488007e+002 -1.022845e+000 -1.487826e+002 -7.475253e+000 1.251654e+002
4812943050 -7.493370e+000 1.115961e+002 -1.022565e+000 -1.551232e+002 -1.034745e+000 -1.550710e+002 -7.498286e+000 1.184344e+002
4873691700 -7.573969e+000 1.062299e+002 -1.001190e+000 -1.613667e+002 -1.019353e+000 -1.613402e+002 -7.487534e+000 1.109693e+002
4934440350 -7.601762e+000 1.004781e+002 -1.007001e+000 -1.676676e+002 -9.995761e-001 -1.676064e+002 -7.490498e+000 1.039608e+002
4995189000 -7.694926e+000 9.512439e+001 -9.887952e-001 -1.739820e+002 -1.002121e+000 -1.739663e+002 -7.539371e+000 9.668686e+001
5055937650 -7.803136e+000 8.947729e+001 -9.906325e-001 1.796687e+002 -9.974355e-001 1.797245e+002 -7.604424e+000 8.908992e+001
5116686300 -7.874836e+000 8.392598e+001 -9.762028e-001 1.733784e+002 -9.731305e-001 1.733906e+002 -7.582856e+000 8.176062e+001
5177434950 -7.966139e+000 7.856602e+001 -9.526216e-001 1.668734e+002 -9.651028e-001 1.669372e+002 -7.685363e+000 7.424500e+001
5238183600 -8.089512e+000 7.307278e+001 -9.324843e-001 1.605381e+002 -9.538730e-001 1.605653e+002 -7.716791e+000 6.686556e+001
5298932250 -8.124736e+000 6.693356e+001 -9.261521e-001 1.539955e+002 -9.427956e-001 1.540658e+002 -7.781684e+000 5.944791e+001
5359680900 -8.280466e+000 6.159590e+001 -8.839335e-001 1.475930e+002 -9.112718e-001 1.476013e+002 -7.820498e+000 5.214582e+001
5420429550 -8.354602e+000 5.555378e+001 -9.078859e-001 1.411556e+002 -9.120705e-001 1.412274e+002 -7.908071e+000 4.481837e+001
5481178200 -8.452168e+000 4.934842e+001 -8.671263e-001 1.346928e+002 -8.881705e-001 1.346900e+002 -7.996502e+000 3.787375e+001
5541926850 -8.572083e+000 4.306292e+001 -8.666761e-001 1.281565e+002 -8.710821e-001 1.282209e+002 -8.056329e+000 3.100260e+001
5602675500 -8.604686e+000 3.652494e+001 -8.568684e-001 1.216937e+002 -8.591002e-001 1.217199e+002 -8.116879e+000 2.447569e+001
5663424150 -8.673965e+000 2.977281e+001 -8.353590e-001 1.151248e+002 -8.545077e-001 1.151959e+002 -8.245128e+000 1.779416e+001
5724172800 -8.749374e+000 2.272903e+001 -8.310617e-001 1.087282e+002 -8.318569e-001 1.087305e+002 -8.212956e+000 1.166152e+001
5784921450 -8.722576e+000 1.556485e+001 -8.381195e-001 1.020665e+002 -8.395745e-001 1.021390e+002 -8.360013e+000 5.716597e+000
5845670100 -8.765609e+000 8.510359e+000 -8.058443e-001 9.564896e+001 -8.156620e-001 9.565226e+001 -8.383494e+000 -3.381628e-001
5906418750 -8.760794e+000 9.435524e-001 -8.005456e-001 8.899798e+001 -8.075877e-001 8.906599e+001 -8.432165e+000 -5.917595e+000
5967167400 -8.740196e+000 -6.387351e+000 -8.022949e-001 8.250014e+001 -8.190063e-001 8.250192e+001 -8.466441e+000 -1.131521e+001
6027916050 -8.687683e+000 -1.378415e+001 -8.090436e-001 7.596710e+001 -8.181412e-001 7.605787e+001 -8.521838e+000 -1.698550e+001
6088664700 -8.687307e+000 -2.135642e+001 -8.077239e-001 6.947057e+001 -8.081179e-001 6.947314e+001 -8.520151e+000 -2.242397e+001
6149413350 -8.632789e+000 -2.860350e+001 -8.016897e-001 6.285335e+001 -8.165703e-001 6.295814e+001 -8.563341e+000 -2.781301e+001
6210162000 -8.584302e+000 -3.572852e+001 -8.174835e-001 5.642206e+001 -8.148693e-001 5.642683e+001 -8.538592e+000 -3.341892e+001
6270910650 -8.551020e+000 -4.317929e+001 -8.063743e-001 4.986269e+001 -8.147165e-001 4.996877e+001 -8.603344e+000 -3.877900e+001
6331659300 -8.464538e+000 -4.952298e+001 -8.144005e-001 4.343057e+001 -8.309681e-001 4.344151e+001 -8.558962e+000 -4.465012e+001
6392407950 -8.451329e+000 -5.658175e+001 -8.220741e-001 3.692769e+001 -8.295411e-001 3.703609e+001 -8.600894e+000 -5.066013e+001
6453156600 -8.432973e+000 -6.324171e+001 -8.260294e-001 3.054758e+001 -8.389574e-001 3.055448e+001 -8.591619e+000 -5.630470e+001
6513905250 -8.423072e+000 -6.930149e+001 -8.241763e-001 2.402669e+001 -8.393254e-001 2.412850e+001 -8.689951e+000 -6.295106e+001
6574653900 -8.457489e+000 -7.579627e+001 -8.235210e-001 1.769025e+001 -8.400003e-001 1.769365e+001 -8.650999e+000 -6.934366e+001
6635402550 -8.485434e+000 -8.191961e+001 -8.226333e-001 1.114041e+001 -8.335762e-001 1.127508e+001 -8.792071e+000 -7.561054e+001
6696151200 -8.549099e+000 -8.764560e+001 -8.107626e-001 4.792551e+000 -8.276741e-001 4.802463e+000 -8.855556e+000 -8.288081e+001
6756899850 -8.676867e+000 -9.375828e+001 -8.077745e-001 -1.692907e+000 -8.152983e-001 -1.604025e+000 -8.946628e+000 -8.959875e+001
6817648500 -8.699339e+000 -9.937328e+001 -7.992706e-001 -8.088087e+000 -8.145188e-001 -8.080832e+000 -9.031019e+000 -9.648196e+001
6878397150 -8.880383e+000 -1.050106e+002 -7.870140e-001 -1.461700e+001 -8.016574e-001 -1.451573e+001 -9.188259e+000 -1.041383e+002
6939145800 -8.958601e+000 -1.105251e+002 -7.766796e-001 -2.101167e+001 -7.853598e-001 -2.100643e+001 -9.249249e+000 -1.114061e+002
6999894450 -9.114666e+000 -1.161993e+002 -7.547411e-001 -2.755608e+001 -7.670137e-001 -2.743012e+001 -9.475460e+000 -1.189322e+002
7060643100 -9.293341e+000 -1.215736e+002 -7.356592e-001 -3.397822e+001 -7.465183e-001 -3.396757e+001 -9.584697e+000 -1.265325e+002
7121391750 -9.411758e+000 -1.272352e+002 -7.306097e-001 -4.057769e+001 -7.380263e-001 -4.046057e+001 -9.771967e+000 -1.341602e+002
7182140400 -9.545923e+000 -1.326764e+002 -7.084334e-001 -4.701374e+001 -7.297932e-001 -4.699584e+001 -9.858829e+000 -1.418621e+002
7242889050 -9.754270e+000 -1.382926e+002 -6.999882e-001 -5.356123e+001 -7.058121e-001 -5.344398e+001 -1.000652e+001 -1.494757e+002
7303637700 -9.849030e+000 -1.442230e+002 -6.801865e-001 -6.005106e+001 -6.963665e-001 -6.003199e+001 -1.020164e+001 -1.571854e+002
7364386350 -1.011028e+001 -1.496431e+002 -6.657526e-001 -6.664256e+001 -6.780207e-001 -6.650853e+001 -1.031442e+001 -1.646139e+002
7425135000 -1.021509e+001 -1.557322e+002 -6.510207e-001 -7.312477e+001 -6.584424e-001 -7.308611e+001 -1.042872e+001 -1.720852e+002
7485883650 -1.039589e+001 -1.622215e+002 -6.337617e-001 -7.977366e+001 -6.531060e-001 -7.961595e+001 -1.069124e+001 -1.793474e+002
7546632300 -1.053215e+001 -1.678089e+002 -6.266404e-001 -8.615316e+001 -6.388215e-001 -8.613239e+001 -1.066027e+001 1.731394e+002
7607380950 -1.069014e+001 -1.747357e+002 -6.157614e-001 -9.278925e+001 -6.204031e-001 -9.266418e+001 -1.086538e+001 1.663895e+002
7668129600 -1.077975e+001 1.787164e+002 -5.933462e-001 -9.930436e+001 -6.157516e-001 -9.928858e+001 -1.106296e+001 1.594621e+002
7728878250 -1.101371e+001 1.724340e+002 -5.974223e-001 -1.058617e+002 -6.017283e-001 -1.057508e+002 -1.104829e+001 1.525819e+002
7789626900 -1.103552e+001 1.648766e+002 -5.810838e-001 -1.124304e+002 -5.923802e-001 -1.123819e+002 -1.122516e+001 1.465407e+002
7850375550 -1.122311e+001 1.582274e+002 -5.733098e-001 -1.190708e+002 -5.860771e-001 -1.189364e+002 -1.143143e+001 1.403905e+002
7911124200 -1.133992e+001 1.510238e+002 -5.642300e-001 -1.255029e+002 -5.716515e-001 -1.254489e+002 -1.140477e+001 1.336559e+002
7971872850 -1.144300e+001 1.432949e+002 -5.564356e-001 -1.321073e+002 -5.632179e-001 -1.320078e+002 -1.167851e+001 1.285667e+002
8032621500 -1.154123e+001 1.363478e+002 -5.462174e-001 -1.386182e+002 -5.627211e-001 -1.385951e+002 -1.175807e+001 1.221658e+002
8093370150 -1.178203e+001 1.287515e+002 -5.426480e-001 -1.451842e+002 -5.465824e-001 -1.450908e+002 -1.184399e+001 1.168694e+002
8154118800 -1.179005e+001 1.210191e+002 -5.334585e-001 -1.517209e+002 -5.475852e-001 -1.516688e+002 -1.205610e+001 1.112630e+002
8214867450 -1.207215e+001 1.140524e+002 -5.279999e-001 -1.583255e+002 -5.369362e-001 -1.582236e+002 -1.220832e+001 1.054655e+002
8275616100 -1.225708e+001 1.058314e+002 -5.146194e-001 -1.648159e+002 -5.287260e-001 -1.647665e+002 -1.228445e+001 1.000365e+002
8336364750 -1.247416e+001 9.822787e+001 -5.108911e-001 -1.714161e+002 -5.186026e-001 -1.713051e+002 -1.260657e+001 9.541424e+001
8397113400 -1.275935e+001 9.068378e+001 -4.956379e-001 -1.779087e+002 -5.151265e-001 -1.778598e+002 -1.272014e+001 8.929031e+001
8457862050 -1.313115e+001 8.255531e+001 -4.946621e-001 1.754968e+002 -5.022075e-001 1.755940e+002 -1.290306e+001 8.463012e+001
8518610700 -1.336064e+001 7.484152e+001 -4.725673e-001 1.689824e+002 -4.943652e-001 1.690392e+002 -1.324607e+001 7.892421e+001
8579359350 -1.392860e+001 6.726676e+001 -4.711515e-001 1.623642e+002 -4.760658e-001 1.624934e+002 -1.340754e+001 7.356949e+001
8640108000 -1.425071e+001 5.899945e+001 -4.582067e-001 1.558270e+002 -4.771074e-001 1.559021e+002 -1.374070e+001 6.794087e+001
8700856650 -1.489737e+001 5.068344e+001 -4.482145e-001 1.492359e+002 -4.585057e-001 1.493494e+002 -1.419187e+001 6.391226e+001
8761605300 -1.551866e+001 4.326019e+001 -4.398774e-001 1.426447e+002 -4.504930e-001 1.427231e+002 -1.444224e+001 5.701550e+001
8822353950 -1.622540e+001 3.466826e+001 -4.329263e-001 1.360252e+002 -4.446487e-001 1.361427e+002 -1.495008e+001 5.283157e+001
8883102600 -1.698564e+001 2.601416e+001 -4.135394e-001 1.294423e+002 -4.322866e-001 1.295145e+002 -1.550114e+001 4.780142e+001
8943851250 -1.812689e+001 1.797727e+001 -4.190314e-001 1.227969e+002 -4.241589e-001 1.228736e+002 -1.581785e+001 4.218546e+001
9004599900 -1.873102e+001 9.692832e+000 -4.156541e-001 1.161374e+002 -4.350962e-001 1.162463e+002 -1.655177e+001 3.707882e+001
9065348550 -2.032457e+001 2.114940e-002 -4.164774e-001 1.094698e+002 -4.218643e-001 1.095406e+002 -1.699649e+001 3.363818e+001
9126097200 -2.159360e+001 -6.995524e+000 -4.112269e-001 1.028028e+002 -4.208395e-001 1.029094e+002 -1.775515e+001 2.602051e+001
9186845850 -2.311444e+001 -1.538194e+001 -4.181173e-001 9.617199e+001 -4.305530e-001 9.625461e+001 -1.848841e+001 2.373622e+001
9247594500 -2.539280e+001 -2.547382e+001 -4.241884e-001 8.948289e+001 -4.346206e-001 8.957829e+001 -1.913990e+001 1.856460e+001
9308343150 -2.828803e+001 -2.832625e+001 -4.407219e-001 8.285374e+001 -4.451943e-001 8.292758e+001 -2.002872e+001 1.429601e+001
9369091800 -3.080025e+001 -3.559773e+001 -4.554779e-001 7.616392e+001 -4.726906e-001 7.626553e+001 -2.096524e+001 1.137550e+001
9429840450 -4.247846e+001 -3.731305e+001 -4.834417e-001 6.946431e+001 -4.871853e-001 6.955005e+001 -2.138602e+001 9.424859e+000
9490589100 -4.075049e+001 3.783833e+001 -5.039823e-001 6.280737e+001 -5.178233e-001 6.291895e+001 -2.311893e+001 6.067171e+000
9551337750 -3.353029e+001 8.477856e+001 -5.329914e-001 5.621772e+001 -5.492791e-001 5.629559e+001 -2.360513e+001 6.347272e+000
9612086400 -2.979733e+001 8.446724e+001 -5.685956e-001 4.964714e+001 -5.848315e-001 4.974335e+001 -2.441359e+001 7.833652e+000
9672835050 -2.636499e+001 7.017921e+001 -6.171343e-001 4.309650e+001 -6.272994e-001 4.315051e+001 -2.559919e+001 1.269196e+001
9733583700 -2.444836e+001 6.448285e+001 -6.553856e-001 3.658935e+001 -6.728582e-001 3.667400e+001 -2.646133e+001 1.762701e+001
9794332350 -2.271043e+001 5.701421e+001 -7.076163e-001 3.011578e+001 -7.166387e-001 3.016953e+001 -2.615510e+001 2.151904e+001
9855081000 -2.164487e+001 4.231463e+001 -7.569345e-001 2.371485e+001 -7.715735e-001 2.379196e+001 -2.639920e+001 3.582674e+001
9915829650 -2.046599e+001 3.563325e+001 -8.036963e-001 1.741370e+001 -8.145118e-001 1.746806e+001 -2.563086e+001 3.572709e+001
9976578300 -2.013690e+001 2.471167e+001 -8.493456e-001 1.118096e+001 -8.590295e-001 1.121746e+001 -2.474642e+001 4.171704e+001
10037326950 -1.938829e+001 1.345816e+001 -8.860075e-001 4.975513e+000 -8.935844e-001 5.034592e+000 -2.365150e+001 4.632299e+001
10098075600 -1.953001e+001 5.627188e+000 -9.093501e-001 -1.169410e+000 -9.171019e-001 -1.103626e+000 -2.281669e+001 4.600055e+001
10158824250 -1.964013e+001 -2.505526e+000 -9.207818e-001 -7.256315e+000 -9.312357e-001 -7.204361e+000 -2.168156e+001 4.506671e+001
10219572900 -2.015442e+001 -1.307043e+001 -9.165054e-001 -1.333887e+001 -9.257645e-001 -1.330283e+001 -2.041942e+001 4.556311e+001
10280321550 -2.116937e+001 -1.528588e+001 -8.981320e-001 -1.949572e+001 -9.055791e-001 -1.946382e+001 -1.989952e+001 4.105128e+001
10341070200 -2.255015e+001 -2.075463e+001 -8.691099e-001 -2.571008e+001 -8.834393e-001 -2.563461e+001 -1.869097e+001 4.045980e+001
10401818850 -2.399736e+001 -1.941042e+001 -8.279006e-001 -3.198276e+001 -8.364207e-001 -3.190565e+001 -1.800175e+001 3.657251e+001
10462567500 -2.621740e+001 -4.171731e+000 -7.912892e-001 -3.837236e+001 -7.993385e-001 -3.829138e+001 -1.729604e+001 3.260502e+001
10523316150 -2.598752e+001 5.693718e+000 -7.521852e-001 -4.483730e+001 -7.622217e-001 -4.471093e+001 -1.648098e+001 2.950271e+001
10584064800 -2.508729e+001 2.500421e+001 -7.149933e-001 -5.128288e+001 -7.197065e-001 -5.114250e+001 -1.583332e+001 2.437738e+001
