!Agilent Technologies,N5230C,MY48100320,A.08.04.10
!Agilent N5230C: A.08.04.10
!Date: Tuesday, August 23, 2016 04:17:50
!Correction: S11(Full 2 Port(1,2)) 
!S21(Full 2 Port(1,2)) 
!S12(Full 2 Port(1,2)) 
!S22(Full 2 Port(1,2)) 
!S2P File: Measurements: S11, S21, S12, S22:
# Hz S  dB   R 50
1350270000 -9.536808e+000 -1.721100e+002 -1.098353e+000 -1.556233e+002 -1.110986e+000 -1.556368e+002 -9.289055e+000 2.352191e+001
1411018650 -9.201505e+000 -1.752671e+002 -1.157415e+000 -1.623649e+002 -1.168901e+000 -1.623598e+002 -8.966838e+000 1.345265e+001
1471767300 -8.891913e+000 -1.785102e+002 -1.208651e+000 -1.690290e+002 -1.225057e+000 -1.690288e+002 -8.698668e+000 3.487938e+000
1532515950 -8.611804e+000 1.783929e+002 -1.277171e+000 -1.757457e+002 -1.286554e+000 -1.757543e+002 -8.476960e+000 -6.727444e+000
1593264600 -8.356884e+000 1.750351e+002 -1.324317e+000 1.776166e+002 -1.339587e+000 1.776394e+002 -8.215469e+000 -1.643203e+001
1654013250 -8.133698e+000 1.718306e+002 -1.379178e+000 1.709919e+002 -1.382968e+000 1.709965e+002 -8.014679e+000 -2.650237e+001
1714761900 -7.932942e+000 1.684361e+002 -1.417541e+000 1.643394e+002 -1.427987e+000 1.643612e+002 -7.834700e+000 -3.628539e+001
1775510550 -7.730190e+000 1.651633e+002 -1.469379e+000 1.576947e+002 -1.476767e+000 1.576988e+002 -7.677708e+000 -4.636211e+001
1836259200 -7.558238e+000 1.616191e+002 -1.504821e+000 1.510798e+002 -1.528649e+000 1.510976e+002 -7.522478e+000 -5.620039e+001
1897007850 -7.407281e+000 1.586017e+002 -1.555341e+000 1.444441e+002 -1.563726e+000 1.444524e+002 -7.401281e+000 -6.644938e+001
1957756500 -7.275315e+000 1.551315e+002 -1.592657e+000 1.377732e+002 -1.603045e+000 1.378038e+002 -7.271578e+000 -7.644740e+001
2018505150 -7.126986e+000 1.519195e+002 -1.641675e+000 1.311150e+002 -1.646815e+000 1.311323e+002 -7.154077e+000 -8.666038e+001
2079253800 -7.016045e+000 1.486510e+002 -1.677377e+000 1.244573e+002 -1.680968e+000 1.244772e+002 -7.021649e+000 -9.683561e+001
2140002450 -6.894769e+000 1.454228e+002 -1.710326e+000 1.177802e+002 -1.723305e+000 1.177872e+002 -6.920296e+000 -1.071511e+002
2200751100 -6.764024e+000 1.421221e+002 -1.742279e+000 1.110486e+002 -1.754687e+000 1.110829e+002 -6.794894e+000 -1.173958e+002
2261499750 -6.659471e+000 1.389297e+002 -1.802479e+000 1.043451e+002 -1.809612e+000 1.043365e+002 -6.688685e+000 -1.276609e+002
2322248400 -6.550938e+000 1.356397e+002 -1.840274e+000 9.761533e+001 -1.851242e+000 9.764664e+001 -6.554401e+000 -1.378956e+002
2382997050 -6.429763e+000 1.324925e+002 -1.892827e+000 9.089010e+001 -1.896011e+000 9.088311e+001 -6.432226e+000 -1.482328e+002
2443745700 -6.309896e+000 1.289945e+002 -1.933851e+000 8.412816e+001 -1.947660e+000 8.414829e+001 -6.292754e+000 -1.582875e+002
2504494350 -6.187146e+000 1.257770e+002 -1.991828e+000 7.742783e+001 -1.997135e+000 7.742681e+001 -6.155943e+000 -1.683569e+002
2565243000 -6.056413e+000 1.224489e+002 -2.045125e+000 7.064370e+001 -2.062101e+000 7.065977e+001 -6.029492e+000 -1.784099e+002
2625991650 -5.928898e+000 1.190036e+002 -2.097269e+000 6.396256e+001 -2.110200e+000 6.396338e+001 -5.875881e+000 1.716857e+002
2686740300 -5.782380e+000 1.156607e+002 -2.170335e+000 5.724029e+001 -2.182766e+000 5.727003e+001 -5.728293e+000 1.618766e+002
2747488950 -5.653226e+000 1.123379e+002 -2.236982e+000 5.053896e+001 -2.242179e+000 5.054910e+001 -5.606887e+000 1.521214e+002
2808237600 -5.519164e+000 1.088106e+002 -2.293038e+000 4.387662e+001 -2.308835e+000 4.390127e+001 -5.474296e+000 1.423889e+002
2868986250 -5.384356e+000 1.053527e+002 -2.360516e+000 3.725228e+001 -2.375437e+000 3.725456e+001 -5.350464e+000 1.329335e+002
2929734900 -5.251616e+000 1.018821e+002 -2.425552e+000 3.059449e+001 -2.437816e+000 3.062172e+001 -5.234785e+000 1.233484e+002
2990483550 -5.138958e+000 9.842769e+001 -2.509394e+000 2.410507e+001 -2.514731e+000 2.410035e+001 -5.143205e+000 1.138014e+002
3051232200 -5.014567e+000 9.495347e+001 -2.571226e+000 1.749006e+001 -2.584794e+000 1.750506e+001 -5.018539e+000 1.044178e+002
3111980850 -4.906244e+000 9.156020e+001 -2.625568e+000 1.096578e+001 -2.634148e+000 1.096861e+001 -4.947278e+000 9.496508e+001
3172729500 -4.820176e+000 8.819288e+001 -2.693057e+000 4.409775e+000 -2.699122e+000 4.448342e+000 -4.839682e+000 8.539266e+001
3233478150 -4.709549e+000 8.497206e+001 -2.735538e+000 -2.025229e+000 -2.748201e+000 -2.022700e+000 -4.769952e+000 7.595061e+001
3294226800 -4.631361e+000 8.162959e+001 -2.790858e+000 -8.569736e+000 -2.802784e+000 -8.526483e+000 -4.694580e+000 6.639741e+001
3354975450 -4.550066e+000 7.846185e+001 -2.843953e+000 -1.496115e+001 -2.843947e+000 -1.495736e+001 -4.646268e+000 5.666731e+001
3415724100 -4.502869e+000 7.536548e+001 -2.892058e+000 -2.153730e+001 -2.915041e+000 -2.151105e+001 -4.552020e+000 4.709876e+001
3476472750 -4.453104e+000 7.237821e+001 -2.923549e+000 -2.795973e+001 -2.935336e+000 -2.795150e+001 -4.516185e+000 3.724655e+001
3537221400 -4.407865e+000 6.949632e+001 -2.978682e+000 -3.444588e+001 -2.980763e+000 -3.443422e+001 -4.450399e+000 2.728819e+001
3597970050 -4.352840e+000 6.682114e+001 -3.002004e+000 -4.091957e+001 -3.007935e+000 -4.090829e+001 -4.399731e+000 1.720544e+001
3658718700 -4.335174e+000 6.408041e+001 -3.050028e+000 -4.745761e+001 -3.057636e+000 -4.741170e+001 -4.347754e+000 7.087178e+000
3719467350 -4.289243e+000 6.147989e+001 -3.093520e+000 -5.391408e+001 -3.103142e+000 -5.390866e+001 -4.329090e+000 -3.248712e+000
3780216000 -4.254021e+000 5.904183e+001 -3.125523e+000 -6.042998e+001 -3.139294e+000 -6.040421e+001 -4.247815e+000 -1.362065e+001
3840964650 -4.222231e+000 5.663744e+001 -3.135840e+000 -6.685818e+001 -3.149578e+000 -6.684482e+001 -4.185892e+000 -2.417157e+001
3901713300 -4.172293e+000 5.428326e+001 -3.201684e+000 -7.341823e+001 -3.208590e+000 -7.339104e+001 -4.133580e+000 -3.461341e+001
3962461950 -4.154377e+000 5.200928e+001 -3.235682e+000 -7.984302e+001 -3.234874e+000 -7.981815e+001 -4.065748e+000 -4.523515e+001
4023210600 -4.105588e+000 4.968618e+001 -3.278468e+000 -8.630981e+001 -3.300936e+000 -8.627921e+001 -3.995135e+000 -5.568403e+001
4083959250 -4.053473e+000 4.752915e+001 -3.321553e+000 -9.273336e+001 -3.322962e+000 -9.271175e+001 -3.939593e+000 -6.614462e+001
4144707900 -4.032131e+000 4.520428e+001 -3.363870e+000 -9.913325e+001 -3.380440e+000 -9.911473e+001 -3.858163e+000 -7.649908e+001
4205456550 -3.974607e+000 4.286562e+001 -3.392437e+000 -1.055488e+002 -3.404669e+000 -1.055128e+002 -3.799661e+000 -8.688723e+001
4266205200 -3.925773e+000 4.064333e+001 -3.452419e+000 -1.118677e+002 -3.457758e+000 -1.118561e+002 -3.720600e+000 -9.692353e+001
4326953850 -3.897970e+000 3.821287e+001 -3.490094e+000 -1.181345e+002 -3.506212e+000 -1.180815e+002 -3.693972e+000 -1.069538e+002
4387702500 -3.848394e+000 3.573073e+001 -3.526041e+000 -1.243813e+002 -3.544495e+000 -1.243778e+002 -3.622669e+000 -1.168404e+002
4448451150 -3.788523e+000 3.335649e+001 -3.562317e+000 -1.306201e+002 -3.577249e+000 -1.305762e+002 -3.570724e+000 -1.266059e+002
4509199800 -3.769862e+000 3.078241e+001 -3.580052e+000 -1.367721e+002 -3.602882e+000 -1.367854e+002 -3.526166e+000 -1.362555e+002
4569948450 -3.727210e+000 2.822911e+001 -3.617598e+000 -1.429051e+002 -3.632365e+000 -1.428664e+002 -3.525038e+000 -1.458862e+002
4630697100 -3.700948e+000 2.563031e+001 -3.637463e+000 -1.490818e+002 -3.664051e+000 -1.490731e+002 -3.494695e+000 -1.553261e+002
4691445750 -3.697293e+000 2.299061e+001 -3.646369e+000 -1.551302e+002 -3.655191e+000 -1.551112e+002 -3.507708e+000 -1.648743e+002
4752194400 -3.679581e+000 2.023677e+001 -3.641801e+000 -1.612605e+002 -3.657192e+000 -1.612441e+002 -3.501652e+000 -1.743468e+002
4812943050 -3.683381e+000 1.741430e+001 -3.647514e+000 -1.674812e+002 -3.655747e+000 -1.674128e+002 -3.511496e+000 1.762166e+002
4873691700 -3.703105e+000 1.452390e+001 -3.598123e+000 -1.736105e+002 -3.637057e+000 -1.735900e+002 -3.544950e+000 1.666750e+002
4934440350 -3.705028e+000 1.164251e+001 -3.601501e+000 -1.798472e+002 -3.614733e+000 -1.797859e+002 -3.577250e+000 1.569920e+002
4995189000 -3.736719e+000 8.676251e+000 -3.576586e+000 1.738322e+002 -3.595717e+000 1.738170e+002 -3.589911e+000 1.473118e+002
5055937650 -3.736760e+000 5.748066e+000 -3.531887e+000 1.675548e+002 -3.553267e+000 1.676129e+002 -3.639884e+000 1.373557e+002
5116686300 -3.765027e+000 2.853620e+000 -3.533494e+000 1.611609e+002 -3.530672e+000 1.611711e+002 -3.645164e+000 1.273321e+002
5177434950 -3.787512e+000 -1.088936e-002 -3.499845e+000 1.545820e+002 -3.507001e+000 1.546636e+002 -3.689773e+000 1.172178e+002
5238183600 -3.819130e+000 -2.960933e+000 -3.475771e+000 1.481959e+002 -3.485174e+000 1.482103e+002 -3.697882e+000 1.069193e+002
5298932250 -3.800416e+000 -5.885086e+000 -3.472377e+000 1.414544e+002 -3.487613e+000 1.415296e+002 -3.715187e+000 9.651141e+001
5359680900 -3.816128e+000 -8.806317e+000 -3.429641e+000 1.349076e+002 -3.459260e+000 1.348880e+002 -3.702211e+000 8.618729e+001
5420429550 -3.816010e+000 -1.167155e+001 -3.450063e+000 1.283318e+002 -3.458217e+000 1.284187e+002 -3.719037e+000 7.571134e+001
5481178200 -3.801205e+000 -1.483390e+001 -3.453718e+000 1.215904e+002 -3.472528e+000 1.215819e+002 -3.704711e+000 6.540088e+001
5541926850 -3.772126e+000 -1.772822e+001 -3.464900e+000 1.149614e+002 -3.466542e+000 1.150414e+002 -3.667040e+000 5.505731e+001
5602675500 -3.751408e+000 -2.081054e+001 -3.500593e+000 1.083418e+002 -3.509994e+000 1.083650e+002 -3.641932e+000 4.485538e+001
5663424150 -3.690755e+000 -2.387243e+001 -3.524348e+000 1.015846e+002 -3.523990e+000 1.016664e+002 -3.608341e+000 3.464624e+001
5724172800 -3.660899e+000 -2.697307e+001 -3.564782e+000 9.522620e+001 -3.567031e+000 9.522426e+001 -3.540380e+000 2.469641e+001
5784921450 -3.605684e+000 -3.007364e+001 -3.635810e+000 8.848166e+001 -3.626514e+000 8.856724e+001 -3.527453e+000 1.489747e+001
5845670100 -3.540098e+000 -3.323332e+001 -3.639010e+000 8.204250e+001 -3.647017e+000 8.205276e+001 -3.463850e+000 5.054367e+000
5906418750 -3.485513e+000 -3.647314e+001 -3.695282e+000 7.548974e+001 -3.694695e+000 7.557055e+001 -3.403916e+000 -4.423093e+000
5967167400 -3.431600e+000 -3.973747e+001 -3.743592e+000 6.908603e+001 -3.751244e+000 6.908974e+001 -3.367108e+000 -1.384463e+001
6027916050 -3.369105e+000 -4.283116e+001 -3.796450e+000 6.270703e+001 -3.807509e+000 6.278913e+001 -3.364076e+000 -2.325604e+001
6088664700 -3.348533e+000 -4.609412e+001 -3.841775e+000 5.637535e+001 -3.842218e+000 5.635897e+001 -3.306689e+000 -3.250619e+001
6149413350 -3.286676e+000 -4.933322e+001 -3.873291e+000 4.993080e+001 -3.886662e+000 5.002810e+001 -3.286023e+000 -4.178939e+001
6210162000 -3.259248e+000 -5.245859e+001 -3.919959e+000 4.366630e+001 -3.924713e+000 4.366024e+001 -3.279927e+000 -5.110912e+001
6270910650 -3.228723e+000 -5.555885e+001 -3.936918e+000 3.730047e+001 -3.944554e+000 3.738966e+001 -3.244061e+000 -6.024297e+001
6331659300 -3.200962e+000 -5.862642e+001 -3.976745e+000 3.105548e+001 -3.991865e+000 3.105551e+001 -3.253227e+000 -6.960640e+001
6392407950 -3.177806e+000 -6.155161e+001 -3.988996e+000 2.479177e+001 -3.995239e+000 2.487329e+001 -3.246243e+000 -7.899559e+001
6453156600 -3.187407e+000 -6.459221e+001 -4.008522e+000 1.854025e+001 -4.020755e+000 1.854555e+001 -3.237721e+000 -8.827177e+001
6513905250 -3.164435e+000 -6.737370e+001 -4.019193e+000 1.221209e+001 -4.034398e+000 1.230537e+001 -3.276289e+000 -9.798373e+001
6574653900 -3.190394e+000 -7.028321e+001 -4.017536e+000 5.987231e+000 -4.029996e+000 5.993157e+000 -3.253683e+000 -1.076363e+002
6635402550 -3.189137e+000 -7.304081e+001 -4.022835e+000 -4.436742e-001 -4.033873e+000 -3.496029e-001 -3.275420e+000 -1.172811e+002
6696151200 -3.205372e+000 -7.571973e+001 -4.019528e+000 -6.726106e+000 -4.034047e+000 -6.710667e+000 -3.295416e+000 -1.273386e+002
6756899850 -3.235805e+000 -7.844074e+001 -4.008645e+000 -1.315755e+001 -4.016217e+000 -1.307555e+001 -3.276481e+000 -1.372163e+002
6817648500 -3.251710e+000 -8.112835e+001 -4.016445e+000 -1.955210e+001 -4.026008e+000 -1.952205e+001 -3.294584e+000 -1.471453e+002
6878397150 -3.279415e+000 -8.363500e+001 -4.008695e+000 -2.599496e+001 -4.021113e+000 -2.593844e+001 -3.293318e+000 -1.574905e+002
6939145800 -3.301470e+000 -8.627645e+001 -4.004018e+000 -3.243894e+001 -4.010772e+000 -3.242109e+001 -3.286211e+000 -1.675018e+002
6999894450 -3.318115e+000 -8.871271e+001 -3.995424e+000 -3.887961e+001 -4.008617e+000 -3.881411e+001 -3.286543e+000 -1.777150e+002
7060643100 -3.349974e+000 -9.127190e+001 -3.988831e+000 -4.538108e+001 -3.997540e+000 -4.535566e+001 -3.289423e+000 1.719955e+002
7121391750 -3.359728e+000 -9.382233e+001 -3.990882e+000 -5.184681e+001 -3.999682e+000 -5.176304e+001 -3.269239e+000 1.620210e+002
7182140400 -3.384387e+000 -9.635715e+001 -3.991565e+000 -5.821187e+001 -4.008207e+000 -5.816687e+001 -3.265324e+000 1.518979e+002
7242889050 -3.413645e+000 -9.897617e+001 -3.993374e+000 -6.467065e+001 -4.001513e+000 -6.461151e+001 -3.258626e+000 1.418564e+002
7303637700 -3.420183e+000 -1.014620e+002 -3.984183e+000 -7.107943e+001 -3.993957e+000 -7.102888e+001 -3.249374e+000 1.319684e+002
7364386350 -3.454689e+000 -1.040028e+002 -3.990833e+000 -7.742874e+001 -4.009153e+000 -7.737877e+001 -3.256065e+000 1.219927e+002
7425135000 -3.475510e+000 -1.066661e+002 -3.981372e+000 -8.383056e+001 -3.984398e+000 -8.380016e+001 -3.270520e+000 1.120990e+002
7485883650 -3.498296e+000 -1.092780e+002 -3.971014e+000 -9.021980e+001 -3.991657e+000 -9.015713e+001 -3.256224e+000 1.024567e+002
7546632300 -3.534183e+000 -1.119952e+002 -3.986793e+000 -9.644638e+001 -3.993669e+000 -9.640463e+001 -3.288644e+000 9.267655e+001
7607380950 -3.562707e+000 -1.148106e+002 -3.946649e+000 -1.028594e+002 -3.950691e+000 -1.028013e+002 -3.295953e+000 8.303541e+001
7668129600 -3.579093e+000 -1.173663e+002 -3.936311e+000 -1.091505e+002 -3.950454e+000 -1.090650e+002 -3.316861e+000 7.345427e+001
7728878250 -3.636776e+000 -1.202807e+002 -3.943663e+000 -1.154596e+002 -3.946892e+000 -1.154115e+002 -3.360528e+000 6.385546e+001
7789626900 -3.657270e+000 -1.230591e+002 -3.875187e+000 -1.218149e+002 -3.879848e+000 -1.217483e+002 -3.405068e+000 5.422646e+001
7850375550 -3.687253e+000 -1.258194e+002 -3.874154e+000 -1.280594e+002 -3.885681e+000 -1.280371e+002 -3.443216e+000 4.479449e+001
7911124200 -3.744120e+000 -1.286772e+002 -3.845270e+000 -1.344718e+002 -3.848910e+000 -1.344107e+002 -3.504062e+000 3.499271e+001
7971872850 -3.784453e+000 -1.315598e+002 -3.775875e+000 -1.407453e+002 -3.783497e+000 -1.407342e+002 -3.546812e+000 2.541846e+001
8032621500 -3.815221e+000 -1.342963e+002 -3.777684e+000 -1.472007e+002 -3.786149e+000 -1.470925e+002 -3.610918e+000 1.583317e+001
8093370150 -3.877012e+000 -1.372397e+002 -3.722561e+000 -1.535894e+002 -3.726400e+000 -1.535753e+002 -3.679780e+000 5.936393e+000
8154118800 -3.909235e+000 -1.399266e+002 -3.666015e+000 -1.599902e+002 -3.672476e+000 -1.598664e+002 -3.733106e+000 -3.921941e+000
8214867450 -3.943737e+000 -1.428025e+002 -3.667200e+000 -1.664117e+002 -3.678097e+000 -1.664225e+002 -3.795298e+000 -1.359053e+001
8275616100 -3.998651e+000 -1.454467e+002 -3.607172e+000 -1.730007e+002 -3.615256e+000 -1.728851e+002 -3.876837e+000 -2.378015e+001
8336364750 -4.048301e+000 -1.482417e+002 -3.565282e+000 -1.793428e+002 -3.572349e+000 -1.793391e+002 -3.920987e+000 -3.386650e+001
8397113400 -4.068783e+000 -1.509783e+002 -3.553001e+000 1.739475e+002 -3.565613e+000 1.740804e+002 -3.992748e+000 -4.382012e+001
8457862050 -4.116872e+000 -1.536840e+002 -3.501267e+000 1.674927e+002 -3.510075e+000 1.674966e+002 -4.047971e+000 -5.409238e+001
8518610700 -4.154153e+000 -1.563413e+002 -3.479549e+000 1.608931e+002 -3.495783e+000 1.610223e+002 -4.078399e+000 -6.427795e+001
8579359350 -4.173784e+000 -1.592049e+002 -3.469842e+000 1.543521e+002 -3.481664e+000 1.543707e+002 -4.129579e+000 -7.423996e+001
8640108000 -4.201740e+000 -1.617840e+002 -3.433214e+000 1.477404e+002 -3.445617e+000 1.478694e+002 -4.185176e+000 -8.460204e+001
8700856650 -4.238488e+000 -1.644481e+002 -3.421168e+000 1.412628e+002 -3.436908e+000 1.412643e+002 -4.187992e+000 -9.477908e+001
8761605300 -4.234599e+000 -1.672874e+002 -3.418568e+000 1.346633e+002 -3.429638e+000 1.347896e+002 -4.242273e+000 -1.045967e+002
8822353950 -4.274276e+000 -1.698700e+002 -3.391436e+000 1.282160e+002 -3.405400e+000 1.282361e+002 -4.262133e+000 -1.148021e+002
8883102600 -4.291297e+000 -1.725525e+002 -3.393552e+000 1.216708e+002 -3.407931e+000 1.217892e+002 -4.279068e+000 -1.247429e+002
8943851250 -4.307978e+000 -1.753780e+002 -3.378333e+000 1.152818e+002 -3.382661e+000 1.152882e+002 -4.319534e+000 -1.344301e+002
9004599900 -4.355316e+000 -1.780245e+002 -3.353449e+000 1.087506e+002 -3.370085e+000 1.088919e+002 -4.358820e+000 -1.443311e+002
9065348550 -4.381259e+000 1.790845e+002 -3.355469e+000 1.023645e+002 -3.362690e+000 1.023566e+002 -4.393763e+000 -1.539785e+002
9126097200 -4.410983e+000 1.762316e+002 -3.333979e+000 9.583273e+001 -3.343301e+000 9.595636e+001 -4.444353e+000 -1.636130e+002
9186845850 -4.490206e+000 1.734898e+002 -3.313626e+000 8.943342e+001 -3.328078e+000 8.944761e+001 -4.478780e+000 -1.731696e+002
9247594500 -4.511421e+000 1.705250e+002 -3.300179e+000 8.296519e+001 -3.307579e+000 8.306790e+001 -4.570439e+000 1.773446e+002
9308343150 -4.604127e+000 1.677156e+002 -3.273848e+000 7.657335e+001 -3.278377e+000 7.659027e+001 -4.621231e+000 1.677699e+002
9369091800 -4.679172e+000 1.649178e+002 -3.238519e+000 7.001343e+001 -3.253111e+000 7.010358e+001 -4.712066e+000 1.581210e+002
9429840450 -4.719357e+000 1.619765e+002 -3.230165e+000 6.356178e+001 -3.237564e+000 6.359177e+001 -4.831255e+000 1.485495e+002
9490589100 -4.858715e+000 1.591369e+002 -3.190466e+000 5.692293e+001 -3.203348e+000 5.703952e+001 -4.897540e+000 1.389547e+002
9551337750 -4.929677e+000 1.561854e+002 -3.168953e+000 5.043269e+001 -3.183279e+000 5.048053e+001 -5.023333e+000 1.293501e+002
9612086400 -4.990955e+000 1.534627e+002 -3.144719e+000 4.390149e+001 -3.158034e+000 4.400874e+001 -5.164239e+000 1.194527e+002
9672835050 -5.151395e+000 1.506262e+002 -3.121287e+000 3.723211e+001 -3.135814e+000 3.726822e+001 -5.222821e+000 1.098792e+002
9733583700 -5.216859e+000 1.476789e+002 -3.105067e+000 3.066180e+001 -3.120364e+000 3.076249e+001 -5.369294e+000 1.002700e+002
9794332350 -5.299888e+000 1.449514e+002 -3.095757e+000 2.411021e+001 -3.108377e+000 2.413765e+001 -5.509603e+000 9.037488e+001
9855081000 -5.467305e+000 1.422163e+002 -3.073546e+000 1.730564e+001 -3.085482e+000 1.741766e+001 -5.571894e+000 8.079724e+001
9915829650 -5.526298e+000 1.391873e+002 -3.071667e+000 1.078607e+001 -3.083309e+000 1.082895e+001 -5.716211e+000 7.115448e+001
9976578300 -5.623775e+000 1.364212e+002 -3.070565e+000 4.235704e+000 -3.076888e+000 4.315677e+000 -5.834626e+000 6.138308e+001
10037326950 -5.762559e+000 1.335441e+002 -3.063105e+000 -2.600691e+000 -3.074279e+000 -2.550260e+000 -5.887430e+000 5.216899e+001
10098075600 -5.795926e+000 1.303959e+002 -3.072203e+000 -9.027259e+000 -3.077543e+000 -8.941219e+000 -6.009470e+000 4.265724e+001
10158824250 -5.876842e+000 1.274754e+002 -3.086068e+000 -1.557116e+001 -3.096519e+000 -1.551758e+001 -6.064041e+000 3.318898e+001
10219572900 -5.965268e+000 1.245601e+002 -3.079745e+000 -2.219710e+001 -3.083785e+000 -2.211281e+001 -6.080888e+000 2.406890e+001
10280321550 -5.988515e+000 1.211813e+002 -3.089171e+000 -2.848213e+001 -3.099040e+000 -2.843068e+001 -6.159237e+000 1.465141e+001
10341070200 -6.068470e+000 1.180685e+002 -3.085469e+000 -3.493155e+001 -3.095889e+000 -3.484146e+001 -6.177872e+000 5.377951e+000
10401818850 -6.129654e+000 1.149478e+002 -3.058354e+000 -4.139737e+001 -3.068112e+000 -4.133689e+001 -6.196261e+000 -3.773194e+000
10462567500 -6.146486e+000 1.115777e+002 -3.061160e+000 -4.765643e+001 -3.070220e+000 -4.757753e+001 -6.241952e+000 -1.335188e+001
10523316150 -6.273801e+000 1.084143e+002 -3.018154e+000 -5.420643e+001 -3.034841e+000 -5.409801e+001 -6.261628e+000 -2.271975e+001
