!Agilent Technologies,N5230C,MY48100320,A.08.04.10
!Agilent N5230C: A.08.04.10
!Date: Tuesday, August 23, 2016 04:09:44
!Correction: S11(Full 2 Port(1,2)) 
!S21(Full 2 Port(1,2)) 
!S12(Full 2 Port(1,2)) 
!S22(Full 2 Port(1,2)) 
!S2P File: Measurements: S11, S21, S12, S22:
# Hz S  dB   R 50
1350270000 -4.526573e+000 1.104411e+002 -4.398314e+000 -1.478152e+002 -4.407786e+000 -1.478342e+002 -4.327096e+000 1.224989e+002
1411018650 -4.450981e+000 1.051207e+002 -4.568671e+000 -1.533637e+002 -4.579942e+000 -1.533757e+002 -4.233724e+000 1.175993e+002
1471767300 -4.385434e+000 9.982446e+001 -4.734915e+000 -1.588638e+002 -4.748571e+000 -1.588721e+002 -4.150813e+000 1.128874e+002
1532515950 -4.335892e+000 9.438096e+001 -4.896404e+000 -1.644398e+002 -4.905913e+000 -1.644566e+002 -4.089723e+000 1.081988e+002
1593264600 -4.277095e+000 8.919611e+001 -5.059653e+000 -1.697551e+002 -5.073151e+000 -1.697402e+002 -4.013899e+000 1.036685e+002
1654013250 -4.237661e+000 8.385738e+001 -5.212142e+000 -1.751496e+002 -5.234312e+000 -1.751485e+002 -3.957853e+000 9.916843e+001
1714761900 -4.201461e+000 7.850839e+001 -5.380894e+000 1.795185e+002 -5.379640e+000 1.795119e+002 -3.888996e+000 9.476437e+001
1775510550 -4.158107e+000 7.318403e+001 -5.534816e+000 1.741652e+002 -5.541039e+000 1.741706e+002 -3.839981e+000 9.038779e+001
1836259200 -4.122286e+000 6.798101e+001 -5.693112e+000 1.688989e+002 -5.708291e+000 1.689061e+002 -3.788507e+000 8.609074e+001
1897007850 -4.098996e+000 6.268745e+001 -5.844158e+000 1.636166e+002 -5.846281e+000 1.636248e+002 -3.741268e+000 8.188141e+001
1957756500 -4.055992e+000 5.745468e+001 -5.998847e+000 1.584292e+002 -6.006584e+000 1.584300e+002 -3.697057e+000 7.772887e+001
2018505150 -4.028031e+000 5.229997e+001 -6.141917e+000 1.532399e+002 -6.153907e+000 1.532380e+002 -3.654802e+000 7.361735e+001
2079253800 -4.000409e+000 4.718785e+001 -6.293856e+000 1.481137e+002 -6.301163e+000 1.481123e+002 -3.622810e+000 6.953081e+001
2140002450 -3.979788e+000 4.205727e+001 -6.442366e+000 1.429448e+002 -6.457591e+000 1.429457e+002 -3.589901e+000 6.548946e+001
2200751100 -3.938363e+000 3.701717e+001 -6.575785e+000 1.378726e+002 -6.586473e+000 1.378529e+002 -3.546880e+000 6.146822e+001
2261499750 -3.937577e+000 3.211432e+001 -6.739800e+000 1.328547e+002 -6.747002e+000 1.328381e+002 -3.535295e+000 5.747988e+001
2322248400 -3.917724e+000 2.718620e+001 -6.875423e+000 1.277757e+002 -6.881233e+000 1.277747e+002 -3.510864e+000 5.347533e+001
2382997050 -3.894140e+000 2.234337e+001 -7.009098e+000 1.228357e+002 -7.021728e+000 1.228319e+002 -3.495485e+000 4.956774e+001
2443745700 -3.872906e+000 1.767104e+001 -7.155857e+000 1.178675e+002 -7.164844e+000 1.178404e+002 -3.491409e+000 4.557011e+001
2504494350 -3.864947e+000 1.313792e+001 -7.283432e+000 1.129367e+002 -7.294597e+000 1.129299e+002 -3.483019e+000 4.158496e+001
2565243000 -3.845612e+000 8.516376e+000 -7.409260e+000 1.080629e+002 -7.422982e+000 1.080440e+002 -3.484382e+000 3.762336e+001
2625991650 -3.843431e+000 4.116531e+000 -7.542685e+000 1.031676e+002 -7.555162e+000 1.031553e+002 -3.487493e+000 3.365537e+001
2686740300 -3.837813e+000 -1.846284e-001 -7.649822e+000 9.838417e+001 -7.649175e+000 9.836514e+001 -3.486727e+000 2.972058e+001
2747488950 -3.852189e+000 -4.486939e+000 -7.773976e+000 9.360561e+001 -7.783669e+000 9.359525e+001 -3.514242e+000 2.577389e+001
2808237600 -3.845577e+000 -8.758203e+000 -7.870431e+000 8.871647e+001 -7.880308e+000 8.870398e+001 -3.518126e+000 2.177118e+001
2868986250 -3.861676e+000 -1.284334e+001 -7.974783e+000 8.398388e+001 -7.989503e+000 8.395895e+001 -3.547212e+000 1.778051e+001
2929734900 -3.875263e+000 -1.698478e+001 -8.070555e+000 7.915408e+001 -8.081081e+000 7.913902e+001 -3.578867e+000 1.373651e+001
2990483550 -3.915300e+000 -2.100166e+001 -8.167980e+000 7.439938e+001 -8.173684e+000 7.437254e+001 -3.607793e+000 9.763705e+000
3051232200 -3.937010e+000 -2.504440e+001 -8.242981e+000 6.960973e+001 -8.247621e+000 6.958186e+001 -3.640568e+000 5.709768e+000
3111980850 -3.976489e+000 -2.906524e+001 -8.325613e+000 6.477628e+001 -8.327694e+000 6.475567e+001 -3.681123e+000 1.620298e+000
3172729500 -4.019967e+000 -3.304412e+001 -8.385810e+000 5.991055e+001 -8.403748e+000 5.988779e+001 -3.716779e+000 -2.460526e+000
3233478150 -4.068816e+000 -3.713932e+001 -8.457755e+000 5.514082e+001 -8.458993e+000 5.510168e+001 -3.751144e+000 -6.426608e+000
3294226800 -4.104390e+000 -4.117049e+001 -8.514437e+000 5.026241e+001 -8.510037e+000 5.024821e+001 -3.796346e+000 -1.056486e+001
3354975450 -4.174514e+000 -4.528594e+001 -8.579318e+000 4.538461e+001 -8.572741e+000 4.534779e+001 -3.842194e+000 -1.462840e+001
3415724100 -4.239194e+000 -4.937481e+001 -8.615261e+000 4.052388e+001 -8.626418e+000 4.051255e+001 -3.895014e+000 -1.877000e+001
3476472750 -4.306088e+000 -5.361105e+001 -8.674957e+000 3.553914e+001 -8.683307e+000 3.550076e+001 -3.960461e+000 -2.292713e+001
3537221400 -4.380454e+000 -5.790398e+001 -8.713243e+000 3.054508e+001 -8.701025e+000 3.050828e+001 -3.983946e+000 -2.704638e+001
3597970050 -4.458081e+000 -6.232809e+001 -8.756314e+000 2.551496e+001 -8.756471e+000 2.547273e+001 -4.052876e+000 -3.118028e+001
3658718700 -4.523125e+000 -6.678365e+001 -8.791159e+000 2.047967e+001 -8.794031e+000 2.047858e+001 -4.104234e+000 -3.535493e+001
3719467350 -4.605584e+000 -7.127573e+001 -8.850325e+000 1.547048e+001 -8.854734e+000 1.541921e+001 -4.162031e+000 -3.942816e+001
3780216000 -4.688459e+000 -7.589130e+001 -8.879945e+000 1.030482e+001 -8.888227e+000 1.029085e+001 -4.211902e+000 -4.358767e+001
3840964650 -4.758783e+000 -8.058635e+001 -8.905980e+000 5.149775e+000 -8.920234e+000 5.097349e+000 -4.248413e+000 -4.775824e+001
3901713300 -4.830707e+000 -8.539510e+001 -8.963602e+000 3.076208e-002 -8.967068e+000 1.398557e-002 -4.286023e+000 -5.181664e+001
3962461950 -4.913682e+000 -9.021246e+001 -9.011431e+000 -5.211127e+000 -8.998872e+000 -5.255027e+000 -4.323966e+000 -5.591267e+001
4023210600 -4.977477e+000 -9.509949e+001 -9.051210e+000 -1.032860e+001 -9.058078e+000 -1.036135e+001 -4.355285e+000 -6.001168e+001
4083959250 -5.045603e+000 -1.000800e+002 -9.123048e+000 -1.558728e+001 -9.109556e+000 -1.562225e+001 -4.382426e+000 -6.400008e+001
4144707900 -5.088404e+000 -1.050930e+002 -9.152047e+000 -2.077204e+001 -9.146850e+000 -2.081437e+001 -4.408982e+000 -6.798714e+001
4205456550 -5.123591e+000 -1.100602e+002 -9.207725e+000 -2.603926e+001 -9.216152e+000 -2.608024e+001 -4.437571e+000 -7.205042e+001
4266205200 -5.166390e+000 -1.150638e+002 -9.271088e+000 -3.122822e+001 -9.275105e+000 -3.125837e+001 -4.453298e+000 -7.593175e+001
4326953850 -5.202166e+000 -1.199992e+002 -9.340593e+000 -3.641900e+001 -9.335670e+000 -3.646803e+001 -4.484766e+000 -7.977926e+001
4387702500 -5.219172e+000 -1.248073e+002 -9.390597e+000 -4.159097e+001 -9.402503e+000 -4.162448e+001 -4.509645e+000 -8.373009e+001
4448451150 -5.255346e+000 -1.296876e+002 -9.454124e+000 -4.681047e+001 -9.452415e+000 -4.685986e+001 -4.518774e+000 -8.751768e+001
4509199800 -5.268685e+000 -1.345263e+002 -9.499696e+000 -5.188489e+001 -9.517135e+000 -5.195844e+001 -4.550649e+000 -9.121912e+001
4569948450 -5.295265e+000 -1.392080e+002 -9.590522e+000 -5.709435e+001 -9.588477e+000 -5.715017e+001 -4.584088e+000 -9.500923e+001
4630697100 -5.321504e+000 -1.439119e+002 -9.643736e+000 -6.219711e+001 -9.660962e+000 -6.224623e+001 -4.599653e+000 -9.867994e+001
4691445750 -5.333950e+000 -1.485670e+002 -9.716562e+000 -6.724900e+001 -9.697476e+000 -6.732320e+001 -4.617140e+000 -1.021621e+002
4752194400 -5.332893e+000 -1.530719e+002 -9.783049e+000 -7.238194e+001 -9.778349e+000 -7.241208e+001 -4.657156e+000 -1.058279e+002
4812943050 -5.347266e+000 -1.574076e+002 -9.838758e+000 -7.739936e+001 -9.830629e+000 -7.748096e+001 -4.673909e+000 -1.092737e+002
4873691700 -5.359779e+000 -1.617037e+002 -9.888972e+000 -8.229544e+001 -9.919766e+000 -8.235399e+001 -4.729308e+000 -1.125947e+002
4934440350 -5.367495e+000 -1.658389e+002 -9.951634e+000 -8.735513e+001 -9.952194e+000 -8.741233e+001 -4.771341e+000 -1.160498e+002
4995189000 -5.403453e+000 -1.698828e+002 -1.000337e+001 -9.224864e+001 -1.001151e+001 -9.232065e+001 -4.818203e+000 -1.193420e+002
5055937650 -5.433074e+000 -1.738611e+002 -1.005047e+001 -9.719779e+001 -1.007439e+001 -9.728648e+001 -4.873694e+000 -1.226111e+002
5116686300 -5.473232e+000 -1.777969e+002 -1.009210e+001 -1.021918e+002 -1.009464e+001 -1.022526e+002 -4.926034e+000 -1.259391e+002
5177434950 -5.525344e+000 1.783439e+002 -1.013209e+001 -1.070071e+002 -1.013501e+001 -1.070712e+002 -4.969698e+000 -1.291044e+002
5238183600 -5.573977e+000 1.745599e+002 -1.017233e+001 -1.119483e+002 -1.017540e+001 -1.120323e+002 -5.041671e+000 -1.322530e+002
5298932250 -5.621789e+000 1.707486e+002 -1.017415e+001 -1.169903e+002 -1.018803e+001 -1.170543e+002 -5.093925e+000 -1.356166e+002
5359680900 -5.682044e+000 1.669889e+002 -1.021282e+001 -1.218508e+002 -1.023287e+001 -1.219352e+002 -5.160781e+000 -1.387922e+002
5420429550 -5.752642e+000 1.634009e+002 -1.025018e+001 -1.268386e+002 -1.023901e+001 -1.269097e+002 -5.209305e+000 -1.420087e+002
5481178200 -5.816100e+000 1.599305e+002 -1.025257e+001 -1.316839e+002 -1.025826e+001 -1.317704e+002 -5.286299e+000 -1.451596e+002
5541926850 -5.900896e+000 1.562728e+002 -1.028250e+001 -1.366349e+002 -1.028198e+001 -1.367329e+002 -5.354599e+000 -1.484111e+002
5602675500 -5.973658e+000 1.527895e+002 -1.029074e+001 -1.415823e+002 -1.028934e+001 -1.416511e+002 -5.426013e+000 -1.515823e+002
5663424150 -6.069724e+000 1.493730e+002 -1.029691e+001 -1.464287e+002 -1.030392e+001 -1.465315e+002 -5.493416e+000 -1.547550e+002
5724172800 -6.160917e+000 1.457666e+002 -1.030573e+001 -1.514856e+002 -1.030869e+001 -1.515943e+002 -5.566242e+000 -1.580948e+002
5784921450 -6.257602e+000 1.422901e+002 -1.030450e+001 -1.563826e+002 -1.030758e+001 -1.564848e+002 -5.631427e+000 -1.613253e+002
5845670100 -6.344922e+000 1.386963e+002 -1.031189e+001 -1.614021e+002 -1.031694e+001 -1.615328e+002 -5.699682e+000 -1.646884e+002
5906418750 -6.416862e+000 1.352039e+002 -1.029262e+001 -1.663846e+002 -1.030297e+001 -1.664962e+002 -5.741735e+000 -1.680502e+002
5967167400 -6.512549e+000 1.316749e+002 -1.029179e+001 -1.713830e+002 -1.030157e+001 -1.714911e+002 -5.802916e+000 -1.713775e+002
6027916050 -6.637577e+000 1.279908e+002 -1.031055e+001 -1.764089e+002 -1.031338e+001 -1.765269e+002 -5.868835e+000 -1.747721e+002
6088664700 -6.706454e+000 1.243468e+002 -1.030480e+001 1.785175e+002 -1.029892e+001 1.783918e+002 -5.901956e+000 -1.782230e+002
6149413350 -6.791383e+000 1.207851e+002 -1.028030e+001 1.735154e+002 -1.030729e+001 1.734076e+002 -5.934202e+000 1.784037e+002
6210162000 -6.879209e+000 1.170476e+002 -1.029060e+001 1.684266e+002 -1.029039e+001 1.682903e+002 -5.968184e+000 1.749037e+002
6270910650 -6.953493e+000 1.133539e+002 -1.027258e+001 1.633925e+002 -1.028443e+001 1.632710e+002 -5.983825e+000 1.714456e+002
6331659300 -7.040645e+000 1.095567e+002 -1.026878e+001 1.583712e+002 -1.029123e+001 1.582321e+002 -6.003675e+000 1.680557e+002
6392407950 -7.106599e+000 1.056175e+002 -1.027672e+001 1.531418e+002 -1.029281e+001 1.530026e+002 -6.022939e+000 1.644596e+002
6453156600 -7.156324e+000 1.018219e+002 -1.026314e+001 1.480415e+002 -1.028258e+001 1.479253e+002 -6.017026e+000 1.609121e+002
6513905250 -7.228275e+000 9.792867e+001 -1.028238e+001 1.429462e+002 -1.030647e+001 1.428457e+002 -6.028026e+000 1.574232e+002
6574653900 -7.261373e+000 9.395599e+001 -1.027445e+001 1.377086e+002 -1.029220e+001 1.375884e+002 -6.010551e+000 1.538529e+002
6635402550 -7.301459e+000 9.011375e+001 -1.028311e+001 1.325987e+002 -1.030476e+001 1.324937e+002 -6.001117e+000 1.503527e+002
6696151200 -7.337317e+000 8.620228e+001 -1.030268e+001 1.274518e+002 -1.032969e+001 1.273261e+002 -5.987463e+000 1.467982e+002
6756899850 -7.347097e+000 8.229176e+001 -1.030358e+001 1.222255e+002 -1.032469e+001 1.221128e+002 -5.953359e+000 1.432946e+002
6817648500 -7.370083e+000 7.846024e+001 -1.031914e+001 1.171520e+002 -1.034574e+001 1.170318e+002 -5.932060e+000 1.398447e+002
6878397150 -7.372726e+000 7.453838e+001 -1.033427e+001 1.119051e+002 -1.036268e+001 1.117935e+002 -5.904845e+000 1.362413e+002
6939145800 -7.368528e+000 7.076995e+001 -1.034206e+001 1.068026e+002 -1.036488e+001 1.066718e+002 -5.861510e+000 1.328614e+002
6999894450 -7.368892e+000 6.692224e+001 -1.036558e+001 1.015422e+002 -1.040006e+001 1.014301e+002 -5.835655e+000 1.293787e+002
7060643100 -7.352816e+000 6.315199e+001 -1.038741e+001 9.636154e+001 -1.041693e+001 9.624189e+001 -5.801401e+000 1.258395e+002
7121391750 -7.325765e+000 5.950100e+001 -1.039716e+001 9.123873e+001 -1.042759e+001 9.115459e+001 -5.749095e+000 1.225633e+002
7182140400 -7.323294e+000 5.581376e+001 -1.042023e+001 8.601974e+001 -1.045356e+001 8.593762e+001 -5.716879e+000 1.191498e+002
7242889050 -7.287491e+000 5.208235e+001 -1.043403e+001 8.083174e+001 -1.046391e+001 8.074068e+001 -5.684381e+000 1.157422e+002
7303637700 -7.265981e+000 4.840961e+001 -1.045598e+001 7.568965e+001 -1.049479e+001 7.558553e+001 -5.639288e+000 1.124516e+002
7364386350 -7.240318e+000 4.475940e+001 -1.048169e+001 7.039165e+001 -1.051892e+001 7.032712e+001 -5.620973e+000 1.090353e+002
7425135000 -7.198781e+000 4.106468e+001 -1.049898e+001 6.525610e+001 -1.052579e+001 6.517554e+001 -5.583954e+000 1.056691e+002
7485883650 -7.159827e+000 3.743041e+001 -1.051697e+001 6.005207e+001 -1.055912e+001 6.000506e+001 -5.533887e+000 1.023662e+002
7546632300 -7.134739e+000 3.390688e+001 -1.054624e+001 5.480411e+001 -1.058183e+001 5.473732e+001 -5.518716e+000 9.902642e+001
7607380950 -7.088240e+000 3.011280e+001 -1.055445e+001 4.962214e+001 -1.058411e+001 4.958455e+001 -5.477724e+000 9.575051e+001
7668129600 -7.067349e+000 2.642803e+001 -1.058967e+001 4.439447e+001 -1.063314e+001 4.437073e+001 -5.448457e+000 9.243771e+001
7728878250 -7.016179e+000 2.280454e+001 -1.060914e+001 3.911470e+001 -1.064173e+001 3.910390e+001 -5.430635e+000 8.914073e+001
7789626900 -6.984093e+000 1.900242e+001 -1.062423e+001 3.402984e+001 -1.065762e+001 3.401303e+001 -5.396972e+000 8.595187e+001
7850375550 -6.940638e+000 1.516159e+001 -1.065784e+001 2.872892e+001 -1.069937e+001 2.869868e+001 -5.379267e+000 8.266389e+001
7911124200 -6.884412e+000 1.141588e+001 -1.067115e+001 2.351286e+001 -1.070526e+001 2.348974e+001 -5.354496e+000 7.934721e+001
7971872850 -6.846421e+000 7.573699e+000 -1.069673e+001 1.841442e+001 -1.073056e+001 1.838806e+001 -5.335242e+000 7.615698e+001
8032621500 -6.801449e+000 3.602154e+000 -1.072157e+001 1.305077e+001 -1.076074e+001 1.305864e+001 -5.313913e+000 7.281897e+001
8093370150 -6.739208e+000 -3.061997e-001 -1.074023e+001 7.900665e+000 -1.076588e+001 7.899026e+000 -5.292992e+000 6.958854e+001
8154118800 -6.693058e+000 -4.284178e+000 -1.076960e+001 2.752847e+000 -1.080532e+001 2.775018e+000 -5.282650e+000 6.629588e+001
8214867450 -6.634320e+000 -8.359702e+000 -1.079009e+001 -2.627335e+000 -1.082281e+001 -2.627187e+000 -5.252841e+000 6.288264e+001
8275616100 -6.562401e+000 -1.244914e+001 -1.080152e+001 -7.763166e+000 -1.083750e+001 -7.724762e+000 -5.234097e+000 5.975021e+001
8336364750 -6.495282e+000 -1.647724e+001 -1.084539e+001 -1.294366e+001 -1.087349e+001 -1.290472e+001 -5.248349e+000 5.635158e+001
8397113400 -6.428525e+000 -2.049915e+001 -1.084300e+001 -1.827296e+001 -1.088332e+001 -1.823493e+001 -5.204469e+000 5.282244e+001
8457862050 -6.358841e+000 -2.461959e+001 -1.087187e+001 -2.336304e+001 -1.090179e+001 -2.333147e+001 -5.192724e+000 4.963199e+001
8518610700 -6.273038e+000 -2.867754e+001 -1.088879e+001 -2.862070e+001 -1.093448e+001 -2.859652e+001 -5.196153e+000 4.607937e+001
8579359350 -6.209409e+000 -3.269117e+001 -1.090139e+001 -3.385084e+001 -1.093549e+001 -3.380313e+001 -5.155842e+000 4.253247e+001
8640108000 -6.140700e+000 -3.686730e+001 -1.092832e+001 -3.899119e+001 -1.096507e+001 -3.891791e+001 -5.137696e+000 3.927260e+001
8700856650 -6.054828e+000 -4.092830e+001 -1.094768e+001 -4.419358e+001 -1.098180e+001 -4.416469e+001 -5.151785e+000 3.572640e+001
8761605300 -5.988136e+000 -4.493072e+001 -1.095561e+001 -4.944038e+001 -1.098996e+001 -4.937033e+001 -5.107754e+000 3.194857e+001
8822353950 -5.919284e+000 -4.907141e+001 -1.099634e+001 -5.454768e+001 -1.102818e+001 -5.450489e+001 -5.095519e+000 2.855414e+001
8883102600 -5.834024e+000 -5.311933e+001 -1.099935e+001 -5.979713e+001 -1.104070e+001 -5.973969e+001 -5.086347e+000 2.489622e+001
8943851250 -5.770970e+000 -5.703534e+001 -1.102666e+001 -6.492550e+001 -1.105259e+001 -6.488682e+001 -5.054117e+000 2.113969e+001
9004599900 -5.702518e+000 -6.109953e+001 -1.105474e+001 -7.011998e+001 -1.109179e+001 -7.003510e+001 -5.031975e+000 1.751829e+001
9065348550 -5.630928e+000 -6.498505e+001 -1.106222e+001 -7.529931e+001 -1.109128e+001 -7.526343e+001 -5.014670e+000 1.380552e+001
9126097200 -5.584164e+000 -6.892374e+001 -1.107967e+001 -8.047002e+001 -1.110698e+001 -8.036916e+001 -4.980551e+000 9.973262e+000
9186845850 -5.524683e+000 -7.297207e+001 -1.110621e+001 -8.565816e+001 -1.114009e+001 -8.557523e+001 -4.957952e+000 6.222136e+000
9247594500 -5.467983e+000 -7.682185e+001 -1.110139e+001 -9.079397e+001 -1.113010e+001 -9.071899e+001 -4.916251e+000 2.440986e+000
9308343150 -5.435474e+000 -8.077023e+001 -1.114142e+001 -9.603613e+001 -1.116150e+001 -9.596070e+001 -4.897034e+000 -1.437558e+000
9369091800 -5.385592e+000 -8.481277e+001 -1.114394e+001 -1.011690e+002 -1.117735e+001 -1.010836e+002 -4.842487e+000 -5.205462e+000
9429840450 -5.351299e+000 -8.868813e+001 -1.114145e+001 -1.062533e+002 -1.116802e+001 -1.061723e+002 -4.802295e+000 -8.891661e+000
9490589100 -5.332395e+000 -9.260502e+001 -1.116826e+001 -1.115155e+002 -1.120137e+001 -1.113764e+002 -4.795803e+000 -1.275643e+001
9551337750 -5.311813e+000 -9.673566e+001 -1.116539e+001 -1.166466e+002 -1.119854e+001 -1.165526e+002 -4.726486e+000 -1.667510e+001
9612086400 -5.302817e+000 -1.007877e+002 -1.117087e+001 -1.216407e+002 -1.120054e+001 -1.215266e+002 -4.674664e+000 -2.011455e+001
9672835050 -5.289574e+000 -1.048926e+002 -1.120056e+001 -1.270094e+002 -1.122822e+001 -1.269291e+002 -4.683391e+000 -2.395921e+001
9733583700 -5.283852e+000 -1.090803e+002 -1.118071e+001 -1.320152e+002 -1.121031e+001 -1.319157e+002 -4.606238e+000 -2.773706e+001
9794332350 -5.292717e+000 -1.133145e+002 -1.119390e+001 -1.370486e+002 -1.122232e+001 -1.369667e+002 -4.574280e+000 -3.121048e+001
9855081000 -5.288799e+000 -1.176028e+002 -1.120538e+001 -1.424750e+002 -1.123331e+001 -1.423527e+002 -4.577018e+000 -3.504465e+001
9915829650 -5.298408e+000 -1.219908e+002 -1.119659e+001 -1.475148e+002 -1.122101e+001 -1.474079e+002 -4.517462e+000 -3.878031e+001
9976578300 -5.322093e+000 -1.264732e+002 -1.121648e+001 -1.526345e+002 -1.123864e+001 -1.525037e+002 -4.492669e+000 -4.225206e+001
10037326950 -5.321980e+000 -1.309141e+002 -1.121250e+001 -1.579993e+002 -1.123629e+001 -1.579050e+002 -4.494761e+000 -4.603353e+001
10098075600 -5.353553e+000 -1.355835e+002 -1.121578e+001 -1.629775e+002 -1.123482e+001 -1.628413e+002 -4.444346e+000 -4.960325e+001
10158824250 -5.379909e+000 -1.405021e+002 -1.122799e+001 -1.682462e+002 -1.125302e+001 -1.681482e+002 -4.437785e+000 -5.312326e+001
10219572900 -5.378894e+000 -1.453103e+002 -1.122728e+001 -1.736532e+002 -1.124487e+001 -1.735356e+002 -4.427778e+000 -5.688555e+001
10280321550 -5.401267e+000 -1.502409e+002 -1.123540e+001 -1.786574e+002 -1.125794e+001 -1.785447e+002 -4.390719e+000 -6.035627e+001
10341070200 -5.436007e+000 -1.553236e+002 -1.126117e+001 1.760009e+002 -1.128479e+001 1.761245e+002 -4.404989e+000 -6.393596e+001
10401818850 -5.424219e+000 -1.603916e+002 -1.125917e+001 1.707222e+002 -1.128106e+001 1.708327e+002 -4.384262e+000 -6.772043e+001
10462567500 -5.413470e+000 -1.654847e+002 -1.129517e+001 1.656960e+002 -1.131259e+001 1.658347e+002 -4.368749e+000 -7.120511e+001
10523316150 -5.423547e+000 -1.704555e+002 -1.129878e+001 1.602827e+002 -1.132650e+001 1.604695e+002 -4.371507e+000 -7.494819e+001
