!Agilent Technologies,N5230C,MY48100320,A.08.04.10
!Agilent N5230C: A.08.04.10
!Date: Tuesday, August 23, 2016 04:15:36
!Correction: S11(Full 2 Port(1,2)) 
!S21(Full 2 Port(1,2)) 
!S12(Full 2 Port(1,2)) 
!S22(Full 2 Port(1,2)) 
!S2P File: Measurements: S11, S21, S12, S22:
# Hz S  dB   R 50
1350270000 -4.942857e+000 8.540997e+001 -4.008727e+000 1.712383e+002 -4.020494e+000 1.712169e+002 -4.498108e+000 6.773320e+001
1411018650 -4.884104e+000 7.805137e+001 -4.171685e+000 1.635948e+002 -4.185183e+000 1.635929e+002 -4.402903e+000 6.051781e+001
1471767300 -4.826873e+000 7.056970e+001 -4.329898e+000 1.560033e+002 -4.345075e+000 1.560162e+002 -4.313526e+000 5.357049e+001
1532515950 -4.772693e+000 6.289492e+001 -4.508393e+000 1.482591e+002 -4.513710e+000 1.482593e+002 -4.236971e+000 4.661925e+001
1593264600 -4.697392e+000 5.539610e+001 -4.660358e+000 1.408268e+002 -4.675518e+000 1.408341e+002 -4.148839e+000 3.984145e+001
1654013250 -4.636237e+000 4.767262e+001 -4.835520e+000 1.332401e+002 -4.851171e+000 1.332365e+002 -4.072016e+000 3.310913e+001
1714761900 -4.551862e+000 4.008408e+001 -5.015593e+000 1.258048e+002 -5.018998e+000 1.257990e+002 -3.985592e+000 2.644092e+001
1775510550 -4.459072e+000 3.263402e+001 -5.207334e+000 1.182826e+002 -5.216861e+000 1.182969e+002 -3.922790e+000 1.971555e+001
1836259200 -4.367203e+000 2.536955e+001 -5.390872e+000 1.110272e+002 -5.404795e+000 1.110443e+002 -3.849568e+000 1.307967e+001
1897007850 -4.269511e+000 1.826994e+001 -5.584114e+000 1.036348e+002 -5.590552e+000 1.036468e+002 -3.780332e+000 6.374446e+000
1957756500 -4.161936e+000 1.156118e+001 -5.766995e+000 9.655054e+001 -5.777926e+000 9.655415e+001 -3.719457e+000 -3.332517e-001
2018505150 -4.058851e+000 5.117941e+000 -5.954670e+000 8.940228e+001 -5.972110e+000 8.940280e+001 -3.674065e+000 -7.142287e+000
2079253800 -3.978118e+000 -1.070222e+000 -6.137292e+000 8.246657e+001 -6.144452e+000 8.246632e+001 -3.623501e+000 -1.390127e+001
2140002450 -3.881392e+000 -6.936364e+000 -6.311183e+000 7.553574e+001 -6.329262e+000 7.553628e+001 -3.580829e+000 -2.073255e+001
2200751100 -3.806641e+000 -1.244993e+001 -6.478007e+000 6.874137e+001 -6.481833e+000 6.873303e+001 -3.545195e+000 -2.767716e+001
2261499750 -3.754603e+000 -1.770167e+001 -6.645141e+000 6.199429e+001 -6.653360e+000 6.199787e+001 -3.533288e+000 -3.461900e+001
2322248400 -3.711724e+000 -2.281011e+001 -6.790673e+000 5.536078e+001 -6.797276e+000 5.535702e+001 -3.527007e+000 -4.157531e+001
2382997050 -3.662028e+000 -2.759741e+001 -6.912814e+000 4.869565e+001 -6.920313e+000 4.868950e+001 -3.517613e+000 -4.860593e+001
2443745700 -3.666350e+000 -3.224517e+001 -7.044284e+000 4.221541e+001 -7.051138e+000 4.219199e+001 -3.541737e+000 -5.563916e+001
2504494350 -3.657055e+000 -3.682598e+001 -7.148436e+000 3.564184e+001 -7.155597e+000 3.563046e+001 -3.557894e+000 -6.269583e+001
2565243000 -3.682330e+000 -4.131984e+001 -7.235222e+000 2.912864e+001 -7.240480e+000 2.912510e+001 -3.585154e+000 -6.973195e+001
2625991650 -3.706415e+000 -4.576420e+001 -7.314238e+000 2.259277e+001 -7.331955e+000 2.259575e+001 -3.629352e+000 -7.680754e+001
2686740300 -3.764404e+000 -5.029393e+001 -7.360349e+000 1.601118e+001 -7.369987e+000 1.599013e+001 -3.655902e+000 -8.388979e+001
2747488950 -3.844421e+000 -5.489535e+001 -7.421648e+000 9.395796e+000 -7.428142e+000 9.396580e+000 -3.694768e+000 -9.090169e+001
2808237600 -3.935009e+000 -5.964582e+001 -7.464589e+000 2.764850e+000 -7.475775e+000 2.745842e+000 -3.749379e+000 -9.788937e+001
2868986250 -4.037511e+000 -6.455001e+001 -7.493107e+000 -3.952202e+000 -7.515847e+000 -3.954659e+000 -3.804691e+000 -1.048738e+002
2929734900 -4.165539e+000 -6.975453e+001 -7.513456e+000 -1.073927e+001 -7.525363e+000 -1.073633e+001 -3.833298e+000 -1.117057e+002
2990483550 -4.310737e+000 -7.520626e+001 -7.550341e+000 -1.763640e+001 -7.563086e+000 -1.764917e+001 -3.902844e+000 -1.185491e+002
3051232200 -4.466714e+000 -8.103717e+001 -7.557347e+000 -2.457805e+001 -7.568647e+000 -2.458830e+001 -3.939955e+000 -1.253299e+002
3111980850 -4.626761e+000 -8.724177e+001 -7.583053e+000 -3.165104e+001 -7.592335e+000 -3.164641e+001 -3.960535e+000 -1.319087e+002
3172729500 -4.787307e+000 -9.387682e+001 -7.597671e+000 -3.878658e+001 -7.614806e+000 -3.877686e+001 -4.001932e+000 -1.384053e+002
3233478150 -4.941155e+000 -1.007732e+002 -7.629482e+000 -4.594861e+001 -7.641777e+000 -4.594938e+001 -4.018666e+000 -1.449005e+002
3294226800 -5.073459e+000 -1.080702e+002 -7.661216e+000 -5.321763e+001 -7.673346e+000 -5.323074e+001 -4.019769e+000 -1.512716e+002
3354975450 -5.206049e+000 -1.157485e+002 -7.737101e+000 -6.058180e+001 -7.728611e+000 -6.060949e+001 -4.022520e+000 -1.575893e+002
3415724100 -5.280263e+000 -1.236051e+002 -7.785095e+000 -6.787483e+001 -7.799391e+000 -6.787056e+001 -4.034520e+000 -1.638887e+002
3476472750 -5.321194e+000 -1.315588e+002 -7.880547e+000 -7.520759e+001 -7.888135e+000 -7.521218e+001 -4.011723e+000 -1.700831e+002
3537221400 -5.325962e+000 -1.395866e+002 -7.972913e+000 -8.254295e+001 -7.976575e+000 -8.256116e+001 -3.991265e+000 -1.762754e+002
3597970050 -5.281370e+000 -1.474285e+002 -8.078593e+000 -8.979189e+001 -8.088695e+000 -8.979270e+001 -3.970026e+000 1.775552e+002
3658718700 -5.213417e+000 -1.549163e+002 -8.195870e+000 -9.698465e+001 -8.212985e+000 -9.696496e+001 -3.959465e+000 1.714532e+002
3719467350 -5.134434e+000 -1.620849e+002 -8.324868e+000 -1.040533e+002 -8.323929e+000 -1.040709e+002 -3.928857e+000 1.653010e+002
3780216000 -5.028890e+000 -1.689577e+002 -8.456586e+000 -1.110452e+002 -8.464254e+000 -1.110449e+002 -3.918591e+000 1.591501e+002
3840964650 -4.908411e+000 -1.752874e+002 -8.599615e+000 -1.179280e+002 -8.613518e+000 -1.179267e+002 -3.921844e+000 1.530106e+002
3901713300 -4.805356e+000 1.788680e+002 -8.713037e+000 -1.246651e+002 -8.719171e+000 -1.246490e+002 -3.919636e+000 1.468640e+002
3962461950 -4.697773e+000 1.733050e+002 -8.853220e+000 -1.313416e+002 -8.855075e+000 -1.313335e+002 -3.928200e+000 1.406832e+002
4023210600 -4.598546e+000 1.682876e+002 -8.946377e+000 -1.379238e+002 -8.974466e+000 -1.379214e+002 -3.954003e+000 1.345175e+002
4083959250 -4.534660e+000 1.636180e+002 -9.069440e+000 -1.443150e+002 -9.071840e+000 -1.443166e+002 -3.989631e+000 1.282622e+002
4144707900 -4.465539e+000 1.592048e+002 -9.158802e+000 -1.508298e+002 -9.159667e+000 -1.508369e+002 -4.018429e+000 1.219748e+002
4205456550 -4.427389e+000 1.550888e+002 -9.229198e+000 -1.571779e+002 -9.241448e+000 -1.571685e+002 -4.074184e+000 1.157332e+002
4266205200 -4.419906e+000 1.512137e+002 -9.288733e+000 -1.634318e+002 -9.296700e+000 -1.634371e+002 -4.140731e+000 1.095158e+002
4326953850 -4.436978e+000 1.474586e+002 -9.343725e+000 -1.698352e+002 -9.355090e+000 -1.698155e+002 -4.206231e+000 1.031360e+002
4387702500 -4.478418e+000 1.437389e+002 -9.355292e+000 -1.761371e+002 -9.367217e+000 -1.761179e+002 -4.265708e+000 9.693381e+001
4448451150 -4.543906e+000 1.398480e+002 -9.380709e+000 1.774554e+002 -9.388575e+000 1.774687e+002 -4.361695e+000 9.056369e+001
4509199800 -4.614550e+000 1.361076e+002 -9.373913e+000 1.709101e+002 -9.390637e+000 1.709094e+002 -4.431169e+000 8.412313e+001
4569948450 -4.746144e+000 1.322223e+002 -9.371324e+000 1.644851e+002 -9.378105e+000 1.644858e+002 -4.516922e+000 7.785602e+001
4630697100 -4.885166e+000 1.280741e+002 -9.336523e+000 1.578493e+002 -9.363986e+000 1.578420e+002 -4.608452e+000 7.141416e+001
4691445750 -5.044304e+000 1.238181e+002 -9.329011e+000 1.510881e+002 -9.337305e+000 1.510936e+002 -4.682421e+000 6.490002e+001
4752194400 -5.245227e+000 1.193468e+002 -9.280032e+000 1.443541e+002 -9.287995e+000 1.443656e+002 -4.744651e+000 5.854814e+001
4812943050 -5.475978e+000 1.143424e+002 -9.250184e+000 1.373940e+002 -9.248438e+000 1.374024e+002 -4.820145e+000 5.201239e+001
4873691700 -5.695202e+000 1.091349e+002 -9.188018e+000 1.303299e+002 -9.221732e+000 1.303326e+002 -4.861983e+000 4.539230e+001
4934440350 -5.972265e+000 1.032893e+002 -9.174058e+000 1.232563e+002 -9.174733e+000 1.232496e+002 -4.894882e+000 3.906688e+001
4995189000 -6.243500e+000 9.693668e+001 -9.142488e+000 1.159542e+002 -9.154182e+000 1.159595e+002 -4.933305e+000 3.253738e+001
5055937650 -6.513337e+000 9.007692e+001 -9.144437e+000 1.086602e+002 -9.149678e+000 1.086739e+002 -4.933800e+000 2.600224e+001
5116686300 -6.745376e+000 8.263549e+001 -9.141221e+000 1.013237e+002 -9.150563e+000 1.013320e+002 -4.931163e+000 1.968719e+001
5177434950 -6.918736e+000 7.488200e+001 -9.147146e+000 9.383476e+001 -9.160830e+000 9.386136e+001 -4.925282e+000 1.319856e+001
5238183600 -7.083957e+000 6.681879e+001 -9.193392e+000 8.638741e+001 -9.200547e+000 8.637930e+001 -4.888474e+000 6.690613e+000
5298932250 -7.168130e+000 5.842808e+001 -9.243382e+000 7.896909e+001 -9.252856e+000 7.899329e+001 -4.867685e+000 4.474972e-001
5359680900 -7.165095e+000 5.039577e+001 -9.285934e+000 7.151720e+001 -9.306499e+000 7.149331e+001 -4.836888e+000 -5.958387e+000
5420429550 -7.137764e+000 4.250515e+001 -9.381086e+000 6.429274e+001 -9.390788e+000 6.431467e+001 -4.821918e+000 -1.226271e+001
5481178200 -7.031749e+000 3.469624e+001 -9.452887e+000 5.698227e+001 -9.472791e+000 5.696069e+001 -4.801576e+000 -1.851301e+001
5541926850 -6.875746e+000 2.758870e+001 -9.550354e+000 4.975994e+001 -9.563881e+000 4.978897e+001 -4.789145e+000 -2.473407e+001
5602675500 -6.719114e+000 2.092933e+001 -9.662298e+000 4.275407e+001 -9.667395e+000 4.276307e+001 -4.788916e+000 -3.081509e+001
5663424150 -6.533125e+000 1.476335e+001 -9.763329e+000 3.576097e+001 -9.771694e+000 3.578212e+001 -4.806155e+000 -3.694103e+001
5724172800 -6.349537e+000 9.311632e+000 -9.865828e+000 2.892618e+001 -9.869349e+000 2.892155e+001 -4.808857e+000 -4.290959e+001
5784921450 -6.179574e+000 4.209316e+000 -9.985000e+000 2.216350e+001 -9.981781e+000 2.217975e+001 -4.865539e+000 -4.877999e+001
5845670100 -6.005373e+000 -1.762761e-001 -1.004854e+001 1.545022e+001 -1.007421e+001 1.543275e+001 -4.916508e+000 -5.475639e+001
5906418750 -5.883316e+000 -4.299635e+000 -1.013809e+001 8.770093e+000 -1.014333e+001 8.798599e+000 -4.958729e+000 -6.057719e+001
5967167400 -5.787673e+000 -8.111792e+000 -1.020462e+001 2.254993e+000 -1.021254e+001 2.253326e+000 -5.022864e+000 -6.626667e+001
6027916050 -5.712007e+000 -1.148906e+001 -1.026380e+001 -4.208242e+000 -1.027707e+001 -4.189792e+000 -5.120738e+000 -7.195910e+001
6088664700 -5.685873e+000 -1.467881e+001 -1.031038e+001 -1.077814e+001 -1.031110e+001 -1.079668e+001 -5.182541e+000 -7.767603e+001
6149413350 -5.688984e+000 -1.786063e+001 -1.032256e+001 -1.724260e+001 -1.035036e+001 -1.720999e+001 -5.267161e+000 -8.327853e+001
6210162000 -5.710488e+000 -2.079330e+001 -1.034110e+001 -2.378203e+001 -1.034540e+001 -2.378343e+001 -5.348372e+000 -8.898951e+001
6270910650 -5.772281e+000 -2.371276e+001 -1.032258e+001 -3.032984e+001 -1.033589e+001 -3.031758e+001 -5.419521e+000 -9.455173e+001
6331659300 -5.886539e+000 -2.665350e+001 -1.031689e+001 -3.684037e+001 -1.033541e+001 -3.687781e+001 -5.502594e+000 -1.001470e+002
6392407950 -6.022155e+000 -2.957952e+001 -1.027749e+001 -4.346054e+001 -1.029308e+001 -4.346371e+001 -5.574437e+000 -1.057728e+002
6453156600 -6.208289e+000 -3.273798e+001 -1.023129e+001 -5.020961e+001 -1.024839e+001 -5.021594e+001 -5.630525e+000 -1.114111e+002
6513905250 -6.437715e+000 -3.607369e+001 -1.018608e+001 -5.693947e+001 -1.020880e+001 -5.689304e+001 -5.699912e+000 -1.171691e+002
6574653900 -6.706894e+000 -3.970240e+001 -1.011507e+001 -6.382240e+001 -1.013089e+001 -6.381242e+001 -5.717271e+000 -1.229700e+002
6635402550 -7.017350e+000 -4.376785e+001 -1.004983e+001 -7.084344e+001 -1.006832e+001 -7.078995e+001 -5.757690e+000 -1.287876e+002
6696151200 -7.376688e+000 -4.823972e+001 -9.987164e+000 -7.789152e+001 -1.000647e+001 -7.789457e+001 -5.776346e+000 -1.348760e+002
6756899850 -7.765769e+000 -5.330672e+001 -9.909918e+000 -8.512080e+001 -9.924897e+000 -8.507530e+001 -5.765999e+000 -1.409275e+002
6817648500 -8.187186e+000 -5.914647e+001 -9.852814e+000 -9.238652e+001 -9.871444e+000 -9.238413e+001 -5.767004e+000 -1.470413e+002
6878397150 -8.609443e+000 -6.575144e+001 -9.797632e+000 -9.982536e+001 -9.817684e+000 -9.977833e+001 -5.760542e+000 -1.534650e+002
6939145800 -9.013733e+000 -7.311263e+001 -9.750540e+000 -1.072991e+002 -9.765979e+000 -1.073174e+002 -5.728279e+000 -1.598478e+002
6999894450 -9.376109e+000 -8.139461e+001 -9.720393e+000 -1.148691e+002 -9.743919e+000 -1.148249e+002 -5.709354e+000 -1.662201e+002
7060643100 -9.644319e+000 -9.035529e+001 -9.702896e+000 -1.225367e+002 -9.720735e+000 -1.225247e+002 -5.687474e+000 -1.728629e+002
7121391750 -9.782411e+000 -9.991920e+001 -9.712124e+000 -1.301651e+002 -9.729038e+000 -1.301018e+002 -5.661066e+000 -1.793708e+002
7182140400 -9.766448e+000 -1.096182e+002 -9.733219e+000 -1.377949e+002 -9.758957e+000 -1.377870e+002 -5.643215e+000 1.741542e+002
7242889050 -9.604357e+000 -1.189905e+002 -9.776516e+000 -1.454719e+002 -9.794034e+000 -1.454223e+002 -5.645796e+000 1.676235e+002
7303637700 -9.326372e+000 -1.278191e+002 -9.831847e+000 -1.530459e+002 -9.854454e+000 -1.530567e+002 -5.635789e+000 1.612160e+002
7364386350 -8.952735e+000 -1.358547e+002 -9.907998e+000 -1.606403e+002 -9.936242e+000 -1.605801e+002 -5.650738e+000 1.549183e+002
7425135000 -8.526426e+000 -1.429271e+002 -9.993079e+000 -1.680943e+002 -1.001001e+001 -1.680908e+002 -5.673831e+000 1.486270e+002
7485883650 -8.097492e+000 -1.492240e+002 -1.008722e+001 -1.755223e+002 -1.011396e+001 -1.754390e+002 -5.683204e+000 1.424965e+002
7546632300 -7.665525e+000 -1.546323e+002 -1.020456e+001 1.772147e+002 -1.022343e+001 1.772283e+002 -5.707085e+000 1.365364e+002
7607380950 -7.241558e+000 -1.591660e+002 -1.030044e+001 1.700170e+002 -1.031513e+001 1.700863e+002 -5.734491e+000 1.307314e+002
7668129600 -6.874942e+000 -1.631047e+002 -1.040702e+001 1.629261e+002 -1.043595e+001 1.629842e+002 -5.747830e+000 1.249611e+002
7728878250 -6.550814e+000 -1.664875e+002 -1.052885e+001 1.559591e+002 -1.054472e+001 1.560323e+002 -5.757895e+000 1.194121e+002
7789626900 -6.234358e+000 -1.692770e+002 -1.060334e+001 1.491234e+002 -1.061849e+001 1.491618e+002 -5.764163e+000 1.139387e+002
7850375550 -5.995944e+000 -1.717503e+002 -1.070281e+001 1.422960e+002 -1.072567e+001 1.423765e+002 -5.763031e+000 1.085326e+002
7911124200 -5.793690e+000 -1.739613e+002 -1.078197e+001 1.356387e+002 -1.080015e+001 1.356895e+002 -5.740668e+000 1.031617e+002
7971872850 -5.596194e+000 -1.757443e+002 -1.082750e+001 1.290569e+002 -1.084474e+001 1.291558e+002 -5.723466e+000 9.787176e+001
8032621500 -5.481688e+000 -1.773984e+002 -1.088818e+001 1.224611e+002 -1.091147e+001 1.225303e+002 -5.683562e+000 9.245866e+001
8093370150 -5.391423e+000 -1.790168e+002 -1.091431e+001 1.159343e+002 -1.092589e+001 1.160332e+002 -5.632190e+000 8.713793e+001
8154118800 -5.314827e+000 1.796256e+002 -1.091401e+001 1.095273e+002 -1.093460e+001 1.096220e+002 -5.588593e+000 8.162241e+001
8214867450 -5.319836e+000 1.781844e+002 -1.093097e+001 1.029385e+002 -1.095144e+001 1.030270e+002 -5.514733e+000 7.611580e+001
8275616100 -5.338413e+000 1.766268e+002 -1.089174e+001 9.649820e+001 -1.091162e+001 9.661437e+001 -5.443923e+000 7.068101e+001
8336364750 -5.392834e+000 1.750869e+002 -1.085222e+001 9.001791e+001 -1.086972e+001 9.013100e+001 -5.403901e+000 6.490481e+001
8397113400 -5.508772e+000 1.732326e+002 -1.078994e+001 8.328189e+001 -1.081499e+001 8.338565e+001 -5.318572e+000 5.897586e+001
8457862050 -5.652314e+000 1.712267e+002 -1.071057e+001 7.670790e+001 -1.072711e+001 7.681559e+001 -5.259651e+000 5.318750e+001
8518610700 -5.868386e+000 1.688875e+002 -1.061539e+001 6.995432e+001 -1.064487e+001 7.004654e+001 -5.218482e+000 4.692395e+001
8579359350 -6.126341e+000 1.659870e+002 -1.052444e+001 6.296304e+001 -1.054236e+001 6.307786e+001 -5.144481e+000 4.070957e+001
8640108000 -6.428692e+000 1.627284e+002 -1.040770e+001 5.604640e+001 -1.043016e+001 5.619192e+001 -5.107103e+000 3.457824e+001
8700856650 -6.823534e+000 1.587684e+002 -1.028840e+001 4.889101e+001 -1.030826e+001 4.898883e+001 -5.102067e+000 2.807734e+001
8761605300 -7.265193e+000 1.538221e+002 -1.017287e+001 4.138876e+001 -1.019439e+001 4.153003e+001 -5.061193e+000 2.137408e+001
8822353950 -7.746563e+000 1.481305e+002 -1.007010e+001 3.407972e+001 -1.008979e+001 3.418220e+001 -5.060833e+000 1.502249e+001
8883102600 -8.334589e+000 1.410382e+002 -9.962598e+000 2.623932e+001 -9.988647e+000 2.637616e+001 -5.089720e+000 8.297268e+000
8943851250 -8.871422e+000 1.323710e+002 -9.882823e+000 1.838468e+001 -9.894498e+000 1.847407e+001 -5.090757e+000 1.552018e+000
9004599900 -9.378073e+000 1.224099e+002 -9.833842e+000 1.041263e+001 -9.854426e+000 1.055797e+001 -5.125870e+000 -4.918530e+000
9065348550 -9.785970e+000 1.106118e+002 -9.803388e+000 2.189053e+000 -9.816655e+000 2.281368e+000 -5.181209e+000 -1.145777e+001
9126097200 -9.894142e+000 9.792426e+001 -9.806142e+000 -6.015568e+000 -9.823713e+000 -5.855263e+000 -5.207673e+000 -1.797715e+001
9186845850 -9.781500e+000 8.529577e+001 -9.857350e+000 -1.413621e+001 -9.878278e+000 -1.399831e+001 -5.243794e+000 -2.421369e+001
9247594500 -9.445971e+000 7.278752e+001 -9.930979e+000 -2.251772e+001 -9.945160e+000 -2.236985e+001 -5.274242e+000 -3.042938e+001
9308343150 -8.842793e+000 6.181247e+001 -1.004389e+001 -3.048388e+001 -1.004913e+001 -3.034695e+001 -5.274055e+000 -3.657449e+001
9369091800 -8.224607e+000 5.238499e+001 -1.018097e+001 -3.850008e+001 -1.020305e+001 -3.836982e+001 -5.265142e+000 -4.248520e+001
9429840450 -7.567604e+000 4.409759e+001 -1.032648e+001 -4.650283e+001 -1.033724e+001 -4.637610e+001 -5.240908e+000 -4.842004e+001
9490589100 -6.894871e+000 3.754780e+001 -1.051246e+001 -5.400333e+001 -1.053068e+001 -5.382507e+001 -5.204370e+000 -5.438387e+001
9551337750 -6.349178e+000 3.202901e+001 -1.069382e+001 -6.148579e+001 -1.071360e+001 -6.135654e+001 -5.126750e+000 -6.028752e+001
9612086400 -5.838555e+000 2.713267e+001 -1.086934e+001 -6.888490e+001 -1.088770e+001 -6.870197e+001 -5.055253e+000 -6.603885e+001
9672835050 -5.379377e+000 2.338113e+001 -1.107879e+001 -7.573760e+001 -1.108937e+001 -7.559011e+001 -5.002772e+000 -7.213445e+001
9733583700 -5.036653e+000 2.014254e+001 -1.124569e+001 -8.266121e+001 -1.126543e+001 -8.250275e+001 -4.888954e+000 -7.820972e+001
9794332350 -4.726024e+000 1.720331e+001 -1.139891e+001 -8.939655e+001 -1.141269e+001 -8.925456e+001 -4.808915e+000 -8.416541e+001
9855081000 -4.473323e+000 1.500349e+001 -1.158192e+001 -9.571795e+001 -1.159617e+001 -9.552523e+001 -4.755538e+000 -9.046719e+001
9915829650 -4.302464e+000 1.289239e+001 -1.169141e+001 -1.022543e+002 -1.170007e+001 -1.021086e+002 -4.649421e+000 -9.680888e+001
9976578300 -4.154154e+000 1.098959e+001 -1.178916e+001 -1.085419e+002 -1.180274e+001 -1.083560e+002 -4.588026e+000 -1.029055e+002
10037326950 -4.072943e+000 9.503752e+000 -1.191375e+001 -1.145248e+002 -1.192129e+001 -1.143751e+002 -4.552644e+000 -1.094270e+002
10098075600 -4.034293e+000 7.875381e+000 -1.193777e+001 -1.208216e+002 -1.194400e+001 -1.206140e+002 -4.465301e+000 -1.159170e+002
10158824250 -4.039654e+000 6.524011e+000 -1.196545e+001 -1.268654e+002 -1.197116e+001 -1.266929e+002 -4.434465e+000 -1.222412e+002
10219572900 -4.120223e+000 5.068413e+000 -1.200188e+001 -1.329518e+002 -1.200585e+001 -1.327658e+002 -4.423893e+000 -1.289261e+002
10280321550 -4.227376e+000 3.264657e+000 -1.192917e+001 -1.393413e+002 -1.193677e+001 -1.392028e+002 -4.371969e+000 -1.356966e+002
10341070200 -4.398591e+000 1.643056e+000 -1.190676e+001 -1.455381e+002 -1.191657e+001 -1.453434e+002 -4.385692e+000 -1.421409e+002
10401818850 -4.655296e+000 -2.662010e-001 -1.185840e+001 -1.519743e+002 -1.186446e+001 -1.517960e+002 -4.376247e+000 -1.490258e+002
10462567500 -4.969182e+000 -2.820694e+000 -1.172157e+001 -1.585434e+002 -1.172653e+001 -1.583517e+002 -4.354083e+000 -1.556502e+002
10523316150 -5.360319e+000 -5.558570e+000 -1.166172e+001 -1.653249e+002 -1.167431e+001 -1.650989e+002 -4.391915e+000 -1.623757e+002
