!Agilent Technologies,N5230C,MY48100320,A.08.04.10
!Agilent N5230C: A.08.04.10
!Date: Friday, September 23, 2016 16:39:59
!Correction: S11(Full 2 Port(1,2)) 
!S21(Full 2 Port(1,2)) 
!S12(Full 2 Port(1,2)) 
!S22(Full 2 Port(1,2)) 
!S2P File: Measurements: S11, S21, S12, S22:
# Hz S  dB   R 50
300000 -2.684303e+001 7.859976e+001 -7.229201e-002 -2.827937e+000 -6.914660e-002 -2.803404e+000 -2.528381e+001 7.743574e+001
17174625 -5.759035e+001 1.480802e+002 8.245448e-003 -1.048176e+000 2.789960e-003 -1.062178e+000 -5.738162e+001 9.352823e+001
34049250 -5.513497e+001 -9.999487e+001 8.688178e-004 -1.862709e+000 -2.701285e-003 -1.854128e+000 -5.617622e+001 -8.996512e+001
50923875 -5.186640e+001 -7.875734e+001 -7.758279e-003 -2.749614e+000 -8.434824e-003 -2.740187e+000 -4.956628e+001 -7.592789e+001
67798500 -4.816796e+001 -7.895217e+001 -3.057603e-003 -3.666407e+000 -8.141812e-003 -3.646684e+000 -4.755102e+001 -8.923499e+001
84673125 -4.573278e+001 -8.093048e+001 -8.361003e-003 -4.559656e+000 -8.944945e-003 -4.560764e+000 -4.590932e+001 -8.532785e+001
101547750 -4.363167e+001 -8.860643e+001 -7.261158e-003 -5.462541e+000 -1.530894e-002 -5.467894e+000 -4.446187e+001 -8.689447e+001
118422375 -4.242384e+001 -8.603410e+001 -3.508813e-003 -6.373778e+000 -1.134000e-002 -6.381628e+000 -4.308296e+001 -8.628996e+001
135297000 -4.097413e+001 -9.159896e+001 -9.829186e-003 -7.257993e+000 -1.559856e-002 -7.302341e+000 -4.115821e+001 -8.761395e+001
152171625 -3.914372e+001 -9.264553e+001 -7.634672e-003 -8.205512e+000 -1.554384e-002 -8.138955e+000 -4.039118e+001 -9.498669e+001
169046250 -3.884144e+001 -9.371746e+001 -1.053504e-002 -9.048316e+000 -1.048982e-002 -9.094425e+000 -3.943518e+001 -9.227469e+001
185920875 -3.860788e+001 -9.762932e+001 -1.055617e-002 -9.940786e+000 -1.665808e-002 -9.978671e+000 -3.842386e+001 -9.452270e+001
202795500 -3.770197e+001 -1.011341e+002 -1.390938e-002 -1.087672e+001 -1.470966e-002 -1.086447e+001 -3.765678e+001 -9.057592e+001
219670125 -3.699282e+001 -1.023214e+002 -1.543071e-002 -1.178691e+001 -1.587177e-002 -1.176389e+001 -3.690850e+001 -9.309200e+001
236544750 -3.621956e+001 -1.028696e+002 -1.112663e-002 -1.266220e+001 -1.865154e-002 -1.266400e+001 -3.648424e+001 -9.262394e+001
253419375 -3.572304e+001 -1.035912e+002 -1.195365e-002 -1.356132e+001 -1.810837e-002 -1.354186e+001 -3.587520e+001 -9.228724e+001
270294000 -3.476356e+001 -1.073204e+002 -1.291553e-002 -1.444774e+001 -1.959506e-002 -1.446333e+001 -3.542388e+001 -9.313599e+001
287168625 -3.451429e+001 -1.083344e+002 -1.391576e-002 -1.533539e+001 -1.974387e-002 -1.534600e+001 -3.502308e+001 -9.404002e+001
304043250 -3.393870e+001 -1.109088e+002 -1.056104e-002 -1.624914e+001 -1.678645e-002 -1.623655e+001 -3.455469e+001 -9.760107e+001
320917875 -3.359955e+001 -1.107534e+002 -1.733562e-002 -1.713719e+001 -1.322441e-002 -1.715387e+001 -3.380330e+001 -9.722040e+001
337792500 -3.321631e+001 -1.115791e+002 -1.472451e-002 -1.805938e+001 -2.437890e-002 -1.804719e+001 -3.354573e+001 -9.747980e+001
354667125 -3.267313e+001 -1.129242e+002 -1.734337e-002 -1.892468e+001 -2.002906e-002 -1.894931e+001 -3.334718e+001 -9.981989e+001
371541750 -3.251693e+001 -1.150245e+002 -1.745210e-002 -1.983700e+001 -2.278349e-002 -1.982317e+001 -3.293988e+001 -9.870750e+001
388416375 -3.212658e+001 -1.159066e+002 -2.051053e-002 -2.072485e+001 -2.110371e-002 -2.073865e+001 -3.265219e+001 -9.935773e+001
405291000 -3.193501e+001 -1.180210e+002 -1.644951e-002 -2.161581e+001 -2.318145e-002 -2.163240e+001 -3.242663e+001 -9.933743e+001
422165625 -3.158436e+001 -1.187000e+002 -2.052739e-002 -2.252588e+001 -2.127841e-002 -2.252475e+001 -3.224358e+001 -1.017140e+002
439040250 -3.151095e+001 -1.209839e+002 -2.062473e-002 -2.340853e+001 -2.325510e-002 -2.341476e+001 -3.169793e+001 -1.013397e+002
455914875 -3.097661e+001 -1.234988e+002 -2.333849e-002 -2.432054e+001 -2.477098e-002 -2.432242e+001 -3.112046e+001 -1.014314e+002
472789500 -3.047376e+001 -1.227829e+002 -2.274528e-002 -2.523274e+001 -2.321295e-002 -2.521115e+001 -3.083025e+001 -1.017969e+002
489664125 -2.992760e+001 -1.253163e+002 -1.731467e-002 -2.612974e+001 -2.655788e-002 -2.610318e+001 -3.051826e+001 -1.024930e+002
506538750 -2.939937e+001 -1.266783e+002 -2.135952e-002 -2.701128e+001 -2.324471e-002 -2.701866e+001 -2.974289e+001 -1.030655e+002
523413375 -2.887451e+001 -1.278585e+002 -2.371842e-002 -2.788275e+001 -2.765973e-002 -2.789015e+001 -2.926909e+001 -1.038494e+002
540288000 -2.846493e+001 -1.295389e+002 -2.283714e-002 -2.880896e+001 -2.570133e-002 -2.879791e+001 -2.889099e+001 -1.038811e+002
557162625 -2.827982e+001 -1.307565e+002 -2.729868e-002 -2.970105e+001 -2.796077e-002 -2.968917e+001 -2.856929e+001 -1.041266e+002
574037250 -2.797383e+001 -1.329066e+002 -2.675453e-002 -3.059718e+001 -2.862783e-002 -3.059090e+001 -2.821929e+001 -1.060089e+002
590911875 -2.761373e+001 -1.336930e+002 -2.961370e-002 -3.148737e+001 -2.828506e-002 -3.147742e+001 -2.791021e+001 -1.059510e+002
607786500 -2.754514e+001 -1.353510e+002 -2.376845e-002 -3.237306e+001 -3.128390e-002 -3.237510e+001 -2.787948e+001 -1.059452e+002
624661125 -2.741346e+001 -1.365515e+002 -2.919695e-002 -3.329041e+001 -3.174759e-002 -3.327619e+001 -2.778573e+001 -1.064514e+002
641535750 -2.726115e+001 -1.384240e+002 -2.949096e-002 -3.416131e+001 -2.811122e-002 -3.415675e+001 -2.760189e+001 -1.073016e+002
658410375 -2.722944e+001 -1.396167e+002 -2.951878e-002 -3.507261e+001 -3.053006e-002 -3.506591e+001 -2.754087e+001 -1.073545e+002
675285000 -2.699298e+001 -1.415736e+002 -2.579655e-002 -3.597910e+001 -3.458707e-002 -3.595890e+001 -2.722441e+001 -1.075566e+002
692159625 -2.680938e+001 -1.423085e+002 -3.000414e-002 -3.688684e+001 -3.234826e-002 -3.684850e+001 -2.698597e+001 -1.083948e+002
709034250 -2.658534e+001 -1.433913e+002 -3.097429e-002 -3.779787e+001 -3.766527e-002 -3.779050e+001 -2.671867e+001 -1.091718e+002
725908875 -2.650661e+001 -1.449893e+002 -3.759639e-002 -3.868730e+001 -3.444637e-002 -3.868227e+001 -2.652953e+001 -1.098391e+002
742783500 -2.612723e+001 -1.455066e+002 -3.606649e-002 -3.957082e+001 -3.886760e-002 -3.956878e+001 -2.627776e+001 -1.110225e+002
759658125 -2.591989e+001 -1.455428e+002 -3.843350e-002 -4.048265e+001 -4.190087e-002 -4.049556e+001 -2.611672e+001 -1.117724e+002
776532750 -2.568134e+001 -1.471662e+002 -3.636150e-002 -4.135686e+001 -4.133738e-002 -4.134197e+001 -2.591765e+001 -1.122791e+002
793407375 -2.555322e+001 -1.482392e+002 -4.166868e-002 -4.225421e+001 -3.941206e-002 -4.227589e+001 -2.576632e+001 -1.133697e+002
810282000 -2.552320e+001 -1.493262e+002 -3.739469e-002 -4.317809e+001 -4.725166e-002 -4.315073e+001 -2.555321e+001 -1.139368e+002
827156625 -2.527377e+001 -1.506571e+002 -3.938922e-002 -4.404315e+001 -4.269840e-002 -4.403643e+001 -2.543498e+001 -1.154678e+002
844031250 -2.525114e+001 -1.522135e+002 -4.492342e-002 -4.492105e+001 -4.171698e-002 -4.492805e+001 -2.532091e+001 -1.160616e+002
860905875 -2.508158e+001 -1.524073e+002 -4.298390e-002 -4.583892e+001 -4.850290e-002 -4.579076e+001 -2.511680e+001 -1.162320e+002
877780500 -2.501240e+001 -1.541268e+002 -3.947872e-002 -4.673116e+001 -4.855813e-002 -4.672569e+001 -2.501369e+001 -1.174855e+002
894655125 -2.485297e+001 -1.548352e+002 -4.253563e-002 -4.759076e+001 -4.434860e-002 -4.762620e+001 -2.486670e+001 -1.179173e+002
911529750 -2.468707e+001 -1.554602e+002 -4.515448e-002 -4.850398e+001 -4.573136e-002 -4.851097e+001 -2.469166e+001 -1.184289e+002
928404375 -2.456713e+001 -1.565259e+002 -4.364980e-002 -4.939152e+001 -5.027380e-002 -4.942405e+001 -2.444106e+001 -1.188259e+002
945279000 -2.425518e+001 -1.574578e+002 -4.166962e-002 -5.028379e+001 -4.234844e-002 -5.030400e+001 -2.430647e+001 -1.203517e+002
962153625 -2.407541e+001 -1.587409e+002 -4.365959e-002 -5.119255e+001 -4.773482e-002 -5.118655e+001 -2.415699e+001 -1.211209e+002
979028250 -2.395424e+001 -1.594915e+002 -4.892281e-002 -5.208372e+001 -4.934171e-002 -5.208693e+001 -2.398811e+001 -1.222344e+002
995902875 -2.374224e+001 -1.605818e+002 -4.690436e-002 -5.295055e+001 -4.717031e-002 -5.298621e+001 -2.375355e+001 -1.239826e+002
1012777500 -2.352646e+001 -1.614173e+002 -4.437982e-002 -5.387733e+001 -4.678970e-002 -5.386969e+001 -2.366403e+001 -1.247997e+002
1029652125 -2.341830e+001 -1.623739e+002 -4.746225e-002 -5.476555e+001 -4.923351e-002 -5.476593e+001 -2.355154e+001 -1.257879e+002
1046526750 -2.337690e+001 -1.634873e+002 -4.377048e-002 -5.564922e+001 -4.899166e-002 -5.566653e+001 -2.351612e+001 -1.266030e+002
1063401375 -2.325986e+001 -1.650605e+002 -4.803613e-002 -5.656413e+001 -5.109364e-002 -5.655560e+001 -2.345941e+001 -1.273015e+002
1080276000 -2.318342e+001 -1.665391e+002 -4.857498e-002 -5.746410e+001 -4.999518e-002 -5.745666e+001 -2.330330e+001 -1.283141e+002
1097150625 -2.314559e+001 -1.668686e+002 -4.537438e-002 -5.833702e+001 -5.062675e-002 -5.834428e+001 -2.318144e+001 -1.284811e+002
1114025250 -2.310382e+001 -1.682818e+002 -4.373177e-002 -5.923935e+001 -5.175032e-002 -5.923962e+001 -2.315573e+001 -1.289740e+002
1130899875 -2.298499e+001 -1.691773e+002 -4.694017e-002 -6.015938e+001 -5.603174e-002 -6.015729e+001 -2.298874e+001 -1.299039e+002
1147774500 -2.286798e+001 -1.701366e+002 -4.953321e-002 -6.104344e+001 -5.232306e-002 -6.106555e+001 -2.284199e+001 -1.309479e+002
1164649125 -2.270050e+001 -1.709676e+002 -5.108118e-002 -6.193035e+001 -5.237160e-002 -6.195082e+001 -2.280707e+001 -1.319756e+002
1181523750 -2.255511e+001 -1.719808e+002 -4.881482e-002 -6.283730e+001 -4.986430e-002 -6.284357e+001 -2.276689e+001 -1.333246e+002
1198398375 -2.239862e+001 -1.728369e+002 -5.351681e-002 -6.373858e+001 -6.063175e-002 -6.372561e+001 -2.259135e+001 -1.342797e+002
1215273000 -2.227661e+001 -1.736274e+002 -5.621717e-002 -6.462853e+001 -5.426521e-002 -6.462450e+001 -2.239196e+001 -1.353210e+002
1232147625 -2.222452e+001 -1.743365e+002 -5.430493e-002 -6.550085e+001 -5.807621e-002 -6.550037e+001 -2.228072e+001 -1.359735e+002
1249022250 -2.210864e+001 -1.751509e+002 -5.393745e-002 -6.639862e+001 -5.677754e-002 -6.641550e+001 -2.216095e+001 -1.372147e+002
1265896875 -2.203588e+001 -1.762537e+002 -5.800510e-002 -6.729424e+001 -5.886012e-002 -6.730497e+001 -2.212729e+001 -1.382913e+002
1282771500 -2.193176e+001 -1.769559e+002 -5.299548e-002 -6.817953e+001 -5.893329e-002 -6.818305e+001 -2.202164e+001 -1.386190e+002
1299646125 -2.188415e+001 -1.781847e+002 -5.341610e-002 -6.909915e+001 -5.977879e-002 -6.907272e+001 -2.196984e+001 -1.394615e+002
1316520750 -2.181242e+001 -1.790863e+002 -5.674795e-002 -6.998686e+001 -5.935780e-002 -6.997046e+001 -2.186172e+001 -1.404597e+002
1333395375 -2.170331e+001 -1.795652e+002 -5.544305e-002 -7.085745e+001 -5.923997e-002 -7.088270e+001 -2.180446e+001 -1.417236e+002
1350270000 -2.163374e+001 1.792899e+002 -5.967859e-002 -7.177772e+001 -5.728137e-002 -7.177876e+001 -2.172647e+001 -1.425630e+002
1367144625 -2.149143e+001 1.781192e+002 -5.922491e-002 -7.267326e+001 -5.835922e-002 -7.269251e+001 -2.152819e+001 -1.435889e+002
1384019250 -2.127122e+001 1.774581e+002 -5.859925e-002 -7.357211e+001 -6.303994e-002 -7.356209e+001 -2.147021e+001 -1.449256e+002
1400893875 -2.118184e+001 1.760270e+002 -6.599094e-002 -7.447451e+001 -6.064949e-002 -7.444873e+001 -2.129396e+001 -1.458970e+002
1417768500 -2.107604e+001 1.755992e+002 -6.065327e-002 -7.535564e+001 -5.881158e-002 -7.534114e+001 -2.129460e+001 -1.468158e+002
1434643125 -2.095843e+001 1.752258e+002 -6.059848e-002 -7.624567e+001 -6.296527e-002 -7.621657e+001 -2.107801e+001 -1.477166e+002
1451517750 -2.089501e+001 1.738214e+002 -6.639333e-002 -7.712436e+001 -6.727090e-002 -7.712766e+001 -2.098518e+001 -1.488048e+002
1468392375 -2.082421e+001 1.730363e+002 -5.797661e-002 -7.802073e+001 -6.309588e-002 -7.803803e+001 -2.092640e+001 -1.494692e+002
1485267000 -2.075268e+001 1.720511e+002 -5.819958e-002 -7.892632e+001 -5.983083e-002 -7.895586e+001 -2.081493e+001 -1.502092e+002
1502141625 -2.075250e+001 1.709828e+002 -7.287946e-002 -7.987847e+001 -6.682589e-002 -7.984438e+001 -2.082921e+001 -1.514106e+002
1519016250 -2.066945e+001 1.705896e+002 -6.280073e-002 -8.070513e+001 -7.436413e-002 -8.068610e+001 -2.081193e+001 -1.525007e+002
1535890875 -2.058556e+001 1.690509e+002 -6.065638e-002 -8.158109e+001 -7.057770e-002 -8.159988e+001 -2.071208e+001 -1.530747e+002
1552765500 -2.053721e+001 1.683126e+002 -6.468390e-002 -8.248445e+001 -6.538778e-002 -8.247430e+001 -2.068336e+001 -1.544064e+002
1569640125 -2.042193e+001 1.673750e+002 -7.361036e-002 -8.339474e+001 -7.338851e-002 -8.336549e+001 -2.061963e+001 -1.555588e+002
1586514750 -2.032973e+001 1.668835e+002 -7.269489e-002 -8.428865e+001 -6.476754e-002 -8.427991e+001 -2.042694e+001 -1.563016e+002
1603389375 -2.015540e+001 1.662562e+002 -7.006381e-002 -8.520554e+001 -6.857932e-002 -8.518390e+001 -2.027413e+001 -1.579532e+002
1620264000 -2.004027e+001 1.658059e+002 -7.630096e-002 -8.610422e+001 -7.271244e-002 -8.607114e+001 -2.018940e+001 -1.584624e+002
1637138625 -1.998667e+001 1.641369e+002 -7.490271e-002 -8.696208e+001 -8.115708e-002 -8.697845e+001 -2.012407e+001 -1.598203e+002
1654013250 -1.989467e+001 1.641299e+002 -6.915164e-002 -8.785720e+001 -7.352781e-002 -8.788313e+001 -2.000481e+001 -1.606249e+002
1670887875 -1.982684e+001 1.626934e+002 -7.135798e-002 -8.875834e+001 -8.026681e-002 -8.876669e+001 -1.992275e+001 -1.616334e+002
1687762500 -1.970132e+001 1.619458e+002 -7.330249e-002 -8.966318e+001 -7.677176e-002 -8.965353e+001 -1.986656e+001 -1.621101e+002
1704637125 -1.974958e+001 1.611928e+002 -7.647493e-002 -9.054718e+001 -7.395921e-002 -9.057672e+001 -1.980911e+001 -1.634515e+002
1721511750 -1.964901e+001 1.602257e+002 -7.725684e-002 -9.146230e+001 -8.159863e-002 -9.144650e+001 -1.974325e+001 -1.640936e+002
1738386375 -1.960633e+001 1.593259e+002 -7.518388e-002 -9.234952e+001 -7.211803e-002 -9.233087e+001 -1.967825e+001 -1.652539e+002
1755261000 -1.954709e+001 1.581340e+002 -8.159760e-002 -9.325142e+001 -7.612183e-002 -9.323090e+001 -1.959306e+001 -1.663842e+002
1772135625 -1.946449e+001 1.574671e+002 -7.917745e-002 -9.414864e+001 -8.228796e-002 -9.413695e+001 -1.955627e+001 -1.673652e+002
1789010250 -1.936041e+001 1.564163e+002 -8.285128e-002 -9.501688e+001 -8.388511e-002 -9.501509e+001 -1.948828e+001 -1.684565e+002
1805884875 -1.924093e+001 1.555191e+002 -8.423395e-002 -9.592585e+001 -8.800919e-002 -9.591938e+001 -1.938785e+001 -1.693082e+002
1822759500 -1.917741e+001 1.547734e+002 -8.745628e-002 -9.680395e+001 -8.247065e-002 -9.683543e+001 -1.921978e+001 -1.702365e+002
1839634125 -1.911498e+001 1.542009e+002 -8.632345e-002 -9.771913e+001 -8.797668e-002 -9.773815e+001 -1.914710e+001 -1.714207e+002
1856508750 -1.898004e+001 1.531785e+002 -8.800313e-002 -9.862270e+001 -8.770554e-002 -9.861555e+001 -1.905033e+001 -1.723018e+002
1873383375 -1.892119e+001 1.525461e+002 -8.543806e-002 -9.955233e+001 -8.765391e-002 -9.949466e+001 -1.900026e+001 -1.731458e+002
1890258000 -1.882115e+001 1.514604e+002 -7.948499e-002 -1.003921e+002 -8.454952e-002 -1.004123e+002 -1.892853e+001 -1.740552e+002
1907132625 -1.876656e+001 1.503655e+002 -8.943220e-002 -1.013049e+002 -8.540285e-002 -1.012936e+002 -1.885443e+001 -1.748062e+002
1924007250 -1.872481e+001 1.494327e+002 -8.982204e-002 -1.022079e+002 -9.073003e-002 -1.022015e+002 -1.874864e+001 -1.755100e+002
1940881875 -1.865706e+001 1.488672e+002 -8.650079e-002 -1.031221e+002 -9.389185e-002 -1.030761e+002 -1.872068e+001 -1.761117e+002
1957756500 -1.860096e+001 1.478510e+002 -8.558191e-002 -1.040062e+002 -9.153663e-002 -1.039986e+002 -1.862602e+001 -1.772899e+002
1974631125 -1.850846e+001 1.467048e+002 -8.598160e-002 -1.048792e+002 -9.848171e-002 -1.049150e+002 -1.857968e+001 -1.782234e+002
1991505750 -1.846433e+001 1.460249e+002 -9.449208e-002 -1.057806e+002 -9.602202e-002 -1.057690e+002 -1.849239e+001 -1.790249e+002
2008380375 -1.834646e+001 1.448569e+002 -8.906730e-002 -1.066603e+002 -9.532539e-002 -1.066889e+002 -1.839741e+001 1.796795e+002
2025255000 -1.826540e+001 1.443242e+002 -9.284700e-002 -1.075700e+002 -9.767547e-002 -1.075720e+002 -1.833267e+001 1.788044e+002
2042129625 -1.813449e+001 1.429500e+002 -9.461821e-002 -1.084790e+002 -9.904724e-002 -1.084528e+002 -1.824207e+001 1.783644e+002
2059004250 -1.806001e+001 1.427321e+002 -9.566200e-002 -1.093904e+002 -1.002610e-001 -1.093699e+002 -1.811966e+001 1.774070e+002
2075878875 -1.804746e+001 1.416887e+002 -9.665110e-002 -1.102702e+002 -1.048614e-001 -1.102705e+002 -1.801351e+001 1.765633e+002
2092753500 -1.789627e+001 1.407640e+002 -9.966209e-002 -1.111820e+002 -1.086287e-001 -1.111724e+002 -1.796042e+001 1.754711e+002
2109628125 -1.785009e+001 1.397205e+002 -1.013414e-001 -1.120608e+002 -1.053031e-001 -1.120531e+002 -1.787461e+001 1.746135e+002
2126502750 -1.775434e+001 1.385765e+002 -9.829747e-002 -1.129533e+002 -9.705769e-002 -1.129248e+002 -1.778066e+001 1.736589e+002
2143377375 -1.772618e+001 1.376990e+002 -9.943153e-002 -1.138440e+002 -1.035118e-001 -1.138330e+002 -1.777268e+001 1.731196e+002
2160252000 -1.767047e+001 1.367286e+002 -1.065274e-001 -1.147542e+002 -1.067536e-001 -1.147284e+002 -1.770733e+001 1.725402e+002
2177126625 -1.755953e+001 1.359912e+002 -1.120078e-001 -1.156558e+002 -1.105018e-001 -1.156492e+002 -1.767067e+001 1.718805e+002
2194001250 -1.756015e+001 1.350304e+002 -9.479470e-002 -1.165346e+002 -1.133624e-001 -1.165666e+002 -1.752149e+001 1.709994e+002
2210875875 -1.745258e+001 1.339284e+002 -9.363219e-002 -1.174656e+002 -1.019842e-001 -1.174334e+002 -1.743546e+001 1.700554e+002
2227750500 -1.734842e+001 1.332361e+002 -1.079599e-001 -1.183382e+002 -1.100571e-001 -1.183369e+002 -1.739675e+001 1.689577e+002
2244625125 -1.726767e+001 1.317661e+002 -1.121267e-001 -1.192667e+002 -1.172035e-001 -1.192304e+002 -1.734093e+001 1.681909e+002
2261499750 -1.715861e+001 1.309922e+002 -1.184563e-001 -1.201528e+002 -1.118997e-001 -1.201015e+002 -1.722787e+001 1.671348e+002
2278374375 -1.707660e+001 1.299205e+002 -1.174327e-001 -1.210182e+002 -1.230562e-001 -1.210236e+002 -1.713430e+001 1.667480e+002
2295249000 -1.700591e+001 1.289986e+002 -1.126608e-001 -1.219289e+002 -1.228274e-001 -1.218930e+002 -1.706729e+001 1.660289e+002
2312123625 -1.697670e+001 1.281120e+002 -1.193456e-001 -1.228185e+002 -1.212414e-001 -1.228055e+002 -1.694021e+001 1.651499e+002
2328998250 -1.690448e+001 1.268998e+002 -1.188068e-001 -1.237186e+002 -1.222842e-001 -1.237010e+002 -1.692439e+001 1.644816e+002
2345872875 -1.683187e+001 1.259307e+002 -1.260875e-001 -1.246043e+002 -1.230761e-001 -1.246136e+002 -1.682244e+001 1.635618e+002
2362747500 -1.678282e+001 1.251209e+002 -1.038180e-001 -1.255058e+002 -1.196131e-001 -1.254935e+002 -1.675909e+001 1.628248e+002
2379622125 -1.665368e+001 1.238798e+002 -1.208148e-001 -1.263946e+002 -1.232645e-001 -1.264066e+002 -1.672282e+001 1.622406e+002
2396496750 -1.660700e+001 1.228861e+002 -1.318640e-001 -1.273042e+002 -1.284353e-001 -1.272970e+002 -1.668185e+001 1.617503e+002
2413371375 -1.657741e+001 1.216757e+002 -1.349704e-001 -1.281697e+002 -1.258167e-001 -1.281894e+002 -1.656434e+001 1.608543e+002
2430246000 -1.648233e+001 1.206567e+002 -1.245948e-001 -1.291011e+002 -1.257871e-001 -1.290832e+002 -1.650207e+001 1.601511e+002
2447120625 -1.640607e+001 1.195787e+002 -1.344065e-001 -1.299813e+002 -1.401776e-001 -1.300017e+002 -1.640740e+001 1.593223e+002
2463995250 -1.632448e+001 1.185102e+002 -1.408754e-001 -1.308771e+002 -1.365085e-001 -1.308705e+002 -1.634940e+001 1.585574e+002
2480869875 -1.623195e+001 1.175663e+002 -1.352240e-001 -1.317767e+002 -1.378731e-001 -1.317592e+002 -1.621580e+001 1.577773e+002
2497744500 -1.617244e+001 1.162938e+002 -1.349244e-001 -1.326798e+002 -1.374526e-001 -1.326640e+002 -1.615841e+001 1.570110e+002
2514619125 -1.607940e+001 1.153671e+002 -1.400992e-001 -1.335627e+002 -1.418012e-001 -1.335749e+002 -1.607448e+001 1.568308e+002
2531493750 -1.600661e+001 1.143147e+002 -1.342434e-001 -1.344585e+002 -1.457530e-001 -1.344807e+002 -1.595518e+001 1.560683e+002
