!Agilent Technologies,N5230C,MY48100320,A.08.04.10
!Agilent N5230C: A.08.04.10
!Date: Thursday, September 15, 2016 22:07:35
!Correction: S11(Full 2 Port(1,2)) 
!S21(Full 2 Port(1,2)) 
!S12(Full 2 Port(1,2)) 
!S22(Full 2 Port(1,2)) 
!S2P File: Measurements: S11, S21, S12, S22:
# Hz S  dB   R 50
300000 -2.668073e+001 7.862390e+001 -7.112469e-002 -2.879837e+000 -6.766377e-002 -2.886841e+000 -2.511597e+001 7.750477e+001
17174625 -5.110464e+001 -1.098686e+002 3.712768e-003 -1.650662e+000 2.417012e-003 -1.661923e+000 -5.482446e+001 -8.283099e+001
34049250 -4.165839e+001 -9.254551e+001 -7.412163e-003 -3.039912e+000 -7.568595e-003 -3.040203e+000 -4.198303e+001 -8.916769e+001
50923875 -3.820405e+001 -9.053323e+001 -1.195027e-002 -4.530490e+000 -1.525754e-002 -4.506640e+000 -3.770650e+001 -8.789958e+001
67798500 -3.536594e+001 -9.122040e+001 -1.761486e-002 -5.986837e+000 -2.045454e-002 -5.987095e+000 -3.503528e+001 -9.229428e+001
84673125 -3.325344e+001 -9.342102e+001 -2.330896e-002 -7.474041e+000 -1.947834e-002 -7.455524e+000 -3.311615e+001 -9.229709e+001
101547750 -3.148061e+001 -9.673550e+001 -2.486856e-002 -8.939418e+000 -2.445223e-002 -8.959278e+000 -3.143617e+001 -9.367955e+001
118422375 -3.017697e+001 -9.819327e+001 -2.779047e-002 -1.042447e+001 -2.925768e-002 -1.044049e+001 -3.000220e+001 -9.445392e+001
135297000 -2.897740e+001 -1.004862e+002 -3.046273e-002 -1.186546e+001 -3.686160e-002 -1.190315e+001 -2.865666e+001 -9.580900e+001
152171625 -2.774570e+001 -1.022279e+002 -3.263166e-002 -1.334169e+001 -3.654986e-002 -1.332397e+001 -2.768930e+001 -9.835701e+001
169046250 -2.695770e+001 -1.038190e+002 -4.200883e-002 -1.479146e+001 -3.617739e-002 -1.482109e+001 -2.675769e+001 -9.875986e+001
185920875 -2.625456e+001 -1.063462e+002 -3.808809e-002 -1.624372e+001 -4.154214e-002 -1.626802e+001 -2.589454e+001 -1.002050e+002
202795500 -2.545885e+001 -1.089024e+002 -4.548207e-002 -1.774484e+001 -4.169477e-002 -1.774230e+001 -2.513208e+001 -1.007375e+002
219670125 -2.476416e+001 -1.106779e+002 -4.972689e-002 -1.919254e+001 -4.712123e-002 -1.919255e+001 -2.442037e+001 -1.025768e+002
236544750 -2.402951e+001 -1.125352e+002 -5.275530e-002 -2.064112e+001 -5.883805e-002 -2.066704e+001 -2.382850e+001 -1.038910e+002
253419375 -2.344459e+001 -1.141693e+002 -5.236186e-002 -2.210429e+001 -5.611623e-002 -2.209756e+001 -2.323006e+001 -1.051494e+002
270294000 -2.281043e+001 -1.167459e+002 -6.053191e-002 -2.355591e+001 -5.810300e-002 -2.356072e+001 -2.269582e+001 -1.065559e+002
287168625 -2.235210e+001 -1.184627e+002 -6.108760e-002 -2.501271e+001 -6.570763e-002 -2.501563e+001 -2.217718e+001 -1.078810e+002
304043250 -2.184121e+001 -1.204285e+002 -6.535969e-002 -2.647202e+001 -6.594375e-002 -2.645315e+001 -2.168617e+001 -1.096791e+002
320917875 -2.141769e+001 -1.220464e+002 -7.201999e-002 -2.793531e+001 -7.028343e-002 -2.793779e+001 -2.115753e+001 -1.107801e+002
337792500 -2.099136e+001 -1.237053e+002 -7.755718e-002 -2.941936e+001 -7.832567e-002 -2.935969e+001 -2.075409e+001 -1.118193e+002
354667125 -2.053972e+001 -1.255523e+002 -7.900148e-002 -3.083456e+001 -8.099760e-002 -3.084147e+001 -2.038570e+001 -1.135097e+002
371541750 -2.022306e+001 -1.275858e+002 -8.336174e-002 -3.230641e+001 -8.886288e-002 -3.227056e+001 -1.998418e+001 -1.142696e+002
388416375 -1.979916e+001 -1.293005e+002 -9.142489e-002 -3.374515e+001 -9.408943e-002 -3.375388e+001 -1.962787e+001 -1.156311e+002
405291000 -1.946363e+001 -1.312581e+002 -9.488072e-002 -3.520388e+001 -9.517185e-002 -3.519724e+001 -1.927210e+001 -1.167407e+002
422165625 -1.908496e+001 -1.328348e+002 -1.035376e-001 -3.666259e+001 -9.855016e-002 -3.663977e+001 -1.896788e+001 -1.183407e+002
439040250 -1.879153e+001 -1.347323e+002 -1.030509e-001 -3.810013e+001 -1.072371e-001 -3.811901e+001 -1.858484e+001 -1.196687e+002
455914875 -1.842865e+001 -1.367565e+002 -1.116793e-001 -3.955257e+001 -1.155362e-001 -3.957209e+001 -1.822679e+001 -1.210826e+002
472789500 -1.805389e+001 -1.381906e+002 -1.146077e-001 -4.100418e+001 -1.191610e-001 -4.100299e+001 -1.792823e+001 -1.222123e+002
489664125 -1.773700e+001 -1.401736e+002 -1.212207e-001 -4.246024e+001 -1.241007e-001 -4.246684e+001 -1.763362e+001 -1.235161e+002
506538750 -1.742095e+001 -1.419582e+002 -1.318135e-001 -4.387919e+001 -1.298863e-001 -4.390677e+001 -1.726350e+001 -1.247947e+002
523413375 -1.710194e+001 -1.437002e+002 -1.381508e-001 -4.532386e+001 -1.390903e-001 -4.533288e+001 -1.696872e+001 -1.260310e+002
540288000 -1.682543e+001 -1.455554e+002 -1.401857e-001 -4.676629e+001 -1.442236e-001 -4.679210e+001 -1.670472e+001 -1.271513e+002
557162625 -1.661395e+001 -1.472656e+002 -1.514682e-001 -4.823260e+001 -1.485950e-001 -4.822675e+001 -1.644900e+001 -1.281849e+002
574037250 -1.639442e+001 -1.492343e+002 -1.591141e-001 -4.965560e+001 -1.591716e-001 -4.965603e+001 -1.621823e+001 -1.296636e+002
590911875 -1.614359e+001 -1.509147e+002 -1.615773e-001 -5.109782e+001 -1.658869e-001 -5.108639e+001 -1.599389e+001 -1.306730e+002
607786500 -1.594710e+001 -1.527283e+002 -1.647778e-001 -5.253168e+001 -1.712943e-001 -5.253642e+001 -1.581333e+001 -1.317875e+002
624661125 -1.573996e+001 -1.543537e+002 -1.758398e-001 -5.397714e+001 -1.758082e-001 -5.396511e+001 -1.564118e+001 -1.330493e+002
641535750 -1.554600e+001 -1.561930e+002 -1.815423e-001 -5.538991e+001 -1.791892e-001 -5.540920e+001 -1.544559e+001 -1.343660e+002
658410375 -1.537279e+001 -1.578599e+002 -1.876880e-001 -5.684576e+001 -1.849281e-001 -5.684784e+001 -1.528156e+001 -1.356303e+002
675285000 -1.517239e+001 -1.597001e+002 -1.903562e-001 -5.829953e+001 -1.943461e-001 -5.828065e+001 -1.504903e+001 -1.370010e+002
692159625 -1.499389e+001 -1.613280e+002 -2.004277e-001 -5.973472e+001 -1.999652e-001 -5.971809e+001 -1.485869e+001 -1.383091e+002
709034250 -1.481164e+001 -1.629611e+002 -2.099381e-001 -6.120575e+001 -2.061330e-001 -6.117941e+001 -1.465521e+001 -1.397858e+002
725908875 -1.467184e+001 -1.645938e+002 -2.193138e-001 -6.263702e+001 -2.153216e-001 -6.262070e+001 -1.447920e+001 -1.410199e+002
742783500 -1.444170e+001 -1.662045e+002 -2.223349e-001 -6.405387e+001 -2.252800e-001 -6.405564e+001 -1.429757e+001 -1.424049e+002
759658125 -1.424828e+001 -1.676066e+002 -2.340115e-001 -6.552428e+001 -2.356235e-001 -6.551836e+001 -1.413703e+001 -1.436510e+002
776532750 -1.410020e+001 -1.693547e+002 -2.433463e-001 -6.692463e+001 -2.410705e-001 -6.692609e+001 -1.396155e+001 -1.447873e+002
793407375 -1.395562e+001 -1.709297e+002 -2.546335e-001 -6.835558e+001 -2.499490e-001 -6.837074e+001 -1.382839e+001 -1.461368e+002
810282000 -1.382614e+001 -1.724441e+002 -2.556280e-001 -6.979830e+001 -2.551693e-001 -6.976913e+001 -1.366263e+001 -1.473790e+002
827156625 -1.365907e+001 -1.742112e+002 -2.607357e-001 -7.121615e+001 -2.587645e-001 -7.118282e+001 -1.353867e+001 -1.487083e+002
844031250 -1.355519e+001 -1.758386e+002 -2.730930e-001 -7.260043e+001 -2.680266e-001 -7.261700e+001 -1.340739e+001 -1.499911e+002
860905875 -1.338851e+001 -1.772280e+002 -2.794868e-001 -7.405675e+001 -2.790555e-001 -7.403035e+001 -1.326055e+001 -1.512582e+002
877780500 -1.326665e+001 -1.789443e+002 -2.825176e-001 -7.544404e+001 -2.837544e-001 -7.548070e+001 -1.313070e+001 -1.527256e+002
894655125 -1.313451e+001 1.794518e+002 -2.943311e-001 -7.687173e+001 -2.905039e-001 -7.687636e+001 -1.298792e+001 -1.539720e+002
911529750 -1.298538e+001 1.780308e+002 -3.032380e-001 -7.830932e+001 -2.973021e-001 -7.831177e+001 -1.285560e+001 -1.553219e+002
928404375 -1.286652e+001 1.764713e+002 -3.084285e-001 -7.973173e+001 -3.119110e-001 -7.973669e+001 -1.270063e+001 -1.565999e+002
945279000 -1.270089e+001 1.747971e+002 -3.140684e-001 -8.112354e+001 -3.139039e-001 -8.114967e+001 -1.256700e+001 -1.580263e+002
962153625 -1.258442e+001 1.731882e+002 -3.208960e-001 -8.254872e+001 -3.261191e-001 -8.254987e+001 -1.244495e+001 -1.592082e+002
979028250 -1.248008e+001 1.717076e+002 -3.286586e-001 -8.394943e+001 -3.313660e-001 -8.396138e+001 -1.232452e+001 -1.604753e+002
995902875 -1.236008e+001 1.701057e+002 -3.350087e-001 -8.535194e+001 -3.376391e-001 -8.539741e+001 -1.220010e+001 -1.619225e+002
1012777500 -1.222948e+001 1.684911e+002 -3.406051e-001 -8.678448e+001 -3.427025e-001 -8.677089e+001 -1.211705e+001 -1.630923e+002
1029652125 -1.213416e+001 1.669024e+002 -3.510085e-001 -8.819682e+001 -3.510130e-001 -8.817576e+001 -1.203147e+001 -1.643393e+002
1046526750 -1.204483e+001 1.653362e+002 -3.543850e-001 -8.959555e+001 -3.558605e-001 -8.959093e+001 -1.194819e+001 -1.655771e+002
1063401375 -1.195175e+001 1.636101e+002 -3.625455e-001 -9.104359e+001 -3.626171e-001 -9.099953e+001 -1.187271e+001 -1.668712e+002
1080276000 -1.186116e+001 1.619186e+002 -3.664556e-001 -9.243132e+001 -3.669429e-001 -9.241112e+001 -1.175808e+001 -1.683280e+002
1097150625 -1.175710e+001 1.605419e+002 -3.743655e-001 -9.382628e+001 -3.753613e-001 -9.383749e+001 -1.166009e+001 -1.695928e+002
1114025250 -1.168177e+001 1.590017e+002 -3.749118e-001 -9.524861e+001 -3.854144e-001 -9.523909e+001 -1.158463e+001 -1.708808e+002
1130899875 -1.158968e+001 1.574994e+002 -3.896865e-001 -9.666673e+001 -3.883955e-001 -9.666972e+001 -1.146685e+001 -1.722194e+002
1147774500 -1.149715e+001 1.560497e+002 -3.984344e-001 -9.806810e+001 -3.954509e-001 -9.807522e+001 -1.137694e+001 -1.735893e+002
1164649125 -1.140130e+001 1.545006e+002 -4.052959e-001 -9.947723e+001 -4.030845e-001 -9.946107e+001 -1.130259e+001 -1.748090e+002
1181523750 -1.132059e+001 1.529790e+002 -4.066507e-001 -1.008882e+002 -4.015014e-001 -1.008876e+002 -1.122831e+001 -1.759944e+002
1198398375 -1.123108e+001 1.515215e+002 -4.116100e-001 -1.022898e+002 -4.159431e-001 -1.022726e+002 -1.114400e+001 -1.772780e+002
1215273000 -1.115206e+001 1.500507e+002 -4.244251e-001 -1.037059e+002 -4.204043e-001 -1.036761e+002 -1.104605e+001 -1.785860e+002
1232147625 -1.107892e+001 1.485116e+002 -4.285264e-001 -1.051074e+002 -4.269087e-001 -1.051125e+002 -1.097042e+001 -1.797912e+002
1249022250 -1.100445e+001 1.468534e+002 -4.341403e-001 -1.065031e+002 -4.304301e-001 -1.064513e+002 -1.090720e+001 1.788869e+002
1265896875 -1.093566e+001 1.452633e+002 -4.469268e-001 -1.078788e+002 -4.410501e-001 -1.078946e+002 -1.085874e+001 1.776076e+002
1282771500 -1.085685e+001 1.436917e+002 -4.493581e-001 -1.092799e+002 -4.519753e-001 -1.092958e+002 -1.077725e+001 1.764418e+002
1299646125 -1.078651e+001 1.420506e+002 -4.514912e-001 -1.106995e+002 -4.563155e-001 -1.106881e+002 -1.070994e+001 1.751843e+002
1316520750 -1.072289e+001 1.405757e+002 -4.604398e-001 -1.121034e+002 -4.625077e-001 -1.120768e+002 -1.063761e+001 1.739032e+002
1333395375 -1.064412e+001 1.391123e+002 -4.642389e-001 -1.134796e+002 -4.653448e-001 -1.134734e+002 -1.057669e+001 1.725917e+002
1350270000 -1.058669e+001 1.375852e+002 -4.741044e-001 -1.149091e+002 -4.656135e-001 -1.148612e+002 -1.050809e+001 1.714233e+002
1367144625 -1.051096e+001 1.360215e+002 -4.761336e-001 -1.162750e+002 -4.755509e-001 -1.162815e+002 -1.042521e+001 1.700553e+002
1384019250 -1.043652e+001 1.344319e+002 -4.864661e-001 -1.177074e+002 -4.825773e-001 -1.176580e+002 -1.037375e+001 1.688769e+002
1400893875 -1.039482e+001 1.328627e+002 -4.961133e-001 -1.190800e+002 -4.912023e-001 -1.190588e+002 -1.031299e+001 1.676097e+002
1417768500 -1.033159e+001 1.313800e+002 -4.977900e-001 -1.204838e+002 -4.942824e-001 -1.204591e+002 -1.026952e+001 1.666140e+002
1434643125 -1.025702e+001 1.298872e+002 -5.064810e-001 -1.218811e+002 -5.044110e-001 -1.218556e+002 -1.019603e+001 1.652868e+002
1451517750 -1.021042e+001 1.282033e+002 -5.113531e-001 -1.232294e+002 -5.098447e-001 -1.232496e+002 -1.015848e+001 1.640755e+002
1468392375 -1.015094e+001 1.266444e+002 -5.133461e-001 -1.246445e+002 -5.088667e-001 -1.246396e+002 -1.009290e+001 1.629629e+002
1485267000 -1.010034e+001 1.249768e+002 -5.130709e-001 -1.260382e+002 -5.126228e-001 -1.260434e+002 -1.003607e+001 1.617419e+002
1502141625 -1.007895e+001 1.233884e+002 -5.361371e-001 -1.274835e+002 -5.195338e-001 -1.274539e+002 -1.001604e+001 1.605255e+002
1519016250 -1.002494e+001 1.219276e+002 -5.352098e-001 -1.288339e+002 -5.287725e-001 -1.288021e+002 -9.966455e+000 1.593702e+002
1535890875 -9.978049e+000 1.202720e+002 -5.319434e-001 -1.302023e+002 -5.387019e-001 -1.302063e+002 -9.919032e+000 1.582040e+002
1552765500 -9.931278e+000 1.187218e+002 -5.376844e-001 -1.316255e+002 -5.406340e-001 -1.316080e+002 -9.881084e+000 1.570099e+002
1569640125 -9.877219e+000 1.172014e+002 -5.420555e-001 -1.330108e+002 -5.475134e-001 -1.329933e+002 -9.840146e+000 1.557991e+002
1586514750 -9.819855e+000 1.157208e+002 -5.548426e-001 -1.343987e+002 -5.520431e-001 -1.344241e+002 -9.756294e+000 1.545396e+002
1603389375 -9.750258e+000 1.140720e+002 -5.582988e-001 -1.357871e+002 -5.522494e-001 -1.357691e+002 -9.713750e+000 1.532149e+002
1620264000 -9.692018e+000 1.125913e+002 -5.683016e-001 -1.371862e+002 -5.640426e-001 -1.371802e+002 -9.656201e+000 1.521864e+002
1637138625 -9.680964e+000 1.108662e+002 -5.730134e-001 -1.385421e+002 -5.675306e-001 -1.386063e+002 -9.636310e+000 1.510042e+002
1654013250 -9.605365e+000 1.094290e+002 -5.744902e-001 -1.399569e+002 -5.750101e-001 -1.399766e+002 -9.576139e+000 1.498252e+002
1670887875 -9.577879e+000 1.077494e+002 -5.747254e-001 -1.413340e+002 -5.795321e-001 -1.413529e+002 -9.539457e+000 1.487032e+002
1687762500 -9.518002e+000 1.060306e+002 -5.864023e-001 -1.427210e+002 -5.832549e-001 -1.427247e+002 -9.494906e+000 1.476697e+002
1704637125 -9.500250e+000 1.045276e+002 -5.835897e-001 -1.441003e+002 -5.886089e-001 -1.441426e+002 -9.468358e+000 1.464623e+002
1721511750 -9.455358e+000 1.027456e+002 -5.975302e-001 -1.455237e+002 -5.998368e-001 -1.455193e+002 -9.431623e+000 1.453627e+002
1738386375 -9.422431e+000 1.011820e+002 -5.970811e-001 -1.469012e+002 -5.926310e-001 -1.469119e+002 -9.388721e+000 1.442256e+002
1755261000 -9.390414e+000 9.947601e+001 -6.071610e-001 -1.482754e+002 -5.993426e-001 -1.483048e+002 -9.353777e+000 1.430286e+002
1772135625 -9.350340e+000 9.795595e+001 -6.092381e-001 -1.496724e+002 -6.090124e-001 -1.496960e+002 -9.325151e+000 1.419785e+002
1789010250 -9.301026e+000 9.626991e+001 -6.071522e-001 -1.510635e+002 -6.053832e-001 -1.510836e+002 -9.275309e+000 1.408264e+002
1805884875 -9.257373e+000 9.461343e+001 -6.211025e-001 -1.524531e+002 -6.220670e-001 -1.524619e+002 -9.240018e+000 1.397375e+002
1822759500 -9.212109e+000 9.306876e+001 -6.238400e-001 -1.538302e+002 -6.253974e-001 -1.538685e+002 -9.186579e+000 1.385377e+002
1839634125 -9.165842e+000 9.152177e+001 -6.252521e-001 -1.552444e+002 -6.287790e-001 -1.552571e+002 -9.143132e+000 1.374496e+002
1856508750 -9.123013e+000 8.981830e+001 -6.366326e-001 -1.566290e+002 -6.309423e-001 -1.566463e+002 -9.102783e+000 1.363900e+002
1873383375 -9.079793e+000 8.817012e+001 -6.399470e-001 -1.580414e+002 -6.328744e-001 -1.580198e+002 -9.062373e+000 1.353611e+002
1890258000 -9.034891e+000 8.640070e+001 -6.368513e-001 -1.593816e+002 -6.431615e-001 -1.594164e+002 -9.035360e+000 1.343613e+002
1907132625 -9.026811e+000 8.466395e+001 -6.572604e-001 -1.607692e+002 -6.503052e-001 -1.607616e+002 -9.002520e+000 1.333064e+002
1924007250 -8.985641e+000 8.296602e+001 -6.576169e-001 -1.621482e+002 -6.533297e-001 -1.621709e+002 -8.956577e+000 1.322217e+002
1940881875 -8.946297e+000 8.135733e+001 -6.648566e-001 -1.635553e+002 -6.644387e-001 -1.635393e+002 -8.916340e+000 1.312459e+002
1957756500 -8.911609e+000 7.965396e+001 -6.678441e-001 -1.649346e+002 -6.649561e-001 -1.649481e+002 -8.892589e+000 1.300746e+002
1974631125 -8.873878e+000 7.795464e+001 -6.595059e-001 -1.663226e+002 -6.688632e-001 -1.663531e+002 -8.853436e+000 1.290753e+002
1991505750 -8.841223e+000 7.646381e+001 -6.753936e-001 -1.677125e+002 -6.786351e-001 -1.677035e+002 -8.812098e+000 1.279962e+002
2008380375 -8.810702e+000 7.475651e+001 -6.796808e-001 -1.690800e+002 -6.808403e-001 -1.691178e+002 -8.786569e+000 1.269014e+002
2025255000 -8.756643e+000 7.317979e+001 -6.800244e-001 -1.704816e+002 -6.879251e-001 -1.705088e+002 -8.748334e+000 1.258584e+002
2042129625 -8.723764e+000 7.140769e+001 -6.929654e-001 -1.718742e+002 -6.921984e-001 -1.718627e+002 -8.695633e+000 1.248882e+002
2059004250 -8.669372e+000 6.981333e+001 -7.027170e-001 -1.732539e+002 -7.023416e-001 -1.732404e+002 -8.667908e+000 1.238197e+002
2075878875 -8.650939e+000 6.820348e+001 -7.047251e-001 -1.746362e+002 -7.071816e-001 -1.746438e+002 -8.624070e+000 1.227605e+002
2092753500 -8.609365e+000 6.632999e+001 -7.122318e-001 -1.760197e+002 -7.025380e-001 -1.760224e+002 -8.596964e+000 1.217492e+002
2109628125 -8.588964e+000 6.460667e+001 -7.175779e-001 -1.773628e+002 -7.160046e-001 -1.774022e+002 -8.581553e+000 1.207292e+002
2126502750 -8.555600e+000 6.286153e+001 -7.193792e-001 -1.787438e+002 -7.159564e-001 -1.787113e+002 -8.547024e+000 1.197552e+002
2143377375 -8.527128e+000 6.119555e+001 -7.217090e-001 1.798676e+002 -7.205541e-001 1.798759e+002 -8.504654e+000 1.187399e+002
2160252000 -8.496335e+000 5.953131e+001 -7.320309e-001 1.785000e+002 -7.362178e-001 1.784820e+002 -8.469975e+000 1.177280e+002
2177126625 -8.462502e+000 5.785765e+001 -7.521262e-001 1.770961e+002 -7.466774e-001 1.771060e+002 -8.439332e+000 1.166609e+002
2194001250 -8.425690e+000 5.635432e+001 -7.342008e-001 1.757169e+002 -7.407003e-001 1.757074e+002 -8.378859e+000 1.154894e+002
2210875875 -8.386692e+000 5.463747e+001 -7.294356e-001 1.743388e+002 -7.376546e-001 1.743537e+002 -8.347528e+000 1.144552e+002
2227750500 -8.347133e+000 5.299445e+001 -7.445286e-001 1.729740e+002 -7.524005e-001 1.729768e+002 -8.334753e+000 1.134678e+002
2244625125 -8.339106e+000 5.132121e+001 -7.583789e-001 1.715960e+002 -7.667524e-001 1.716208e+002 -8.304241e+000 1.125353e+002
2261499750 -8.298146e+000 4.966462e+001 -7.729356e-001 1.702191e+002 -7.586130e-001 1.702618e+002 -8.277582e+000 1.114293e+002
2278374375 -8.276827e+000 4.799118e+001 -7.764946e-001 1.688756e+002 -7.711678e-001 1.688620e+002 -8.226543e+000 1.103882e+002
2295249000 -8.243047e+000 4.628309e+001 -7.807469e-001 1.674986e+002 -7.792323e-001 1.675306e+002 -8.200549e+000 1.094003e+002
2312123625 -8.219645e+000 4.466282e+001 -7.822213e-001 1.661618e+002 -7.864900e-001 1.661543e+002 -8.168399e+000 1.082947e+002
2328998250 -8.193946e+000 4.289892e+001 -7.872617e-001 1.647749e+002 -7.986150e-001 1.647744e+002 -8.145876e+000 1.073805e+002
2345872875 -8.167013e+000 4.118648e+001 -7.902241e-001 1.634109e+002 -7.917357e-001 1.634150e+002 -8.121693e+000 1.062195e+002
2362747500 -8.136920e+000 3.963788e+001 -7.884190e-001 1.620676e+002 -7.909865e-001 1.620596e+002 -8.079442e+000 1.052117e+002
2379622125 -8.111444e+000 3.786906e+001 -7.992594e-001 1.607409e+002 -7.968723e-001 1.607030e+002 -8.050444e+000 1.042756e+002
2396496750 -8.091397e+000 3.632341e+001 -8.179867e-001 1.593550e+002 -8.106884e-001 1.593159e+002 -8.024032e+000 1.032763e+002
2413371375 -8.077250e+000 3.469518e+001 -8.150075e-001 1.579730e+002 -8.098604e-001 1.579938e+002 -7.991672e+000 1.021826e+002
2430246000 -8.039453e+000 3.309746e+001 -8.104822e-001 1.565928e+002 -8.205800e-001 1.565955e+002 -7.974465e+000 1.010929e+002
2447120625 -8.019153e+000 3.151137e+001 -8.182766e-001 1.552623e+002 -8.258734e-001 1.552641e+002 -7.946801e+000 1.000736e+002
2463995250 -7.998567e+000 2.987431e+001 -8.295243e-001 1.539024e+002 -8.308372e-001 1.538973e+002 -7.930603e+000 9.908707e+001
2480869875 -7.970900e+000 2.832304e+001 -8.319566e-001 1.525727e+002 -8.300511e-001 1.525649e+002 -7.905157e+000 9.789779e+001
2497744500 -7.965988e+000 2.667435e+001 -8.408967e-001 1.511959e+002 -8.394225e-001 1.512128e+002 -7.893314e+000 9.687496e+001
2514619125 -7.934464e+000 2.501757e+001 -8.458831e-001 1.498578e+002 -8.505450e-001 1.498566e+002 -7.858986e+000 9.580357e+001
2531493750 -7.919961e+000 2.340306e+001 -8.484095e-001 1.485203e+002 -8.495717e-001 1.485200e+002 -7.843661e+000 9.467326e+001
2548368375 -7.898655e+000 2.179643e+001 -8.503866e-001 1.471397e+002 -8.580583e-001 1.471507e+002 -7.805341e+000 9.372292e+001
