!Agilent Technologies,N5230C,MY48100320,A.08.04.10
!Agilent N5230C: A.08.04.10
!Date: Thursday, August 04, 2016 03:58:15
!Correction: S11(Full 2 Port(1,2)) 
!S21(Full 2 Port(1,2)) 
!S12(Full 2 Port(1,2)) 
!S22(Full 2 Port(1,2)) 
!S2P File: Measurements: S11, S21, S12, S22:
# Hz S  dB   R 50
1350270000 -2.844104e+001 2.288067e+001 -1.003605e-001 -1.207711e+002 -1.018256e-001 -1.207737e+002 -2.661516e+001 -8.126714e+001
1411018650 -2.768798e+001 2.374947e+001 -1.068486e-001 -1.262163e+002 -1.088431e-001 -1.262066e+002 -2.629258e+001 -9.094895e+001
1471767300 -2.723627e+001 2.063592e+001 -1.105765e-001 -1.316024e+002 -1.138863e-001 -1.315915e+002 -2.540861e+001 -9.962931e+001
1532515950 -2.650392e+001 1.691624e+001 -1.209199e-001 -1.370292e+002 -1.240439e-001 -1.370274e+002 -2.470630e+001 -1.054483e+002
1593264600 -2.572672e+001 1.514400e+001 -1.221310e-001 -1.424161e+002 -1.134611e-001 -1.424077e+002 -2.453286e+001 -1.140136e+002
1654013250 -2.488114e+001 9.807569e+000 -1.171080e-001 -1.478636e+002 -1.203321e-001 -1.478501e+002 -2.393643e+001 -1.199605e+002
1714761900 -2.447320e+001 4.948141e+000 -1.158654e-001 -1.532945e+002 -1.135804e-001 -1.532761e+002 -2.338528e+001 -1.268945e+002
1775510550 -2.369216e+001 -1.330211e-001 -1.213186e-001 -1.587502e+002 -1.244397e-001 -1.587328e+002 -2.316364e+001 -1.315399e+002
1836259200 -2.348864e+001 -5.008356e+000 -1.212928e-001 -1.641598e+002 -1.294844e-001 -1.641484e+002 -2.271915e+001 -1.391059e+002
1897007850 -2.285454e+001 -1.156921e+001 -1.303286e-001 -1.696145e+002 -1.299858e-001 -1.695892e+002 -2.233481e+001 -1.437060e+002
1957756500 -2.276989e+001 -1.644030e+001 -1.283116e-001 -1.750356e+002 -1.288406e-001 -1.750121e+002 -2.207049e+001 -1.498971e+002
2018505150 -2.229993e+001 -2.183855e+001 -1.304323e-001 1.795382e+002 -1.313369e-001 1.795491e+002 -2.204119e+001 -1.554453e+002
2079253800 -2.233810e+001 -2.851497e+001 -1.306658e-001 1.741104e+002 -1.252152e-001 1.741309e+002 -2.191485e+001 -1.616368e+002
2140002450 -2.232126e+001 -3.406702e+001 -1.256486e-001 1.686988e+002 -1.359392e-001 1.687051e+002 -2.187759e+001 -1.660824e+002
2200751100 -2.234937e+001 -4.024512e+001 -1.225115e-001 1.632623e+002 -1.209846e-001 1.632767e+002 -2.207721e+001 -1.715992e+002
2261499750 -2.247247e+001 -4.706607e+001 -1.347634e-001 1.578456e+002 -1.377457e-001 1.578574e+002 -2.240621e+001 -1.773937e+002
2322248400 -2.311179e+001 -5.403387e+001 -1.260166e-001 1.524053e+002 -1.285261e-001 1.524202e+002 -2.263997e+001 1.775674e+002
2382997050 -2.312912e+001 -5.989454e+001 -1.296216e-001 1.469825e+002 -1.306219e-001 1.469909e+002 -2.326487e+001 1.744492e+002
2443745700 -2.408324e+001 -6.775583e+001 -1.241350e-001 1.415381e+002 -1.246612e-001 1.415518e+002 -2.391834e+001 1.681037e+002
2504494350 -2.481713e+001 -7.504532e+001 -1.174175e-001 1.360869e+002 -1.244039e-001 1.361144e+002 -2.485789e+001 1.647550e+002
2565243000 -2.582715e+001 -8.355086e+001 -1.170389e-001 1.306330e+002 -1.184850e-001 1.306502e+002 -2.577128e+001 1.617214e+002
2625991650 -2.703781e+001 -9.194933e+001 -1.141704e-001 1.251755e+002 -1.214042e-001 1.251980e+002 -2.750462e+001 1.597204e+002
2686740300 -2.861637e+001 -1.043189e+002 -1.082592e-001 1.197173e+002 -1.136144e-001 1.197297e+002 -2.909188e+001 1.581415e+002
2747488950 -3.028600e+001 -1.134916e+002 -1.127803e-001 1.142504e+002 -1.154299e-001 1.142728e+002 -3.149086e+001 1.614886e+002
2808237600 -3.286104e+001 -1.336902e+002 -1.106800e-001 1.087719e+002 -1.188921e-001 1.087797e+002 -3.402134e+001 1.691121e+002
2868986250 -3.484476e+001 -1.541765e+002 -1.133749e-001 1.033148e+002 -1.235555e-001 1.033228e+002 -3.731475e+001 -1.658689e+002
2929734900 -3.572586e+001 1.625728e+002 -1.064535e-001 9.781342e+001 -1.158665e-001 9.783762e+001 -3.708223e+001 -1.383880e+002
2990483550 -3.490205e+001 1.344670e+002 -1.302468e-001 9.235921e+001 -1.299681e-001 9.235381e+001 -3.353704e+001 -1.163846e+002
3051232200 -3.241591e+001 1.125188e+002 -1.214781e-001 8.684499e+001 -1.286618e-001 8.686233e+001 -3.158763e+001 -1.083093e+002
3111980850 -3.082219e+001 9.409977e+001 -1.316755e-001 8.135356e+001 -1.306267e-001 8.138050e+001 -2.960387e+001 -1.059029e+002
3172729500 -2.872937e+001 8.180973e+001 -1.328196e-001 7.583664e+001 -1.398657e-001 7.585861e+001 -2.810832e+001 -1.088007e+002
3233478150 -2.841400e+001 7.061890e+001 -1.369370e-001 7.040041e+001 -1.381217e-001 7.041631e+001 -2.699511e+001 -1.102417e+002
3294226800 -2.709421e+001 6.218262e+001 -1.533047e-001 6.490997e+001 -1.583043e-001 6.492968e+001 -2.638540e+001 -1.139997e+002
3354975450 -2.679256e+001 5.206994e+001 -1.795086e-001 5.942891e+001 -1.723878e-001 5.944403e+001 -2.579383e+001 -1.211550e+002
3415724100 -2.650543e+001 4.348186e+001 -1.850429e-001 5.395387e+001 -1.971783e-001 5.398230e+001 -2.538189e+001 -1.260641e+002
3476472750 -2.698378e+001 3.257808e+001 -2.318883e-001 4.857258e+001 -2.156979e-001 4.858215e+001 -2.562852e+001 -1.330691e+002
3537221400 -2.757157e+001 2.432933e+001 -2.467445e-001 4.327930e+001 -2.475825e-001 4.328302e+001 -2.674933e+001 -1.415433e+002
3597970050 -2.959216e+001 1.024870e+001 -2.393682e-001 3.803368e+001 -2.460114e-001 3.804330e+001 -2.791655e+001 -1.465938e+002
3658718700 -3.164929e+001 1.084902e+001 -2.302505e-001 3.268779e+001 -2.372248e-001 3.272069e+001 -2.995852e+001 -1.454264e+002
3719467350 -3.361339e+001 6.739886e-001 -2.231670e-001 2.726113e+001 -2.216766e-001 2.727170e+001 -3.184970e+001 -1.398370e+002
3780216000 -3.534870e+001 -2.443936e+000 -2.166573e-001 2.174796e+001 -2.230727e-001 2.178083e+001 -3.327998e+001 -1.279824e+002
3840964650 -3.842633e+001 -2.646833e+000 -2.274921e-001 1.626450e+001 -2.270144e-001 1.627614e+001 -3.250999e+001 -1.146378e+002
3901713300 -4.031236e+001 -1.950663e+001 -2.383510e-001 1.078533e+001 -2.387500e-001 1.082604e+001 -3.027912e+001 -1.092079e+002
3962461950 -4.040489e+001 -4.316685e+001 -2.408097e-001 5.180114e+000 -2.399077e-001 5.213515e+000 -2.813875e+001 -1.273370e+002
4023210600 -3.611054e+001 -5.800445e+001 -3.414990e-001 -1.129078e+000 -3.552631e-001 -1.094462e+000 -2.417402e+001 -1.768078e+002
4083959250 -2.996844e+001 -1.396920e+002 -4.513435e-001 -3.711461e+000 -4.410493e-001 -3.697638e+000 -2.770892e+001 3.823286e+001
4144707900 -3.088404e+001 -1.692106e+002 -2.545695e-001 -9.537698e+000 -2.569228e-001 -9.511728e+000 -3.184794e+001 -1.528134e+001
4205456550 -2.924126e+001 -1.798201e+002 -2.029814e-001 -1.529042e+001 -2.114892e-001 -1.525505e+001 -3.283477e+001 -3.059815e+001
4266205200 -2.830040e+001 1.659051e+002 -1.797193e-001 -2.087985e+001 -1.845599e-001 -2.084083e+001 -3.186045e+001 -2.673044e+001
4326953850 -2.720793e+001 1.565179e+002 -1.784766e-001 -2.644532e+001 -1.795815e-001 -2.641242e+001 -3.097887e+001 -2.386913e+001
4387702500 -2.632128e+001 1.452202e+002 -1.575042e-001 -3.197003e+001 -1.756752e-001 -3.192990e+001 -2.959479e+001 -2.256089e+001
4448451150 -2.578096e+001 1.345413e+002 -1.582992e-001 -3.748413e+001 -1.543648e-001 -3.746338e+001 -2.865790e+001 -1.891524e+001
4509199800 -2.532558e+001 1.193308e+002 -1.418012e-001 -4.304092e+001 -1.565398e-001 -4.301183e+001 -2.759873e+001 -2.002183e+001
4569948450 -2.494997e+001 1.126960e+002 -1.500808e-001 -4.854353e+001 -1.554562e-001 -4.851501e+001 -2.700990e+001 -1.838050e+001
4630697100 -2.446022e+001 9.712064e+001 -1.287709e-001 -5.409839e+001 -1.568987e-001 -5.406583e+001 -2.601900e+001 -1.741662e+001
4691445750 -2.404423e+001 8.553054e+001 -1.393695e-001 -5.961901e+001 -1.413872e-001 -5.960727e+001 -2.546659e+001 -1.531459e+001
4752194400 -2.349711e+001 7.319411e+001 -1.317570e-001 -6.515316e+001 -1.407215e-001 -6.512229e+001 -2.438630e+001 -1.485416e+001
4812943050 -2.300498e+001 6.133659e+001 -1.380171e-001 -7.069067e+001 -1.422491e-001 -7.067776e+001 -2.333780e+001 -1.269934e+001
4873691700 -2.189272e+001 4.905415e+001 -1.402050e-001 -7.621732e+001 -1.581387e-001 -7.619691e+001 -2.268220e+001 -1.374975e+001
4934440350 -2.140059e+001 3.829133e+001 -1.504577e-001 -8.172947e+001 -1.381248e-001 -8.171004e+001 -2.153095e+001 -1.357339e+001
4995189000 -2.041466e+001 2.724021e+001 -1.471737e-001 -8.727513e+001 -1.614011e-001 -8.726794e+001 -2.051562e+001 -1.577014e+001
5055937650 -1.958725e+001 1.927570e+001 -1.560618e-001 -9.277411e+001 -1.727902e-001 -9.274854e+001 -1.985525e+001 -1.728542e+001
5116686300 -1.875301e+001 9.121842e+000 -1.799079e-001 -9.830029e+001 -1.727990e-001 -9.827166e+001 -1.886806e+001 -2.226130e+001
5177434950 -1.802905e+001 2.185315e+000 -1.836452e-001 -1.038219e+002 -1.842762e-001 -1.037759e+002 -1.820661e+001 -2.434344e+001
5238183600 -1.723867e+001 -4.533336e+000 -1.866638e-001 -1.092807e+002 -1.858604e-001 -1.092719e+002 -1.749871e+001 -2.989675e+001
5298932250 -1.685842e+001 -1.217092e+001 -1.985170e-001 -1.148597e+002 -2.104969e-001 -1.148258e+002 -1.702177e+001 -3.415830e+001
5359680900 -1.619464e+001 -1.760912e+001 -1.937510e-001 -1.203385e+002 -2.186189e-001 -1.203330e+002 -1.646964e+001 -4.002198e+001
5420429550 -1.596569e+001 -2.359744e+001 -2.186399e-001 -1.257678e+002 -2.209410e-001 -1.257222e+002 -1.622988e+001 -4.528805e+001
5481178200 -1.557572e+001 -2.897260e+001 -2.165499e-001 -1.312727e+002 -2.399785e-001 -1.312617e+002 -1.595323e+001 -5.136733e+001
5541926850 -1.542138e+001 -3.333958e+001 -2.260044e-001 -1.367934e+002 -2.397565e-001 -1.367420e+002 -1.580268e+001 -5.785971e+001
5602675500 -1.540487e+001 -3.869587e+001 -2.331112e-001 -1.422985e+002 -2.500629e-001 -1.422710e+002 -1.570372e+001 -6.443758e+001
5663424150 -1.545863e+001 -4.200893e+001 -2.329042e-001 -1.479199e+002 -2.426412e-001 -1.478842e+002 -1.601570e+001 -7.082753e+001
5724172800 -1.575895e+001 -4.548005e+001 -2.461245e-001 -1.536571e+002 -2.446970e-001 -1.536494e+002 -1.630589e+001 -8.057289e+001
5784921450 -1.653186e+001 -4.704465e+001 -2.516411e-001 -1.597669e+002 -2.541259e-001 -1.597453e+002 -1.717029e+001 -8.794482e+001
5845670100 -1.775880e+001 -3.924950e+001 -2.806538e-001 -1.671653e+002 -2.822284e-001 -1.671602e+002 -1.982549e+001 -1.052284e+002
5906418750 -8.526075e+000 -5.077484e+000 -3.247962e+000 -1.799996e+002 -3.246862e+000 -1.799025e+002 -1.241986e+001 3.019116e+001
5967167400 -1.262760e+001 -7.132749e+001 -4.022243e-001 -1.691321e+002 -4.065417e-001 -1.691147e+002 -1.317959e+001 -8.326390e+001
6027916050 -1.483080e+001 -7.509848e+001 -2.599593e-001 -1.770650e+002 -2.536647e-001 -1.769989e+002 -1.531295e+001 -9.805116e+001
6088664700 -1.623276e+001 -7.892770e+001 -2.155735e-001 1.766451e+002 -2.089547e-001 1.766704e+002 -1.659774e+001 -1.081556e+002
6149413350 -1.753852e+001 -8.308088e+001 -1.726409e-001 1.706995e+002 -1.919265e-001 1.707703e+002 -1.787841e+001 -1.152649e+002
6210162000 -1.884798e+001 -8.752112e+001 -1.748364e-001 1.648709e+002 -1.664568e-001 1.648882e+002 -1.927762e+001 -1.240181e+002
6270910650 -2.078356e+001 -9.212017e+001 -1.432572e-001 1.590897e+002 -1.464083e-001 1.591591e+002 -2.107541e+001 -1.279355e+002
6331659300 -2.256999e+001 -1.010657e+002 -1.317487e-001 1.534054e+002 -1.388815e-001 1.534397e+002 -2.303477e+001 -1.351365e+002
6392407950 -2.591095e+001 -1.070802e+002 -1.282972e-001 1.476624e+002 -1.293260e-001 1.477218e+002 -2.651196e+001 -1.374434e+002
6453156600 -2.981543e+001 -1.268127e+002 -1.184511e-001 1.419752e+002 -1.242535e-001 1.420020e+002 -2.986857e+001 -1.338788e+002
6513905250 -3.400536e+001 -1.699467e+002 -1.183775e-001 1.362388e+002 -1.303106e-001 1.362876e+002 -3.589779e+001 -9.220055e+001
6574653900 -3.226895e+001 1.261530e+002 -1.242740e-001 1.305351e+002 -1.291204e-001 1.305647e+002 -3.433800e+001 -4.182859e+001
6635402550 -2.755159e+001 1.039060e+002 -1.328701e-001 1.248101e+002 -1.382113e-001 1.248704e+002 -2.796699e+001 -3.347980e+001
6696151200 -2.422637e+001 9.431966e+001 -1.415594e-001 1.191586e+002 -1.485024e-001 1.191933e+002 -2.483394e+001 -3.064487e+001
6756899850 -2.196533e+001 8.359454e+001 -1.548749e-001 1.134859e+002 -1.571718e-001 1.135490e+002 -2.234159e+001 -3.633774e+001
6817648500 -2.018272e+001 8.156163e+001 -1.715791e-001 1.078765e+002 -1.756563e-001 1.078959e+002 -2.080821e+001 -4.341460e+001
6878397150 -1.890514e+001 7.473902e+001 -1.861049e-001 1.022299e+002 -1.934308e-001 1.022677e+002 -1.921401e+001 -4.974857e+001
6939145800 -1.778842e+001 7.218501e+001 -2.059245e-001 9.670815e+001 -2.072183e-001 9.672493e+001 -1.833512e+001 -5.728688e+001
6999894450 -1.694277e+001 6.751061e+001 -2.171058e-001 9.108060e+001 -2.224611e-001 9.115571e+001 -1.726443e+001 -6.508859e+001
7060643100 -1.629878e+001 6.440220e+001 -2.407208e-001 8.560056e+001 -2.419842e-001 8.563971e+001 -1.679003e+001 -7.270409e+001
7121391750 -1.573951e+001 6.156751e+001 -2.496467e-001 8.007951e+001 -2.477410e-001 8.016641e+001 -1.607949e+001 -8.115500e+001
7182140400 -1.536230e+001 5.921429e+001 -2.618158e-001 7.452983e+001 -2.708121e-001 7.457381e+001 -1.583120e+001 -8.961369e+001
7242889050 -1.515856e+001 5.601439e+001 -2.760476e-001 6.902305e+001 -2.727655e-001 6.911816e+001 -1.554172e+001 -9.824373e+001
7303637700 -1.484437e+001 5.404669e+001 -2.764342e-001 6.360791e+001 -2.818130e-001 6.364648e+001 -1.525883e+001 -1.063369e+002
7364386350 -1.490999e+001 5.109163e+001 -2.839065e-001 5.798108e+001 -2.908507e-001 5.806373e+001 -1.522361e+001 -1.154056e+002
7425135000 -1.473004e+001 4.968360e+001 -2.968883e-001 5.256933e+001 -2.933864e-001 5.259261e+001 -1.530248e+001 -1.241977e+002
7485883650 -1.478439e+001 4.717871e+001 -2.878925e-001 4.692993e+001 -2.975373e-001 4.703071e+001 -1.511060e+001 -1.333392e+002
7546632300 -1.495990e+001 4.687553e+001 -2.929895e-001 4.133754e+001 -2.930259e-001 4.141008e+001 -1.557763e+001 -1.433607e+002
7607380950 -1.498097e+001 4.444032e+001 -2.936321e-001 3.584746e+001 -2.899189e-001 3.595128e+001 -1.557728e+001 -1.531297e+002
7668129600 -1.515821e+001 4.427381e+001 -2.814001e-001 3.018471e+001 -2.949527e-001 3.023410e+001 -1.564566e+001 -1.632221e+002
7728878250 -1.557711e+001 4.382985e+001 -2.853497e-001 2.445749e+001 -2.813852e-001 2.455046e+001 -1.614130e+001 -1.748120e+002
7789626900 -1.548313e+001 4.261000e+001 -2.928153e-001 1.879044e+001 -2.927067e-001 1.883695e+001 -1.625967e+001 1.739693e+002
7850375550 -1.597223e+001 4.339453e+001 -2.850635e-001 1.281773e+001 -2.911085e-001 1.289241e+001 -1.637583e+001 1.623935e+002
7911124200 -1.614383e+001 4.517631e+001 -2.936041e-001 6.714548e+000 -2.923844e-001 6.775330e+000 -1.715888e+001 1.480005e+002
7971872850 -1.645379e+001 4.741982e+001 -3.144169e-001 2.340386e-001 -3.128663e-001 2.986663e-001 -1.747439e+001 1.326008e+002
8032621500 -1.654970e+001 6.058323e+001 -3.971341e-001 -7.672802e+000 -4.016551e-001 -7.633738e+000 -1.914845e+001 1.044218e+002
8093370150 -1.014507e+001 8.714323e+001 -1.853930e+000 -2.332838e+001 -1.850242e+000 -2.328390e+001 -1.582530e+001 -2.775250e+001
8154118800 -9.844773e+000 1.704102e+001 -8.260462e-001 -3.763775e+000 -8.308168e-001 -3.754009e+000 -1.104844e+001 1.627373e+002
8214867450 -1.271386e+001 1.518916e+001 -3.918571e-001 -1.481358e+001 -3.912576e-001 -1.473873e+001 -1.305281e+001 1.331000e+002
8275616100 -1.342688e+001 1.425602e+001 -3.442503e-001 -2.203454e+001 -3.492900e-001 -2.200330e+001 -1.387151e+001 1.185248e+002
8336364750 -1.364691e+001 1.172099e+001 -3.353062e-001 -2.830440e+001 -3.327918e-001 -2.822707e+001 -1.395541e+001 1.080579e+002
8397113400 -1.387983e+001 8.304836e+000 -3.096120e-001 -3.425772e+001 -3.178591e-001 -3.422529e+001 -1.407556e+001 9.879170e+001
8457862050 -1.393224e+001 3.929391e+000 -3.162257e-001 -4.022945e+001 -3.153842e-001 -4.015257e+001 -1.410093e+001 9.138824e+001
8518610700 -1.381898e+001 -8.806514e-001 -3.039155e-001 -4.597572e+001 -3.160285e-001 -4.594337e+001 -1.421433e+001 8.488618e+001
8579359350 -1.407959e+001 -6.460502e+000 -3.059241e-001 -5.188383e+001 -3.037568e-001 -5.179094e+001 -1.414021e+001 7.829652e+001
8640108000 -1.388792e+001 -1.234941e+001 -3.068062e-001 -5.754913e+001 -3.145662e-001 -5.749698e+001 -1.433472e+001 7.351321e+001
8700856650 -1.400387e+001 -1.898960e+001 -3.081815e-001 -6.327340e+001 -3.103896e-001 -6.320926e+001 -1.430446e+001 6.900785e+001
8761605300 -1.417642e+001 -2.559833e+001 -2.943957e-001 -6.900126e+001 -3.020906e-001 -6.893961e+001 -1.451897e+001 6.375143e+001
8822353950 -1.426277e+001 -3.282063e+001 -2.944608e-001 -7.475410e+001 -2.993491e-001 -7.467637e+001 -1.470045e+001 6.105497e+001
8883102600 -1.442848e+001 -4.075206e+001 -2.729867e-001 -8.048316e+001 -2.860740e-001 -8.042916e+001 -1.494206e+001 5.790636e+001
8943851250 -1.492626e+001 -4.943218e+001 -2.737415e-001 -8.631692e+001 -2.713029e-001 -8.624719e+001 -1.517391e+001 5.465100e+001
9004599900 -1.501201e+001 -5.725835e+001 -2.678180e-001 -9.209855e+001 -2.788585e-001 -9.201123e+001 -1.574450e+001 5.439086e+001
9065348550 -1.574429e+001 -6.814344e+001 -2.614605e-001 -9.797238e+001 -2.603468e-001 -9.795047e+001 -1.602344e+001 5.218962e+001
9126097200 -1.631266e+001 -7.843293e+001 -2.429367e-001 -1.040076e+002 -2.439700e-001 -1.039368e+002 -1.683898e+001 5.291413e+001
9186845850 -1.680800e+001 -8.932550e+001 -2.359495e-001 -1.101502e+002 -2.391388e-001 -1.101040e+002 -1.716485e+001 5.500152e+001
9247594500 -1.699169e+001 -1.019497e+002 -2.346180e-001 -1.170680e+002 -2.364330e-001 -1.170105e+002 -1.732554e+001 5.164169e+001
9308343150 -1.222473e+001 1.631221e+002 -7.769657e-001 -1.068037e+002 -7.759342e-001 -1.067768e+002 -1.359326e+001 -1.788549e+002
9369091800 -1.943491e+001 -1.648429e+002 -2.085261e-001 -1.257484e+002 -2.170575e-001 -1.256664e+002 -1.819834e+001 1.004549e+002
9429840450 -1.821454e+001 1.733260e+002 -2.327019e-001 -1.326036e+002 -2.320398e-001 -1.325535e+002 -1.751258e+001 1.004113e+002
9490589100 -1.707115e+001 1.571641e+002 -2.558392e-001 -1.390966e+002 -2.628675e-001 -1.390075e+002 -1.578984e+001 1.053880e+002
9551337750 -1.530879e+001 1.396388e+002 -2.994456e-001 -1.454413e+002 -3.084197e-001 -1.453947e+002 -1.431123e+001 1.073269e+002
9612086400 -1.347083e+001 1.264967e+002 -3.648496e-001 -1.518538e+002 -3.736996e-001 -1.517753e+002 -1.299670e+001 1.076090e+002
9672835050 -1.202302e+001 1.142476e+002 -4.584615e-001 -1.584268e+002 -4.634130e-001 -1.583815e+002 -1.143162e+001 1.054095e+002
9733583700 -1.036048e+001 1.033268e+002 -6.020644e-001 -1.653924e+002 -6.105523e-001 -1.653206e+002 -9.876773e+000 1.029770e+002
9794332350 -7.960859e+000 8.935804e+001 -9.790836e-001 -1.749148e+002 -9.833559e-001 -1.748809e+002 -7.844829e+000 9.717933e+001
9855081000 -1.994842e+001 1.130788e+002 -4.148158e-001 -1.612831e+002 -4.267651e-001 -1.612325e+002 -1.656395e+001 7.999567e+001
9915829650 -1.000481e+001 8.841447e+001 -6.304245e-001 -1.775020e+002 -6.378552e-001 -1.774850e+002 -9.766437e+000 9.277346e+001
9976578300 -8.589064e+000 7.936391e+001 -8.459113e-001 1.746009e+002 -8.487840e-001 1.746234e+002 -8.420485e+000 8.726011e+001
10037326950 -8.402802e+000 7.440100e+001 -8.387673e-001 1.705280e+002 -8.415937e-001 1.705389e+002 -8.243162e+000 8.430176e+001
10098075600 -7.639132e+000 6.827530e+001 -9.617116e-001 1.640174e+002 -9.631260e-001 1.640545e+002 -7.569382e+000 7.825743e+001
10158824250 -7.278901e+000 6.300295e+001 -1.034617e+000 1.581226e+002 -1.038930e+000 1.581503e+002 -7.268369e+000 7.211249e+001
10219572900 -7.248923e+000 5.751920e+001 -1.071003e+000 1.521280e+002 -1.070269e+000 1.521548e+002 -7.091434e+000 6.572561e+001
10280321550 -7.348356e+000 5.197050e+001 -1.024427e+000 1.455512e+002 -1.028338e+000 1.455591e+002 -7.437321e+000 5.858269e+001
10341070200 -8.556811e+000 4.683352e+001 -8.512975e-001 1.365919e+002 -8.541591e-001 1.366432e+002 -8.559724e+000 4.848825e+001
10401818850 -1.662119e+001 1.095236e+002 -9.945570e-001 1.083239e+002 -1.001376e+000 1.083123e+002 -2.828009e+001 1.462035e+002
10462567500 -2.847927e+000 5.893232e+001 -3.662446e+000 1.511186e+002 -3.663682e+000 1.511887e+002 -3.042184e+000 6.699400e+001
10523316150 -4.377172e+000 4.607308e+001 -2.102994e+000 1.376614e+002 -2.111390e+000 1.376946e+002 -4.480840e+000 4.883890e+001
