!Agilent Technologies,N5230C,MY48100320,A.08.04.10
!Agilent N5230C: A.08.04.10
!Date: Wednesday, October 05, 2016 23:45:23
!Correction: S11(Full 2 Port(1,2)) 
!S21(Full 2 Port(1,2)) 
!S12(Full 2 Port(1,2)) 
!S22(Full 2 Port(1,2)) 
!S2P File: Measurements: S11, S21, S12, S22:
# Hz S  dB   R 50
300000 -2.681948e+001 7.868891e+001 -6.846716e-002 -2.854833e+000 -7.225960e-002 -2.789285e+000 -2.525063e+001 7.723811e+001
17174625 -5.940816e+001 1.392829e+002 7.059816e-003 -1.058249e+000 2.114316e-003 -1.068205e+000 -5.694179e+001 8.407893e+001
34049250 -5.544882e+001 -8.824809e+001 -1.633850e-003 -1.858158e+000 -3.174843e-003 -1.860989e+000 -5.693340e+001 -8.060778e+001
50923875 -5.210894e+001 -7.059751e+001 -4.069188e-003 -2.780115e+000 -8.753242e-003 -2.740922e+000 -5.009963e+001 -7.646715e+001
67798500 -4.816574e+001 -7.182247e+001 -6.756051e-003 -3.683785e+000 -9.156331e-003 -3.650837e+000 -4.810953e+001 -9.068134e+001
84673125 -4.554815e+001 -7.287227e+001 -1.081717e-002 -4.601063e+000 -8.446343e-003 -4.552764e+000 -4.680315e+001 -8.550535e+001
101547750 -4.338777e+001 -8.091369e+001 -5.494091e-003 -5.502357e+000 -1.404137e-002 -5.493862e+000 -4.520660e+001 -8.923568e+001
118422375 -4.230522e+001 -8.079222e+001 -7.280875e-003 -6.409167e+000 -1.223070e-002 -6.400110e+000 -4.359761e+001 -8.862149e+001
135297000 -4.092138e+001 -8.518760e+001 -1.182635e-002 -7.316042e+000 -1.649219e-002 -7.298007e+000 -4.162284e+001 -9.094790e+001
152171625 -3.916870e+001 -8.645930e+001 -1.080113e-002 -8.202466e+000 -1.831771e-002 -8.177745e+000 -4.079406e+001 -9.862403e+001
169046250 -3.876570e+001 -8.631030e+001 -1.027539e-002 -9.064535e+000 -1.514710e-002 -9.105401e+000 -4.010351e+001 -9.623137e+001
185920875 -3.858533e+001 -8.983374e+001 -9.147862e-003 -9.986691e+000 -1.737295e-002 -1.002493e+001 -3.887237e+001 -9.873138e+001
202795500 -3.759525e+001 -9.299021e+001 -1.474505e-002 -1.090773e+001 -1.703668e-002 -1.088790e+001 -3.826449e+001 -9.478476e+001
219670125 -3.694117e+001 -9.431181e+001 -1.715024e-002 -1.180489e+001 -1.868972e-002 -1.179167e+001 -3.727968e+001 -9.839440e+001
236544750 -3.613164e+001 -9.387862e+001 -1.411270e-002 -1.270437e+001 -2.116606e-002 -1.269765e+001 -3.693354e+001 -1.003005e+002
253419375 -3.562101e+001 -9.428030e+001 -1.446445e-002 -1.359978e+001 -1.913823e-002 -1.357961e+001 -3.641139e+001 -1.013540e+002
270294000 -3.474393e+001 -9.741863e+001 -1.800501e-002 -1.451174e+001 -1.556865e-002 -1.449710e+001 -3.595447e+001 -1.033873e+002
287168625 -3.445766e+001 -9.776334e+001 -1.364046e-002 -1.537826e+001 -2.301525e-002 -1.538857e+001 -3.546289e+001 -1.044691e+002
304043250 -3.390158e+001 -9.944152e+001 -1.357099e-002 -1.629571e+001 -1.918571e-002 -1.629369e+001 -3.495119e+001 -1.082415e+002
320917875 -3.358295e+001 -9.986420e+001 -2.366853e-002 -1.718748e+001 -1.882968e-002 -1.719050e+001 -3.417556e+001 -1.085984e+002
337792500 -3.309595e+001 -9.959168e+001 -1.477175e-002 -1.810330e+001 -2.468016e-002 -1.808344e+001 -3.394492e+001 -1.094701e+002
354667125 -3.259771e+001 -1.011012e+002 -2.277611e-002 -1.899623e+001 -1.982214e-002 -1.900392e+001 -3.373708e+001 -1.128473e+002
371541750 -3.248437e+001 -1.027565e+002 -1.951757e-002 -1.990186e+001 -2.464558e-002 -1.987582e+001 -3.338387e+001 -1.119691e+002
388416375 -3.208455e+001 -1.025470e+002 -2.244396e-002 -2.077430e+001 -2.154316e-002 -2.078551e+001 -3.309759e+001 -1.140708e+002
405291000 -3.188809e+001 -1.040224e+002 -2.059214e-002 -2.169466e+001 -2.450021e-002 -2.168335e+001 -3.290644e+001 -1.147399e+002
422165625 -3.151249e+001 -1.039900e+002 -2.302879e-002 -2.258801e+001 -2.248917e-002 -2.255773e+001 -3.266222e+001 -1.177338e+002
439040250 -3.146516e+001 -1.050832e+002 -2.536960e-002 -2.347817e+001 -2.674947e-002 -2.346395e+001 -3.209705e+001 -1.183418e+002
455914875 -3.103503e+001 -1.064664e+002 -2.487943e-002 -2.437633e+001 -2.474163e-002 -2.436712e+001 -3.155472e+001 -1.192772e+002
472789500 -3.042266e+001 -1.060023e+002 -2.236139e-002 -2.527002e+001 -2.769838e-002 -2.528359e+001 -3.122601e+001 -1.207354e+002
489664125 -2.991825e+001 -1.080133e+002 -2.436531e-002 -2.616764e+001 -2.767021e-002 -2.616788e+001 -3.084403e+001 -1.221813e+002
506538750 -2.948234e+001 -1.093244e+002 -2.481740e-002 -2.706992e+001 -2.938296e-002 -2.706856e+001 -3.010827e+001 -1.221731e+002
523413375 -2.894249e+001 -1.104397e+002 -2.526031e-002 -2.796152e+001 -2.883334e-002 -2.798236e+001 -2.965791e+001 -1.231845e+002
540288000 -2.858194e+001 -1.118761e+002 -2.489069e-002 -2.887540e+001 -3.039386e-002 -2.885908e+001 -2.931720e+001 -1.236813e+002
557162625 -2.841239e+001 -1.126156e+002 -2.846437e-002 -2.977596e+001 -2.762500e-002 -2.976023e+001 -2.901178e+001 -1.242044e+002
574037250 -2.820193e+001 -1.145496e+002 -2.932496e-002 -3.066741e+001 -3.019410e-002 -3.066517e+001 -2.860934e+001 -1.260617e+002
590911875 -2.784198e+001 -1.151445e+002 -3.082724e-002 -3.157493e+001 -3.407116e-002 -3.155996e+001 -2.838496e+001 -1.262386e+002
607786500 -2.780348e+001 -1.160731e+002 -2.700802e-002 -3.245012e+001 -3.354461e-002 -3.245751e+001 -2.838692e+001 -1.271224e+002
624661125 -2.765570e+001 -1.165700e+002 -3.428840e-002 -3.333260e+001 -3.607021e-002 -3.334040e+001 -2.826790e+001 -1.285577e+002
641535750 -2.756382e+001 -1.175669e+002 -3.483507e-002 -3.425277e+001 -3.608633e-002 -3.424210e+001 -2.808841e+001 -1.300031e+002
658410375 -2.749240e+001 -1.178839e+002 -3.006688e-002 -3.515809e+001 -3.353055e-002 -3.514069e+001 -2.807433e+001 -1.311183e+002
675285000 -2.727653e+001 -1.190623e+002 -2.841390e-002 -3.606945e+001 -3.452721e-002 -3.604587e+001 -2.775838e+001 -1.319354e+002
692159625 -2.707383e+001 -1.191946e+002 -3.222899e-002 -3.697899e+001 -3.358728e-002 -3.694305e+001 -2.750497e+001 -1.332705e+002
709034250 -2.688154e+001 -1.198355e+002 -3.447884e-002 -3.788823e+001 -3.517126e-002 -3.788496e+001 -2.722993e+001 -1.345918e+002
725908875 -2.680264e+001 -1.203129e+002 -3.636911e-002 -3.877672e+001 -3.687303e-002 -3.879286e+001 -2.703710e+001 -1.359283e+002
742783500 -2.644650e+001 -1.210070e+002 -3.629605e-002 -3.966046e+001 -4.044333e-002 -3.965845e+001 -2.675143e+001 -1.372692e+002
759658125 -2.616437e+001 -1.209410e+002 -4.034923e-002 -4.057943e+001 -4.278246e-002 -4.058971e+001 -2.662792e+001 -1.385780e+002
776532750 -2.600554e+001 -1.220801e+002 -4.111028e-002 -4.145698e+001 -4.389244e-002 -4.143331e+001 -2.640964e+001 -1.391518e+002
793407375 -2.587897e+001 -1.228184e+002 -4.709521e-002 -4.234951e+001 -4.478166e-002 -4.235357e+001 -2.628138e+001 -1.404629e+002
810282000 -2.581974e+001 -1.231330e+002 -4.299423e-002 -4.326333e+001 -4.542351e-002 -4.325121e+001 -2.608777e+001 -1.415016e+002
827156625 -2.559736e+001 -1.241697e+002 -4.316032e-002 -4.413232e+001 -4.270134e-002 -4.412857e+001 -2.590047e+001 -1.433757e+002
844031250 -2.561473e+001 -1.248409e+002 -4.959235e-002 -4.503274e+001 -4.837130e-002 -4.503133e+001 -2.580194e+001 -1.445030e+002
860905875 -2.533739e+001 -1.246153e+002 -4.315692e-002 -4.593795e+001 -4.712714e-002 -4.590987e+001 -2.566926e+001 -1.452973e+002
877780500 -2.532605e+001 -1.253972e+002 -4.602183e-002 -4.682554e+001 -4.949367e-002 -4.682280e+001 -2.550439e+001 -1.472522e+002
894655125 -2.514274e+001 -1.255952e+002 -4.685234e-002 -4.771128e+001 -4.562844e-002 -4.770963e+001 -2.537413e+001 -1.482806e+002
911529750 -2.496109e+001 -1.256400e+002 -4.825010e-002 -4.862663e+001 -4.378889e-002 -4.863857e+001 -2.522799e+001 -1.496303e+002
928404375 -2.478537e+001 -1.260094e+002 -4.909937e-002 -4.951484e+001 -5.014615e-002 -4.950389e+001 -2.499256e+001 -1.501805e+002
945279000 -2.451590e+001 -1.270701e+002 -4.631318e-002 -5.040066e+001 -4.299044e-002 -5.042825e+001 -2.473360e+001 -1.522746e+002
962153625 -2.434463e+001 -1.278388e+002 -4.996853e-002 -5.130209e+001 -4.954643e-002 -5.130486e+001 -2.461524e+001 -1.536222e+002
979028250 -2.419396e+001 -1.281891e+002 -5.070150e-002 -5.219826e+001 -4.882257e-002 -5.218793e+001 -2.442669e+001 -1.546408e+002
995902875 -2.401817e+001 -1.292623e+002 -5.023672e-002 -5.308477e+001 -5.137144e-002 -5.311692e+001 -2.413829e+001 -1.561775e+002
1012777500 -2.378002e+001 -1.298517e+002 -4.836823e-002 -5.401852e+001 -5.092590e-002 -5.400789e+001 -2.404741e+001 -1.575526e+002
1029652125 -2.366970e+001 -1.303864e+002 -4.916167e-002 -5.489493e+001 -4.913985e-002 -5.490010e+001 -2.394975e+001 -1.588734e+002
1046526750 -2.360392e+001 -1.307576e+002 -4.526996e-002 -5.576685e+001 -4.846867e-002 -5.579309e+001 -2.389582e+001 -1.604063e+002
1063401375 -2.353735e+001 -1.318172e+002 -5.052579e-002 -5.670149e+001 -5.216964e-002 -5.669694e+001 -2.381849e+001 -1.620587e+002
1080276000 -2.348123e+001 -1.326743e+002 -4.803687e-002 -5.758936e+001 -5.132045e-002 -5.757120e+001 -2.367036e+001 -1.633453e+002
1097150625 -2.336782e+001 -1.322509e+002 -4.973964e-002 -5.844926e+001 -5.107411e-002 -5.849435e+001 -2.357448e+001 -1.643968e+002
1114025250 -2.334188e+001 -1.326946e+002 -4.485748e-002 -5.938145e+001 -5.634186e-002 -5.938084e+001 -2.355412e+001 -1.659009e+002
1130899875 -2.319190e+001 -1.330227e+002 -5.127199e-002 -6.029668e+001 -5.699328e-002 -6.030162e+001 -2.335795e+001 -1.674206e+002
1147774500 -2.306512e+001 -1.335730e+002 -5.540972e-002 -6.118108e+001 -5.540379e-002 -6.121421e+001 -2.317338e+001 -1.686875e+002
1164649125 -2.284772e+001 -1.340282e+002 -5.359054e-002 -6.207711e+001 -5.354137e-002 -6.208893e+001 -2.306900e+001 -1.705151e+002
1181523750 -2.273454e+001 -1.344576e+002 -5.236953e-002 -6.296589e+001 -5.570810e-002 -6.299467e+001 -2.295936e+001 -1.725552e+002
1198398375 -2.255504e+001 -1.351187e+002 -5.694504e-002 -6.388517e+001 -5.806152e-002 -6.388601e+001 -2.280070e+001 -1.737415e+002
1215273000 -2.242599e+001 -1.354287e+002 -6.335815e-002 -6.478225e+001 -5.543366e-002 -6.478850e+001 -2.259933e+001 -1.746713e+002
1232147625 -2.230163e+001 -1.357340e+002 -5.942901e-002 -6.565329e+001 -6.040741e-002 -6.567253e+001 -2.250253e+001 -1.756620e+002
1249022250 -2.217967e+001 -1.364422e+002 -5.910549e-002 -6.657087e+001 -5.938551e-002 -6.656671e+001 -2.234443e+001 -1.772884e+002
1265896875 -2.211043e+001 -1.368714e+002 -6.219042e-002 -6.744899e+001 -6.209147e-002 -6.747898e+001 -2.228858e+001 -1.790533e+002
1282771500 -2.197264e+001 -1.373340e+002 -5.755990e-002 -6.837991e+001 -6.294479e-002 -6.835969e+001 -2.222182e+001 1.798717e+002
1299646125 -2.193632e+001 -1.376542e+002 -5.987839e-002 -6.927563e+001 -6.044459e-002 -6.925907e+001 -2.212086e+001 1.783316e+002
1316520750 -2.183796e+001 -1.378426e+002 -6.291196e-002 -7.014568e+001 -6.672276e-002 -7.015927e+001 -2.198184e+001 1.768717e+002
1333395375 -2.167714e+001 -1.380346e+002 -6.008345e-002 -7.104015e+001 -6.240944e-002 -7.105319e+001 -2.183988e+001 1.749958e+002
1350270000 -2.159778e+001 -1.384659e+002 -6.290274e-002 -7.197022e+001 -6.322107e-002 -7.193370e+001 -2.175926e+001 1.734817e+002
1367144625 -2.146955e+001 -1.390587e+002 -6.223737e-002 -7.285670e+001 -6.119936e-002 -7.287425e+001 -2.151597e+001 1.722491e+002
1384019250 -2.125079e+001 -1.399736e+002 -6.499891e-002 -7.377098e+001 -6.772631e-002 -7.373489e+001 -2.140879e+001 1.704175e+002
1400893875 -2.120760e+001 -1.406094e+002 -7.094212e-002 -7.465828e+001 -6.638025e-002 -7.463638e+001 -2.122387e+001 1.694946e+002
1417768500 -2.105138e+001 -1.408431e+002 -6.315497e-002 -7.552204e+001 -6.506830e-002 -7.551302e+001 -2.120242e+001 1.678551e+002
1434643125 -2.090763e+001 -1.412189e+002 -6.412762e-002 -7.645766e+001 -6.812906e-002 -7.641167e+001 -2.101718e+001 1.670447e+002
1451517750 -2.088060e+001 -1.419091e+002 -6.946144e-002 -7.732079e+001 -7.399137e-002 -7.732496e+001 -2.090773e+001 1.655179e+002
1468392375 -2.077131e+001 -1.422904e+002 -6.357974e-002 -7.823038e+001 -6.893504e-002 -7.823991e+001 -2.084665e+001 1.643183e+002
1485267000 -2.070486e+001 -1.428125e+002 -6.088048e-002 -7.912533e+001 -6.624711e-002 -7.913453e+001 -2.074645e+001 1.631494e+002
1502141625 -2.068551e+001 -1.429726e+002 -8.238081e-002 -8.007097e+001 -7.791571e-002 -8.003459e+001 -2.069210e+001 1.612125e+002
1519016250 -2.056626e+001 -1.431163e+002 -7.271510e-002 -8.092766e+001 -7.204244e-002 -8.090564e+001 -2.059599e+001 1.594246e+002
1535890875 -2.051388e+001 -1.439000e+002 -7.048639e-002 -8.179296e+001 -7.285570e-002 -8.182191e+001 -2.052553e+001 1.581961e+002
1552765500 -2.043498e+001 -1.439743e+002 -7.262503e-002 -8.271352e+001 -7.017186e-002 -8.269336e+001 -2.039009e+001 1.564238e+002
1569640125 -2.031198e+001 -1.446964e+002 -8.289070e-002 -8.359857e+001 -8.332027e-002 -8.358559e+001 -2.026141e+001 1.548176e+002
1586514750 -2.016051e+001 -1.446933e+002 -7.495891e-002 -8.450655e+001 -7.283161e-002 -8.451038e+001 -2.010799e+001 1.540895e+002
1603389375 -1.997805e+001 -1.453503e+002 -7.707670e-002 -8.540726e+001 -7.491368e-002 -8.540054e+001 -1.987719e+001 1.525166e+002
1620264000 -1.982233e+001 -1.456104e+002 -8.640416e-002 -8.632168e+001 -7.660189e-002 -8.629759e+001 -1.982392e+001 1.514972e+002
1637138625 -1.982189e+001 -1.464615e+002 -7.658599e-002 -8.719832e+001 -8.196378e-002 -8.722559e+001 -1.969773e+001 1.497610e+002
1654013250 -1.965627e+001 -1.464674e+002 -8.303114e-002 -8.809518e+001 -8.405278e-002 -8.810532e+001 -1.959201e+001 1.486776e+002
1670887875 -1.961334e+001 -1.470653e+002 -7.874463e-002 -8.898043e+001 -8.590899e-002 -8.900388e+001 -1.948625e+001 1.472946e+002
1687762500 -1.950309e+001 -1.477118e+002 -8.521494e-002 -8.988756e+001 -7.940225e-002 -8.989374e+001 -1.945186e+001 1.461999e+002
1704637125 -1.946903e+001 -1.473344e+002 -8.366390e-002 -9.078283e+001 -8.112659e-002 -9.081744e+001 -1.931740e+001 1.446033e+002
1721511750 -1.937013e+001 -1.480697e+002 -8.703275e-002 -9.169904e+001 -8.886027e-002 -9.168562e+001 -1.925844e+001 1.433416e+002
1738386375 -1.931395e+001 -1.483573e+002 -8.829346e-002 -9.260140e+001 -8.634888e-002 -9.260464e+001 -1.914882e+001 1.417211e+002
1755261000 -1.924508e+001 -1.488642e+002 -8.788463e-002 -9.348736e+001 -8.794608e-002 -9.350860e+001 -1.902362e+001 1.402754e+002
1772135625 -1.912919e+001 -1.490774e+002 -8.074146e-002 -9.438995e+001 -9.375244e-002 -9.438118e+001 -1.895513e+001 1.386690e+002
1789010250 -1.905013e+001 -1.496184e+002 -8.629180e-002 -9.528050e+001 -9.099109e-002 -9.527760e+001 -1.880512e+001 1.372486e+002
1805884875 -1.893337e+001 -1.502372e+002 -9.130022e-002 -9.619141e+001 -9.395414e-002 -9.617233e+001 -1.872090e+001 1.360540e+002
1822759500 -1.883142e+001 -1.504157e+002 -9.762691e-002 -9.708268e+001 -9.472997e-002 -9.711266e+001 -1.858077e+001 1.351893e+002
1839634125 -1.870020e+001 -1.506096e+002 -9.656217e-002 -9.798149e+001 -1.010845e-001 -9.799572e+001 -1.845630e+001 1.337094e+002
1856508750 -1.858498e+001 -1.513684e+002 -9.476205e-002 -9.889853e+001 -9.292617e-002 -9.889011e+001 -1.834717e+001 1.325542e+002
1873383375 -1.847460e+001 -1.517495e+002 -9.696317e-002 -9.978764e+001 -9.902763e-002 -9.977519e+001 -1.826966e+001 1.311856e+002
1890258000 -1.839769e+001 -1.523754e+002 -9.466403e-002 -1.006631e+002 -1.008551e-001 -1.006830e+002 -1.818687e+001 1.298772e+002
1907132625 -1.835839e+001 -1.528874e+002 -1.065144e-001 -1.015881e+002 -1.007377e-001 -1.015636e+002 -1.811210e+001 1.287101e+002
1924007250 -1.827362e+001 -1.531158e+002 -9.815358e-002 -1.024840e+002 -1.014379e-001 -1.024720e+002 -1.803306e+001 1.275752e+002
1940881875 -1.815281e+001 -1.533923e+002 -1.045080e-001 -1.033852e+002 -9.975617e-002 -1.033613e+002 -1.799978e+001 1.261918e+002
1957756500 -1.807293e+001 -1.537703e+002 -1.022165e-001 -1.042764e+002 -1.052720e-001 -1.042766e+002 -1.786202e+001 1.248547e+002
1974631125 -1.800466e+001 -1.543476e+002 -1.036096e-001 -1.051722e+002 -1.061424e-001 -1.051999e+002 -1.778811e+001 1.232643e+002
1991505750 -1.790257e+001 -1.544285e+002 -1.148564e-001 -1.060663e+002 -1.116422e-001 -1.060578e+002 -1.769969e+001 1.221191e+002
2008380375 -1.779558e+001 -1.550423e+002 -1.044719e-001 -1.069502e+002 -1.076941e-001 -1.069735e+002 -1.754031e+001 1.205994e+002
2025255000 -1.765777e+001 -1.554423e+002 -1.117173e-001 -1.078637e+002 -1.184939e-001 -1.078528e+002 -1.745247e+001 1.193135e+002
2042129625 -1.757714e+001 -1.563530e+002 -1.063013e-001 -1.087543e+002 -1.213030e-001 -1.087606e+002 -1.740846e+001 1.182251e+002
2059004250 -1.740449e+001 -1.565232e+002 -1.222295e-001 -1.096705e+002 -1.152849e-001 -1.096553e+002 -1.728078e+001 1.171704e+002
2075878875 -1.735812e+001 -1.567653e+002 -1.150882e-001 -1.105782e+002 -1.183111e-001 -1.105660e+002 -1.718623e+001 1.160646e+002
2092753500 -1.724106e+001 -1.576638e+002 -1.216928e-001 -1.114571e+002 -1.235003e-001 -1.114581e+002 -1.710498e+001 1.146436e+002
2109628125 -1.717536e+001 -1.581169e+002 -1.207389e-001 -1.123541e+002 -1.202394e-001 -1.123517e+002 -1.701471e+001 1.134994e+002
2126502750 -1.710960e+001 -1.587196e+002 -1.222243e-001 -1.132282e+002 -1.193264e-001 -1.132276e+002 -1.691145e+001 1.121904e+002
2143377375 -1.704331e+001 -1.589662e+002 -1.195046e-001 -1.141308e+002 -1.202308e-001 -1.141344e+002 -1.689551e+001 1.107991e+002
2160252000 -1.695200e+001 -1.594860e+002 -1.259012e-001 -1.150468e+002 -1.248199e-001 -1.150232e+002 -1.684009e+001 1.095685e+002
2177126625 -1.683197e+001 -1.600764e+002 -1.378978e-001 -1.159363e+002 -1.351209e-001 -1.159340e+002 -1.681298e+001 1.082408e+002
2194001250 -1.677147e+001 -1.600565e+002 -1.249378e-001 -1.168489e+002 -1.362065e-001 -1.168660e+002 -1.668564e+001 1.072514e+002
2210875875 -1.667355e+001 -1.608609e+002 -1.210894e-001 -1.177467e+002 -1.231878e-001 -1.177583e+002 -1.657127e+001 1.058598e+002
2227750500 -1.653039e+001 -1.613363e+002 -1.250354e-001 -1.186335e+002 -1.330499e-001 -1.186498e+002 -1.648358e+001 1.043550e+002
2244625125 -1.648969e+001 -1.621559e+002 -1.323863e-001 -1.195398e+002 -1.379533e-001 -1.195040e+002 -1.641224e+001 1.031114e+002
2261499750 -1.637771e+001 -1.627684e+002 -1.390029e-001 -1.204277e+002 -1.398803e-001 -1.203910e+002 -1.628992e+001 1.019605e+002
2278374375 -1.631850e+001 -1.633130e+002 -1.411583e-001 -1.213016e+002 -1.403631e-001 -1.213088e+002 -1.625834e+001 1.010217e+002
2295249000 -1.623949e+001 -1.639132e+002 -1.454205e-001 -1.222129e+002 -1.462132e-001 -1.222027e+002 -1.619485e+001 9.979788e+001
2312123625 -1.616106e+001 -1.643094e+002 -1.380362e-001 -1.231007e+002 -1.428900e-001 -1.231092e+002 -1.609480e+001 9.879546e+001
2328998250 -1.610505e+001 -1.649641e+002 -1.465032e-001 -1.239833e+002 -1.494313e-001 -1.239812e+002 -1.606492e+001 9.739419e+001
2345872875 -1.602885e+001 -1.655900e+002 -1.499203e-001 -1.248813e+002 -1.438181e-001 -1.248907e+002 -1.595732e+001 9.628411e+001
2362747500 -1.592697e+001 -1.659040e+002 -1.357961e-001 -1.257982e+002 -1.462946e-001 -1.257789e+002 -1.588298e+001 9.490041e+001
2379622125 -1.586309e+001 -1.668816e+002 -1.492027e-001 -1.266237e+002 -1.524851e-001 -1.266867e+002 -1.585489e+001 9.360856e+001
2396496750 -1.580185e+001 -1.674219e+002 -1.631347e-001 -1.275456e+002 -1.599501e-001 -1.275646e+002 -1.583522e+001 9.239480e+001
2413371375 -1.575469e+001 -1.678787e+002 -1.591570e-001 -1.284405e+002 -1.686045e-001 -1.284501e+002 -1.574171e+001 9.144393e+001
2430246000 -1.566316e+001 -1.684125e+002 -1.583896e-001 -1.293547e+002 -1.577848e-001 -1.293388e+002 -1.567271e+001 9.017553e+001
2447120625 -1.559500e+001 -1.691451e+002 -1.577081e-001 -1.302290e+002 -1.653870e-001 -1.302522e+002 -1.557418e+001 8.904960e+001
2463995250 -1.551862e+001 -1.698400e+002 -1.687455e-001 -1.311351e+002 -1.638516e-001 -1.311275e+002 -1.551678e+001 8.778963e+001
2480869875 -1.542069e+001 -1.704580e+002 -1.637451e-001 -1.320226e+002 -1.651205e-001 -1.320279e+002 -1.541638e+001 8.688651e+001
2497744500 -1.538277e+001 -1.711169e+002 -1.646475e-001 -1.329143e+002 -1.676330e-001 -1.329090e+002 -1.536334e+001 8.557013e+001
2514619125 -1.529728e+001 -1.718820e+002 -1.680869e-001 -1.337883e+002 -1.785612e-001 -1.337920e+002 -1.536954e+001 8.472810e+001
2531493750 -1.524970e+001 -1.724480e+002 -1.721271e-001 -1.346882e+002 -1.798140e-001 -1.347254e+002 -1.528443e+001 8.384296e+001
