!Agilent Technologies,N5230C,MY48100320,A.08.04.10
!Agilent N5230C: A.08.04.10
!Date: Thursday, October 06, 2016 14:54:59
!Correction: S11(Off) 
!S21(Off) 
!S12(Off) 
!S22(Off) 
!S2P File: Measurements: S11, S21, S12, S22:
# Hz S  dB   R 50
300000 -2.469639e+001 -4.916058e+001 4.307477e-002 -7.356245e-001 2.341187e-002 -2.752776e-001 -2.579752e+001 -4.074062e+001
67798500 -4.390249e+001 1.234821e+002 -1.402372e-001 -1.292912e+002 -1.471431e-001 -1.295640e+002 -4.168461e+001 1.140609e+002
135297000 -3.619117e+001 1.631465e+002 -2.383905e-001 1.007987e+002 -1.288821e-001 1.025134e+002 -3.465356e+001 1.578799e+002
202795500 -3.498477e+001 -1.032701e+002 -2.084124e-001 -2.643544e+001 -2.094501e-001 -2.632322e+001 -3.518343e+001 -1.346921e+002
270294000 -4.000034e+001 -1.099492e+002 -2.426333e-001 -1.545775e+002 -2.152865e-001 -1.555640e+002 -3.858208e+001 -9.048049e+001
337792500 -5.086315e+001 1.477534e+001 -2.871675e-001 7.691524e+001 -3.346468e-001 7.578244e+001 -6.341004e+001 1.143457e+002
405291000 -3.395711e+001 -1.013008e+002 -2.737816e-001 -5.104827e+001 -2.981914e-001 -5.283323e+001 -3.696243e+001 -1.515478e+002
472789500 -3.805642e+001 -4.582976e+001 -3.224477e-001 -1.794617e+002 -3.416714e-001 1.786692e+002 -3.528841e+001 -1.022065e+002
540288000 -3.672430e+001 -2.844833e+001 -3.147101e-001 5.208156e+001 -3.464700e-001 5.007119e+001 -3.523567e+001 -3.456182e+001
607786500 -4.656788e+001 -5.813085e+001 -3.718988e-001 -7.610865e+001 -3.767927e-001 -7.848494e+001 -3.932550e+001 1.783043e+001
675285000 -3.050509e+001 -7.903875e+000 -3.746521e-001 1.556376e+002 -3.815989e-001 1.530651e+002 -3.876522e+001 8.383942e+001
742783500 -3.727162e+001 4.421443e+001 -4.072506e-001 2.741283e+001 -4.304673e-001 2.434560e+001 -3.623507e+001 5.331858e+001
810282000 -2.865166e+001 1.147996e+002 -3.882542e-001 -1.005672e+002 -4.397403e-001 -1.039732e+002 -3.194924e+001 1.191318e+002
877780500 -3.445253e+001 -1.500939e+002 -4.035423e-001 1.307818e+002 -5.082871e-001 1.271653e+002 -3.048689e+001 1.547491e+002
945279000 -3.126960e+001 -1.345452e+002 -4.299701e-001 2.599451e+000 -5.054162e-001 -4.904693e-001 -3.237042e+001 -1.534452e+002
1012777500 -4.270895e+001 3.774411e+001 -4.600888e-001 -1.258981e+002 -4.154136e-001 -1.294382e+002 -3.775001e+001 -1.381001e+002
1080276000 -3.717455e+001 -1.524193e+002 -5.093520e-001 1.063053e+002 -4.594372e-001 1.020446e+002 -3.553725e+001 -1.363545e+002
1147774500 -2.910594e+001 -1.524143e+002 -4.446443e-001 -2.198490e+001 -3.895815e-001 -2.680511e+001 -3.281675e+001 -1.257417e+002
1215273000 -3.105833e+001 -8.424990e+001 -4.980890e-001 -1.503027e+002 -5.005941e-001 -1.555994e+002 -3.354322e+001 -6.684830e+001
1282771500 -2.760189e+001 -4.668952e+001 -4.423198e-001 8.138322e+001 -4.671629e-001 7.604668e+001 -3.023719e+001 -3.094268e+001
1350270000 -3.104238e+001 2.876561e+001 -5.547893e-001 -4.721602e+001 -5.840751e-001 -5.280783e+001 -3.162422e+001 2.753680e+001
1417768500 -2.805092e+001 6.080252e+001 -5.212669e-001 -1.746716e+002 -5.498531e-001 1.795227e+002 -2.974633e+001 7.786764e+001
1485267000 -3.208176e+001 1.071158e+002 -4.890049e-001 5.651607e+001 -5.360560e-001 5.038909e+001 -3.489874e+001 1.463416e+002
1552765500 -2.724231e+001 1.295145e+002 -5.581703e-001 -7.142403e+001 -6.059964e-001 -7.759044e+001 -3.703871e+001 -1.545843e+002
1620264000 -3.178652e+001 1.255629e+002 -5.504454e-001 1.599747e+002 -5.778161e-001 1.534299e+002 -3.383937e+001 8.666026e+001
1687762500 -3.007084e+001 1.547366e+002 -6.017718e-001 3.215067e+001 -6.708419e-001 2.522850e+001 -2.886103e+001 1.553094e+002
1755261000 -2.773283e+001 1.594776e+002 -4.729257e-001 -9.645380e+001 -5.406166e-001 -1.034439e+002 -2.610754e+001 -1.577573e+002
1822759500 -2.568677e+001 -1.650534e+002 -5.486528e-001 1.347541e+002 -6.254846e-001 1.276332e+002 -2.611427e+001 -9.776820e+001
1890258000 -2.593796e+001 -1.065741e+002 -5.421880e-001 6.856149e+000 -5.840076e-001 -4.682235e-001 -2.960122e+001 -8.555292e+001
1957756500 -2.416454e+001 -6.208976e+001 -6.256097e-001 -1.214038e+002 -6.509519e-001 -1.289965e+002 -3.113803e+001 -2.895548e+001
2025255000 -2.794404e+001 1.339663e+001 -5.704333e-001 1.110783e+002 -5.963977e-001 1.031634e+002 -2.909543e+001 -4.776104e+001
2092753500 -2.492846e+001 4.541847e+001 -5.801550e-001 -1.799255e+001 -6.072307e-001 -2.616352e+001 -3.047099e+001 4.354556e+001
2160252000 -3.960706e+001 1.435115e+002 -6.621122e-001 -1.461791e+002 -6.933767e-001 -1.545055e+002 -2.756458e+001 3.159264e+001
2227750500 -2.810190e+001 9.003172e+001 -6.843062e-001 8.556923e+001 -6.593401e-001 7.685606e+001 -3.839927e+001 1.315267e+002
2295249000 -2.547530e+001 7.201532e+001 -6.926665e-001 -4.231768e+001 -6.920675e-001 -5.148386e+001 -2.761642e+001 9.690053e+001
2362747500 -2.283086e+001 1.447646e+002 -6.229040e-001 -1.707623e+002 -6.061171e-001 1.797190e+002 -3.116971e+001 1.382118e+002
2430246000 -2.303864e+001 1.753585e+002 -6.797854e-001 6.077709e+001 -6.886938e-001 5.106655e+001 -2.527915e+001 -1.643951e+002
2497744500 -2.459765e+001 -1.253073e+002 -6.711960e-001 -6.724687e+001 -6.692711e-001 -7.718518e+001 -2.634189e+001 -1.167350e+002
2565243000 -2.578665e+001 -9.233017e+001 -6.974430e-001 1.646578e+002 -6.946231e-001 1.543481e+002 -2.579109e+001 -8.679408e+001
2632741500 -2.555212e+001 -5.690251e+001 -6.801217e-001 3.643918e+001 -6.900215e-001 2.585400e+001 -2.446456e+001 -6.244134e+001
2700240000 -2.397788e+001 -4.419976e+001 -7.074451e-001 -9.201153e+001 -7.106112e-001 -1.027827e+002 -2.404624e+001 -2.761177e+001
2767738500 -2.238210e+001 -8.006310e+000 -7.222130e-001 1.398605e+002 -7.167947e-001 1.288146e+002 -2.408820e+001 9.953665e+000
2835237000 -2.143351e+001 1.067759e+001 -7.196006e-001 1.137045e+001 -7.064371e-001 8.630545e-002 -2.653277e+001 1.695019e+001
2902735500 -2.324540e+001 4.796384e+001 -7.125983e-001 -1.168838e+002 -7.211148e-001 -1.285373e+002 -2.519948e+001 4.680055e+001
2970234000 -2.268762e+001 7.190932e+001 -7.390079e-001 1.146681e+002 -7.531939e-001 1.028668e+002 -2.303220e+001 7.636354e+001
3037732500 -2.724069e+001 1.019788e+002 -7.472944e-001 -1.322236e+001 -7.482489e-001 -2.532002e+001 -2.419393e+001 1.376490e+002
3105231000 -2.771770e+001 1.764230e+002 -7.282058e-001 -1.414213e+002 -7.332737e-001 -1.539488e+002 -2.786437e+001 -1.498062e+002
3172729500 -3.093043e+001 -1.375478e+002 -7.509654e-001 9.035361e+001 -7.512016e-001 7.759840e+001 -3.236313e+001 -8.531578e+001
3240228000 -2.560129e+001 -8.060604e+001 -7.695372e-001 -3.798414e+001 -7.874047e-001 -5.113009e+001 -4.173650e+001 -1.011363e+002
3307726500 -2.341023e+001 -7.191097e+001 -8.114009e-001 -1.661013e+002 -8.338163e-001 -1.793166e+002 -2.467920e+001 -8.541632e+001
3375225000 -2.227931e+001 -3.643629e+001 -7.784893e-001 6.565765e+001 -7.841904e-001 5.205235e+001 -2.234426e+001 -4.212528e+001
3442723500 -1.945540e+001 -2.121220e+001 -8.087739e-001 -6.264424e+001 -8.130729e-001 -7.645667e+001 -1.989333e+001 1.139730e+001
3510222000 -2.054992e+001 7.554828e+000 -7.859352e-001 1.690786e+002 -7.905648e-001 1.550617e+002 -2.243245e+001 2.891125e+001
3577720500 -1.902886e+001 4.851482e+001 -8.159658e-001 4.109336e+001 -8.130130e-001 2.675238e+001 -2.222258e+001 6.986963e+001
3645219000 -2.005839e+001 8.009586e+001 -7.656064e-001 -8.721165e+001 -7.746788e-001 -1.016458e+002 -2.215710e+001 7.418072e+001
3712717500 -2.287100e+001 1.201293e+002 -7.942371e-001 1.441570e+002 -8.063829e-001 1.294976e+002 -2.311886e+001 1.140441e+002
3780216000 -2.355544e+001 1.406615e+002 -8.575372e-001 1.582090e+001 -8.533589e-001 9.246807e-001 -2.230954e+001 1.313885e+002
3847714500 -2.293780e+001 1.290360e+002 -8.839940e-001 -1.122960e+002 -9.013103e-001 -1.274192e+002 -2.266921e+001 -1.791644e+002
3915213000 -2.273083e+001 -1.719085e+002 -8.621615e-001 1.199087e+002 -8.646548e-001 1.042136e+002 -2.471529e+001 -1.566979e+002
3982711500 -2.056748e+001 -1.479862e+002 -7.892686e-001 -8.764574e+000 -8.234618e-001 -2.460777e+001 -2.721134e+001 -9.266705e+001
4050210000 -2.500324e+001 -4.200739e+001 -8.362955e-001 -1.370537e+002 -8.967667e-001 -1.533198e+002 -2.663613e+001 -1.133379e+002
4117708500 -2.169161e+001 -3.241924e+001 -9.090648e-001 9.477830e+001 -9.268755e-001 7.869016e+001 -2.549701e+001 3.206565e+000
4185207000 -2.404623e+001 8.063629e+001 -9.097543e-001 -3.299244e+001 -9.788085e-001 -4.969508e+001 -2.275823e+001 8.727198e-001
4252705500 -2.012181e+001 5.464022e+001 -9.061359e-001 -1.608709e+002 -8.999110e-001 -1.778168e+002 -2.063850e+001 1.074063e+002
4320204000 -2.824399e+001 1.148852e+002 -8.615085e-001 7.007935e+001 -9.384026e-001 5.289630e+001 -2.040389e+001 1.047797e+002
4387702500 -1.956784e+001 1.141413e+002 -9.360958e-001 -5.797456e+001 -9.271646e-001 -7.549225e+001 -2.442055e+001 1.619610e+002
4455201000 -2.124416e+001 1.146106e+002 -9.027089e-001 1.732830e+002 -9.191414e-001 1.556643e+002 -1.864882e+001 1.447860e+002
4522699500 -1.645980e+001 1.631547e+002 -9.160424e-001 4.517478e+001 -8.957289e-001 2.690949e+001 -1.836437e+001 1.609749e+002
4590198000 -1.678032e+001 -1.706065e+002 -8.669971e-001 -8.378678e+001 -8.916120e-001 -1.020754e+002 -1.576202e+001 -1.516457e+002
4657696500 -1.696231e+001 -1.232861e+002 -9.594023e-001 1.481084e+002 -9.804128e-001 1.296622e+002 -1.780766e+001 -1.218967e+002
4725195000 -2.576059e+001 -1.068367e+002 -9.254830e-001 2.088461e+001 -8.964740e-001 2.241887e+000 -2.983980e+001 -7.739957e+001
4792693500 -2.535098e+001 -8.068499e+001 -9.341609e-001 -1.073891e+002 -9.431630e-001 -1.263980e+002 -3.008316e+001 -1.146733e+002
4860192000 -2.518263e+001 -1.089859e+002 -8.898707e-001 1.240868e+002 -9.080282e-001 1.048178e+002 -2.266442e+001 -1.142115e+002
4927690500 -2.367886e+001 -1.203557e+001 -9.567857e-001 -5.022985e+000 -9.940068e-001 -2.424598e+001 -3.074298e+001 -2.003718e+001
4995189000 -2.865665e+001 -3.894118e+001 -1.033342e+000 -1.330451e+002 -1.057992e+000 -1.523185e+002 -2.208066e+001 3.890170e+001
5062687500 -2.888048e+001 9.749720e+001 -9.613966e-001 9.930865e+001 -9.397756e-001 7.919461e+001 -2.037871e+001 1.275096e+002
5130186000 -3.034301e+001 1.163016e+002 -8.999843e-001 -2.897589e+001 -9.535708e-001 -4.935354e+001 -1.793271e+001 1.700423e+002
5197684500 -1.907261e+001 -1.786621e+002 -8.303015e-001 -1.572649e+002 -8.591861e-001 -1.782913e+002 -2.177106e+001 -1.460883e+002
5265183000 -1.924461e+001 -1.456987e+002 -9.929065e-001 7.388763e+001 -1.033996e+000 5.311583e+001 -2.079498e+001 -1.316428e+002
5332681500 -1.594336e+001 -1.092561e+002 -1.077049e+000 -5.397037e+001 -1.014545e+000 -7.534409e+001 -1.768581e+001 -1.366256e+002
5400180000 -2.327761e+001 -9.379223e+001 -1.035879e+000 1.777514e+002 -9.863467e-001 1.562046e+002 -1.905688e+001 -7.946796e+001
5467678500 -1.956352e+001 -6.762028e+001 -1.038927e+000 4.984882e+001 -1.032214e+000 2.789285e+001 -1.616619e+001 -5.630344e+001
5535177000 -1.919696e+001 -1.001836e+002 -1.002818e+000 -7.895090e+001 -9.954754e-001 -1.006933e+002 -2.493690e+001 -5.573697e+001
5602675500 -2.092385e+001 -2.617309e+001 -1.089908e+000 1.535220e+002 -1.104430e+000 1.317091e+002 -1.861226e+001 -1.170683e+001
5670174000 -1.558712e+001 -2.155770e+001 -9.949791e-001 2.496338e+001 -8.756061e-001 2.455421e+000 -1.929912e+001 -2.501438e+001
5737672500 -2.136135e+001 3.731428e+001 -1.008203e+000 -1.033004e+002 -1.037469e+000 -1.261527e+002 -2.065282e+001 5.278698e+001
5805171000 -1.800486e+001 6.798037e+001 -9.745513e-001 1.280966e+002 -9.710846e-001 1.051414e+002 -2.282285e+001 6.487033e+001
5872669500 -3.362767e+001 -1.208107e+002 -1.119267e+000 3.692885e-001 -1.172534e+000 -2.220305e+001 -2.230263e+001 -1.510406e+002
5940168000 -2.873746e+001 -8.211747e+001 -1.099694e+000 -1.266625e+002 -1.059966e+000 -1.499210e+002 -2.276688e+001 -7.451878e+001
6007666500 -2.192309e+001 2.098888e+001 -1.010583e+000 1.039100e+002 -9.943185e-001 8.030729e+001 -2.092387e+001 -3.764997e+001
6075165000 -3.646139e+001 5.800879e+001 -1.080987e+000 -2.480829e+001 -1.110919e+000 -4.881237e+001 -3.478565e+001 -6.662215e+001
6142663500 -2.306762e+001 -1.092672e+002 -1.108555e+000 -1.528226e+002 -1.128381e+000 -1.770824e+002 -1.785579e+001 -7.064643e+001
6210162000 -1.872592e+001 -3.730721e+001 -1.261716e+000 7.951608e+001 -1.311295e+000 5.498844e+001 -1.453236e+001 -4.416632e+001
6277660500 -1.574934e+001 -2.002028e+000 -1.240092e+000 -4.749008e+001 -1.184229e+000 -7.305246e+001 -1.312770e+001 1.107220e+001
6345159000 -1.851659e+001 1.437016e+001 -1.146915e+000 -1.768994e+002 -1.171677e+000 1.572693e+002 -1.795095e+001 3.416181e+001
6412657500 -1.948677e+001 3.799678e+001 -1.238661e+000 5.480915e+001 -1.224146e+000 2.922801e+001 -2.403857e+001 6.104756e+001
6480156000 -1.757893e+001 4.455331e+001 -1.224957e+000 -7.400291e+001 -1.207879e+000 -9.994940e+001 -1.938027e+001 2.446003e+001
6547654500 -1.988709e+001 6.340233e+001 -1.265846e+000 1.582003e+002 -1.236264e+000 1.324379e+002 -1.984146e+001 6.110756e+001
6615153000 -2.527510e+001 8.425049e+001 -1.072437e+000 3.008419e+001 -1.005786e+000 3.202231e+000 -2.453094e+001 1.154250e+002
6682651500 -2.109829e+001 8.451074e+001 -1.189988e+000 -9.902473e+001 -1.221817e+000 -1.256567e+002 -2.827865e+001 -1.644279e+002
6750150000 -2.283621e+001 1.073842e+002 -1.247425e+000 1.330081e+002 -1.169111e+000 1.066886e+002 -2.816771e+001 -4.489780e+001
6817648500 -2.036823e+001 -1.747605e+002 -1.317273e+000 4.531290e+000 -1.260863e+000 -2.221255e+001 -2.410133e+001 -4.796075e+001
6885147000 -2.792230e+001 -1.358685e+002 -1.259518e+000 -1.232523e+002 -1.183301e+000 -1.503878e+002 -3.182660e+001 -8.040944e+000
6952645500 -2.284955e+001 -3.454995e+001 -1.177935e+000 1.082687e+002 -1.188434e+000 7.988930e+001 -2.036836e+001 -3.671788e+000
7020144000 -2.785824e+001 3.576024e+001 -1.269071e+000 -2.041531e+001 -1.347540e+000 -4.824789e+001 -2.108486e+001 1.653503e+001
7087642500 -2.437338e+001 8.512449e+001 -1.279319e+000 -1.478747e+002 -1.294435e+000 -1.761582e+002 -1.787704e+001 7.258062e+001
7155141000 -2.461391e+001 1.495430e+002 -1.244036e+000 8.341237e+001 -1.335572e+000 5.532600e+001 -1.894182e+001 1.114753e+002
7222639500 -2.493719e+001 7.238254e+001 -1.146138e+000 -4.444652e+001 -1.147218e+000 -7.305960e+001 -2.931704e+001 1.120147e+002
7290138000 -2.246871e+001 7.610940e+001 -1.150487e+000 -1.737953e+002 -1.186035e+000 1.570746e+002 -2.159218e+001 1.082113e+002
7357636500 -1.317973e+001 1.338244e+002 -1.472393e+000 5.881250e+001 -1.488176e+000 2.908505e+001 -1.409848e+001 1.259247e+002
7425135000 -1.701027e+001 1.632722e+002 -1.353965e+000 -6.992918e+001 -1.308676e+000 -9.968456e+001 -1.684486e+001 -1.716424e+002
7492633500 -1.474068e+001 -1.417345e+002 -1.468339e+000 1.609772e+002 -1.515430e+000 1.312919e+002 -1.549780e+001 -1.276973e+002
7560132000 -1.922574e+001 1.504018e+002 -1.254020e+000 3.456333e+001 -1.119989e+000 4.797420e+000 -2.326685e+001 5.906098e+001
7627630500 -2.211865e+001 -1.653231e+002 -1.280260e+000 -9.475578e+001 -1.281084e+000 -1.251076e+002 -2.721026e+001 1.220822e+002
7695129000 -1.391608e+001 -1.423546e+002 -1.566722e+000 1.376596e+002 -1.439270e+000 1.068058e+002 -1.677715e+001 -1.622362e+002
7762627500 -3.109912e+001 -4.297903e+001 -1.245206e+000 9.955775e+000 -1.293343e+000 -2.120010e+001 -2.699371e+001 3.681467e+001
7830126000 -2.535009e+001 -1.789326e+001 -1.266561e+000 -1.190473e+002 -1.305453e+000 -1.497823e+002 -2.449972e+001 5.326454e+001
7897624500 -2.031887e+001 1.568558e+002 -1.191187e+000 1.133186e+002 -1.237535e+000 8.247678e+001 -1.496070e+001 1.429593e+002
7965123000 -3.645139e+001 5.781272e+001 -1.283807e+000 -1.632036e+001 -1.365971e+000 -4.731163e+001 -1.731304e+001 1.527020e+002
8032621500 -2.731941e+001 1.604297e+002 -1.366893e+000 -1.436591e+002 -1.354103e+000 -1.755273e+002 -2.183179e+001 -1.668816e+002
8100120000 -1.678218e+001 1.448727e+002 -1.365724e+000 8.862898e+001 -1.412459e+000 5.608239e+001 -1.642937e+001 1.678213e+002
8167618500 -1.633981e+001 -1.559971e+002 -1.355997e+000 -3.956564e+001 -1.419804e+000 -7.222826e+001 -1.589932e+001 -1.742298e+002
8235117000 -1.684130e+001 -1.601316e+002 -1.341053e+000 -1.683254e+002 -1.318652e+000 1.586587e+002 -1.864903e+001 -1.277677e+002
8302615500 -2.462608e+001 -1.294186e+002 -1.384947e+000 6.291100e+001 -1.470510e+000 2.977450e+001 -2.058759e+001 -1.253038e+002
8370114000 -1.579581e+001 -1.333193e+002 -1.485804e+000 -6.438779e+001 -1.382839e+000 -9.818967e+001 -2.396213e+001 -1.558305e+002
8437612500 -2.294852e+001 -1.024424e+002 -1.430508e+000 1.670787e+002 -1.419106e+000 1.335381e+002 -2.580920e+001 -1.043128e+002
8505111000 -1.617093e+001 -4.917324e+001 -1.460251e+000 3.910176e+001 -1.360912e+000 4.721908e+000 -2.276031e+001 -9.334438e+001
8572609500 -3.561859e+001 -1.775850e+001 -1.351373e+000 -9.011885e+001 -1.357889e+000 -1.239861e+002 -2.982986e+001 5.677589e+001
8640108000 -2.030219e+001 3.691146e+001 -1.510552e+000 1.413607e+002 -1.540517e+000 1.074363e+002 -2.406795e+001 9.102155e+001
8707606500 -2.717781e+001 -7.321059e+001 -1.486276e+000 1.366326e+001 -1.414224e+000 -2.005790e+001 -1.952129e+001 -1.764529e+002
8775105000 -2.384202e+001 9.339424e+001 -1.496528e+000 -1.149892e+002 -1.481111e+000 -1.492360e+002 -2.186078e+001 -1.443889e+002
8842603500 -2.591184e+001 5.486562e+001 -1.500236e+000 1.166867e+002 -1.449155e+000 8.146475e+001 -2.871919e+001 -1.046414e+002
8910102000 -1.742120e+001 1.752463e+002 -1.514675e+000 -1.235076e+001 -1.598529e+000 -4.724502e+001 -2.497339e+001 -1.608453e+002
8977600500 -2.431038e+001 -1.320639e+002 -1.583899e+000 -1.393265e+002 -1.674354e+000 -1.748587e+002 -1.731977e+001 -1.243790e+002
9045099000 -1.595779e+001 -8.034934e+001 -1.485970e+000 9.281850e+001 -1.580791e+000 5.718463e+001 -1.621468e+001 -7.932374e+001
9112597500 -3.473386e+001 3.272607e+001 -1.526648e+000 -3.633576e+001 -1.714593e+000 -7.197061e+001 -1.632946e+001 -2.619353e+001
9180096000 -2.034111e+001 -2.332657e+001 -1.570712e+000 -1.647881e+002 -1.560002e+000 1.587308e+002 -2.360347e+001 -1.055289e+000
9247594500 -1.675852e+001 -7.865588e+001 -1.672501e+000 6.710349e+001 -1.760783e+000 3.040121e+001 -2.439516e+001 -3.858992e+001
9315093000 -1.564985e+001 2.430278e+001 -1.755347e+000 -5.918315e+001 -1.706816e+000 -9.749408e+001 -1.862126e+001 -2.329401e+001
9382591500 -1.388270e+001 1.617838e+001 -1.685094e+000 1.727773e+002 -1.770445e+000 1.345108e+002 -1.852136e+001 4.128632e+001
9450090000 -2.562632e+001 1.282668e+002 -1.456850e+000 4.355236e+001 -1.616899e+000 5.188741e+000 -3.449440e+001 2.656031e+001
9517588500 -1.969374e+001 5.867553e+001 -1.694865e+000 -8.570044e+001 -1.723215e+000 -1.232390e+002 -2.816219e+001 -1.350953e+002
9585087000 -2.104568e+001 -1.725073e+000 -1.880167e+000 1.470929e+002 -1.854953e+000 1.093737e+002 -2.023099e+001 9.683968e+000
9652585500 -2.609279e+001 -1.798606e+002 -1.778765e+000 2.041889e+001 -1.696013e+000 -1.870920e+001 -1.998198e+001 -7.710516e+001
9720084000 -2.747525e+001 -7.233617e+001 -1.716241e+000 -1.081970e+002 -1.743952e+000 -1.472538e+002 -3.547538e+001 -9.987524e+001
9787582500 -1.877655e+001 -5.024379e+001 -1.526748e+000 1.236612e+002 -1.660174e+000 8.443748e+001 -1.401462e+001 -1.867183e+001
9855081000 -2.034804e+001 -4.569263e+001 -1.799037e+000 -6.304349e+000 -1.724195e+000 -4.486422e+001 -1.648743e+001 -5.421840e+001
9922579500 -2.086119e+001 -4.684774e+001 -1.804724e+000 -1.337242e+002 -1.784855e+000 -1.726391e+002 -1.674184e+001 3.832694e+001
9990078000 -1.670628e+001 -1.000669e+001 -1.882866e+000 9.884547e+001 -1.704567e+000 5.843562e+001 -1.392092e+001 8.357491e+000
10057576500 -1.538097e+001 -1.234970e+001 -1.639300e+000 -2.986053e+001 -1.814499e+000 -6.956523e+001 -4.347258e+001 6.609438e+001
10125075000 -2.207937e+001 5.510215e+001 -1.717856e+000 -1.578961e+002 -1.858235e+000 1.616220e+002 -1.679068e+001 5.611795e+001
10192573500 -1.785224e+001 5.381432e+001 -1.777730e+000 7.349957e+001 -1.891703e+000 3.413038e+001 -1.861139e+001 2.550562e+001
10260072000 -2.464395e+001 -4.488322e+001 -1.847443e+000 -5.364345e+001 -1.893080e+000 -9.543102e+001 -2.118681e+001 1.332761e+002
