#  HZ   S   DB   R     50.00 
! Rohde & Schwarz ZVA24 2Ports - Version 3.70 - 1145.1110k24 SN: 100407
! Date: 2016-10-05 20:11:46
! Measurements: S11 S21 S12 S22 
! 
 1.000000000000000E7    -2.538054286135257E-1   1.796251272557340E2  -4.873683668915042E1   1.342832707990672E2  -4.662906482946055E1  -1.668440938713867E2  -4.279322253171852E-1   1.783104155038994E2  
 1.299500000000000E8     3.511922294374760E-2   1.678028443993068E2  -5.360843034436966E1   7.277872637331407E1  -5.180611139726450E1   6.080902663932304E1  -5.897653417026584E-3   1.501451816212417E2  
 2.499000000000000E8    -5.715111642291224E-2   1.575427789714135E2  -4.801384928400075E1   4.117624172290641E1  -4.748625464546721E1   4.268412056416056E1  -3.750076591082371E-2   1.234173949237189E2  
 3.698500000000000E8    -5.400847990894007E-2   1.468362589646002E2  -4.449017651220969E1   2.745803490126438E1  -4.441074582949083E1   2.821019685954912E1  -5.129863671030317E-2   9.651799860756739E1  
 4.898000000000000E8    -6.660789312272053E-2   1.361710436582872E2  -4.169161908716798E1   7.347603502405036  -4.184246655484562E1   8.306141835531081  -4.139494076233162E-2   6.943337822184967E1  
 6.097500000000000E8    -5.177240765606817E-2   1.258172926533566E2  -3.997672181444858E1  -9.862868952890896  -3.996922806808953E1  -1.076932464266240E1  -4.995451999741788E-2   4.207608662395078E1  
 7.297000000000000E8    -5.764604621546018E-2   1.152808913393952E2  -3.827836837053830E1  -2.883439151511954E1  -3.817381326675191E1  -2.868012145311309E1  -3.972926590579591E-2   1.437820847299574E1  
 8.496500000000000E8    -5.632131994257553E-2   1.047265116818881E2  -3.679576072543122E1  -4.852081049908714E1  -3.675513258979395E1  -4.820574844887222E1  -3.097113430414277E-2  -1.366704948423992E1  
 9.696000000000000E8    -4.864610859353070E-2   9.424117388633290E1  -3.543640909458609E1  -6.757610159259724E1  -3.539613217842715E1  -6.736322057746408E1  -3.714403914901171E-2  -4.221482438616089E1  
 1.089550000000000E9    -7.071240137481757E-2   8.359065324468942E1  -3.424645395626122E1  -8.688776936542841E1  -3.421474319223947E1  -8.674637272581688E1  -5.370303913962805E-2  -7.127305902909458E1  
 1.209500000000000E9    -7.987684492072363E-2   7.298212146007275E1  -3.313285707237176E1  -1.070363553242679E2  -3.309083642561595E1  -1.065158180770608E2  -8.128192392581274E-2  -1.008367070261367E2  
 1.329450000000000E9    -9.519761925688471E-2   6.246869764366910E1  -3.206567103164090E1  -1.271906038498645E2  -3.204527952233356E1  -1.269425204568266E2  -1.059178397946285E-1  -1.308991674836587E2  
 1.449400000000000E9    -1.031731628586449E-1   5.193389189713879E1  -3.119297715407330E1  -1.475683631170481E2  -3.114242650660421E1  -1.473850385731107E2  -1.369518531670211E-1  -1.613701963159192E2  
 1.569350000000000E9    -1.106842358060051E-1   4.127389665438732E1  -3.031942731727369E1  -1.686089078368944E2  -3.030562805631773E1  -1.677735679210814E2  -1.657281640514640E-1   1.677403170732609E2  
 1.689300000000000E9    -1.194628712358073E-1   3.078926014698724E1  -2.946426585341713E1   1.709447261739477E2  -2.944064295533411E1   1.712524492225131E2  -1.736618358830201E-1   1.366211442873966E2  
 1.809250000000000E9    -1.209328563500851E-1   2.033179764732722E1  -2.875747075570504E1   1.500974092200461E2  -2.869063197642457E1   1.507091367747649E2  -1.796043695291269E-1   1.054206427676537E2  
 1.929200000000000E9    -1.173097370944228E-1   9.944199438529699  -2.800000099382906E1   1.294894963206936E2  -2.797909103999279E1   1.299118634718066E2  -1.692069547105336E-1   7.412583278919810E1  
 2.049150000000000E9    -1.000424435450466E-1  -4.275479253173303E-1  -2.731106841428840E1   1.085170031145167E2  -2.729942524973538E1   1.093431063791902E2  -1.525418730375901E-1   4.285502352968889E1  
 2.169100000000000E9    -8.472708556549806E-2  -1.094037159702555E1  -2.669117158776281E1   8.750798220901686E1  -2.665878809410634E1   8.841178722953434E1  -1.379522603449516E-1   1.143125861444336E1  
 2.289050000000000E9    -7.284153727313236E-2  -2.117824933438386E1  -2.612698191028039E1   6.704591837796394E1  -2.608588611069467E1   6.756567119802160E1  -1.212348008855751E-1  -1.974399624801042E1  
 2.409000000000000E9    -6.205236458632814E-2  -3.152708737690037E1  -2.558998342012321E1   4.664187300349671E1  -2.556773895268370E1   4.658041750224938E1  -1.312183090328434E-1  -5.096739743975331E1  
 2.528950000000000E9    -4.715116353435613E-2  -4.187200316206911E1  -2.504473654826817E1   2.578310803622328E1  -2.503857185814074E1   2.596391922413539E1  -1.294099092889877E-1  -8.204793329258678E1  
 2.648900000000000E9    -7.164876940504242E-2  -5.259084841271763E1  -2.451118068995686E1   4.525644958163159  -2.456145803663698E1   4.976624079099316  -1.484866414752014E-1  -1.134940853573157E2  
 2.768850000000000E9    -9.754378212230355E-2  -6.317510632465329E1  -2.405742341460502E1  -1.643331990071040E1  -2.412752666402063E1  -1.607604473763640E1  -1.714579625263810E-1  -1.449278201120143E2  
 2.888800000000000E9    -1.354083247890793E-1  -7.391518728209893E1  -2.365279222120297E1  -3.773359076725477E1  -2.369509390269871E1  -3.705652047620633E1  -1.931186653162492E-1  -1.764663941694478E2  
 3.008750000000000E9    -1.667064176375018E-1  -8.490628561312771E1  -2.325636372137464E1  -5.887552352331032E1  -2.326884891080019E1  -5.835417682141569E1  -2.238259239167290E-1   1.520397687306949E2  
 3.128700000000000E9    -2.155038133796683E-1  -9.556612340485708E1  -2.287893858207561E1  -7.985798770293590E1  -2.290541565907703E1  -7.964613501056756E1  -2.297567178859835E-1   1.204507047662205E2  
 3.248650000000000E9    -2.515818807813687E-1  -1.062664404265305E2  -2.250328843607629E1  -1.008794931634603E2  -2.252805677471910E1  -1.007542981307915E2  -2.610932062227992E-1   8.905311717401402E1  
 3.368600000000000E9    -2.704398728064568E-1  -1.169884583555253E2  -2.208924069885116E1  -1.220649303235638E2  -2.209580700622843E1  -1.216034022509328E2  -2.499397472472806E-1   5.809050671500166E1  
 3.488550000000000E9    -2.629338716896687E-1  -1.273483385002604E2  -2.173011324239012E1  -1.430153310810262E2  -2.171331443567888E1  -1.426294374565416E2  -2.440059567955134E-1   2.706696887313288E1  
 3.608500000000000E9    -2.326363244929905E-1  -1.377522099660794E2  -2.140492261635933E1  -1.635578395139605E2  -2.132633837430683E1  -1.634674961935938E2  -2.316942925256736E-1  -3.853242384177269  
 3.728450000000000E9    -2.007781946039058E-1  -1.481275010591454E2  -2.102614462382701E1   1.758450864808449E2  -2.096160013504566E1   1.760909654916497E2  -2.289909333720235E-1  -3.464378559196010E1  
 3.848400000000000E9    -1.640106643762676E-1  -1.585833584366413E2  -2.063063873051646E1   1.555171895171445E2  -2.060659528131340E1   1.557323689964398E2  -2.379461708620139E-1  -6.548928668246774E1  
 3.968350000000000E9    -1.526514315600738E-1  -1.691942577788784E2  -2.025636845459445E1   1.347767227199133E2  -2.025547307015660E1   1.351621441339118E2  -2.614561797200996E-1  -9.649460111054661E1  
 4.088300000000000E9    -1.660822090748912E-1  -1.798444198535321E2  -1.990441541961883E1   1.140127265878466E2  -1.992800331992666E1   1.142430614463997E2  -2.821010007374486E-1  -1.277337635691822E2  
 4.208250000000000E9    -2.113573587957437E-1   1.692233061007025E2  -1.961687528063481E1   9.274897507130858E1  -1.963708702673005E1   9.333198475130064E1  -3.027672726034263E-1  -1.593727172925300E2  
 4.328200000000000E9    -3.134395244358019E-1   1.582700706331881E2  -1.935300283300984E1   7.158008883952321E1  -1.935214265569204E1   7.233617228959156E1  -3.268125047798481E-1   1.688344791508376E2  
 4.448150000000000E9    -4.441525561457322E-1   1.473823734118130E2  -1.913786777040002E1   5.049627098974118E1  -1.913736649398958E1   5.100147325154421E1  -3.450802181835608E-1   1.367963441577522E2  
 4.568100000000000E9    -5.836606807334799E-1   1.367160994559652E2  -1.887183967476445E1   2.943169507448075E1  -1.888126457641834E1   2.920251520601996E1  -3.517934624863313E-1   1.047301282110326E2  
 4.688050000000000E9    -7.036336599587508E-1   1.262039309998323E2  -1.860797820017889E1   8.024274242445610  -1.866315485664826E1   7.866440794889933  -3.435587944251792E-1   7.277553535644427E1  
 4.808000000000000E9    -7.786132937547610E-1   1.159059379525244E2  -1.839936076195615E1  -1.380088030373813E1  -1.844019713906062E1  -1.370417891320563E1  -3.340618672134389E-1   4.091006619139298E1  
 4.927950000000000E9    -7.818177229505946E-1   1.058495657983783E2  -1.820632480322261E1  -3.523914823662691E1  -1.821242218524313E1  -3.481821562376560E1  -3.243073345974624E-1   9.507963078737683  
 5.047900000000000E9    -6.949140026009404E-1   9.570916934682360E1  -1.802310721689780E1  -5.602795406694007E1  -1.797420854897382E1  -5.571547919932952E1  -3.091317722743667E-1  -2.172556325657335E1  
 5.167850000000000E9    -5.545543487385632E-1   8.528796795924616E1  -1.777307338958485E1  -7.658352070382867E1  -1.770423645620803E1  -7.659149166745985E1  -3.083971750753222E-1  -5.254063340150683E1  
 5.287800000000000E9    -3.968264509627855E-1   7.454751964710026E1  -1.745631590276422E1  -9.687593703523844E1  -1.743831890385797E1  -9.715349225968559E1  -3.170364816165076E-1  -8.319776720696102E1  
 5.407750000000000E9    -2.797998144274186E-1   6.357567511610728E1  -1.711805928952622E1  -1.175566531188071E2  -1.716570367401299E1  -1.174415049085267E2  -3.417722717717933E-1  -1.136949508406256E2  
 5.527700000000000E9    -2.380305471080215E-1   5.260576836161387E1  -1.677923791643971E1  -1.383548067649990E2  -1.687213170066235E1  -1.376299963379690E2  -3.727944709155335E-1  -1.444749587067377E2  
 5.647650000000000E9    -2.657903464723070E-1   4.190505656951043E1  -1.654519917188255E1  -1.588277472006166E2  -1.660187086937426E1  -1.578081461772116E2  -4.103459748965145E-1  -1.753241432916957E2  
 5.767600000000000E9    -3.464098258510021E-1   3.149692633954622E1  -1.630692839802131E1  -1.794309482617320E2  -1.633815837744772E1  -1.782992319488284E2  -4.383929079027746E-1   1.533901399737842E2  
 5.887550000000000E9    -4.701829872583612E-1   2.155004128228801E1  -1.605683712051019E1   1.605231612623342E2  -1.608878849591379E1   1.609111776484233E2  -4.589319058860749E-1   1.218759215190222E2  
 6.007500000000000E9    -5.516294237748179E-1   1.180637888404227E1  -1.579888844210016E1   1.398196011582232E2  -1.584668022714995E1   1.400176837230969E2  -4.647247938030661E-1   8.996283929905209E1  
 6.127450000000000E9    -6.066489478812424E-1   2.104835656515188  -1.553576672424566E1   1.184605308962576E2  -1.563565400433216E1   1.186527348895145E2  -4.553433027412293E-1   5.789481131844241E1  
 6.247400000000000E9    -5.824357707185098E-1  -7.948258008527780  -1.535028868796672E1   9.682326289153828E1  -1.541208796698809E1   9.730449121062111E1  -4.421015490159567E-1   2.578760455122270E1  
 6.367350000000000E9    -5.120683712441448E-1  -1.850666011361239E1  -1.525543885573287E1   7.523190439317632E1  -1.524847968929664E1   7.559473811321773E1  -4.254865079405419E-1  -6.348034295270545  
 6.487300000000000E9    -4.295768989844990E-1  -2.949876566592731E1  -1.510911145880900E1   5.393761801053299E1  -1.505632390585195E1   5.393001569928715E1  -4.218421850463430E-1  -3.831420717282200E1  
 6.607250000000000E9    -3.532250932719708E-1  -4.072856482821581E1  -1.492700758430413E1   3.265682333984977E1  -1.489768404180207E1   3.270577555923074E1  -4.199789967963133E-1  -6.993938103446574E1  
 6.727200000000000E9    -2.898331965539707E-1  -5.229383585873569E1  -1.468189101727477E1   1.114339606605482E1  -1.470278632527291E1   1.141129624384880E1  -4.177893404941107E-1  -1.013658154130887E2  
 6.847150000000000E9    -2.634698345033121E-1  -6.377919501200257E1  -1.447515013487780E1  -1.060823801046667E1  -1.453395889103480E1  -9.623680972663930  -4.442717224881082E-1  -1.324562899546723E2  
 6.967100000000000E9    -2.643132784567258E-1  -7.506843802112265E1  -1.433387173146409E1  -3.203027931937403E1  -1.434027722604832E1  -3.054947843387054E1  -4.638107900217655E-1  -1.635016706192728E2  
 7.087050000000000E9    -2.835488643933017E-1  -8.610180545850028E1  -1.421160832723607E1  -5.280397741120199E1  -1.415150967013092E1  -5.122820207103163E1  -4.947223949193813E-1   1.656530527713485E2  
 7.207000000000000E9    -3.234218341097769E-1  -9.678033562414773E1  -1.404660060929293E1  -7.315271058996675E1  -1.395271676206733E1  -7.199193357695870E1  -5.224540815401024E-1   1.347367151181316E2  
 7.326950000000000E9    -3.609337699398844E-1  -1.072405009439434E2  -1.377295562061170E1  -9.346145212941114E1  -1.376391676933644E1  -9.263009767198621E1  -5.496896898383969E-1   1.038250065856945E2  
 7.446900000000000E9    -4.079844386599414E-1  -1.174918222114467E2  -1.350189302194738E1  -1.140066668440835E2  -1.356451443224389E1  -1.135796073399346E2  -5.505683753903463E-1   7.284796164579998E1  
 7.566850000000000E9    -4.440388842432951E-1  -1.277392894878532E2  -1.331751913694602E1  -1.349630338889140E2  -1.335852447237417E1  -1.342844150689507E2  -5.583275388545602E-1   4.196824085421893E1  
 7.686800000000000E9    -4.670649729179093E-1  -1.380337766375698E2  -1.315398081287909E1  -1.560267958019295E2  -1.315637534298276E1  -1.555400235829737E2  -5.574051400511380E-1   1.053987937408324E1  
 7.806750000000000E9    -4.702559706812404E-1  -1.484598045492643E2  -1.303074871123976E1  -1.770123823962196E2  -1.296058024585508E1  -1.768336702509192E2  -5.606401513954222E-1  -2.102257906782473E1  
 7.926700000000000E9    -4.533373006460343E-1  -1.592812346149615E2  -1.288479763943538E1   1.620207908176744E2  -1.276394674972905E1   1.612997046643530E2  -5.703931827645037E-1  -5.328984718505620E1  
 8.046650000000000E9    -4.396725768408843E-1  -1.702637077318254E2  -1.265707853385494E1   1.409767395386054E2  -1.258474396479102E1   1.399415437353260E2  -5.919471866687910E-1  -8.486276050111900E1  
 8.166600000000000E9    -4.215357388611941E-1   1.783768445961086E2  -1.242086116247734E1   1.190108211791322E2  -1.242731766016242E1   1.182852185287857E2  -6.088367299498972E-1  -1.170097424194748E2  
 8.286550000000000E9    -4.157897162523816E-1   1.669483509657118E2  -1.229340582976634E1   9.652106893977492E1  -1.230005067458152E1   9.670254389192684E1  -6.405042563813224E-1  -1.492193389451541E2  
 8.406500000000000E9    -4.126619336302558E-1   1.555525685980350E2  -1.225202314410455E1   7.465736096170399E1  -1.217816496141366E1   7.518692442578589E1  -6.567322263367160E-1   1.787031809253339E2  
 8.526450000000000E9    -4.271774446325862E-1   1.441674144253541E2  -1.220292404155975E1   5.325796239340320E1  -1.207262995011060E1   5.392256317056241E1  -6.724016033917006E-1   1.467256200747154E2  
 8.646400000000000E9    -4.511951872219998E-1   1.331986211632109E2  -1.211191349825880E1   3.234642903436248E1  -1.201730809512881E1   3.299723317346735E1  -6.807111149354259E-1   1.150769369077246E2  
 8.766350000000000E9    -4.911373370228971E-1   1.223968846115187E2  -1.194919166728647E1   1.142082511170858E1  -1.194958202058265E1   1.227537006321177E1  -6.853102985750709E-1   8.393454266827662E1  
 8.886300000000000E9    -5.225338205657912E-1   1.119674678306908E2  -1.182341590634385E1  -9.585756355292684  -1.188718680930199E1  -8.329484803622925  -6.803529564861650E-1   5.308411719563510E1  
 9.006250000000000E9    -5.360533518184963E-1   1.016781336655418E2  -1.172216787109672E1  -3.051293101857013E1  -1.178179302521941E1  -2.895338248048203E1  -6.646233334328255E-1   2.271274971123104E1  
 9.126200000000000E9    -5.363099805106211E-1   9.157081278609152E1  -1.172136528964978E1  -5.074819589972006E1  -1.166638645239526E1  -4.967521248457236E1  -6.664524418427592E-1  -7.679481301851265  
 9.246150000000000E9    -5.179079065324777E-1   8.119593637221520E1  -1.166440510307219E1  -7.054035437546796E1  -1.151024492239844E1  -7.041315375718708E1  -6.732669173277605E-1  -3.797702201982223E1  
 9.366100000000000E9    -5.001258861123252E-1   7.056257379112167E1  -1.145504537401429E1  -9.014008942866612E1  -1.133461845419839E1  -9.119169857112873E1  -6.973072612555920E-1  -6.841886554626643E1  
 9.486050000000000E9    -5.120551861936035E-1   5.962657945602072E1  -1.117852982810753E1  -1.113993508496968E2  -1.114034181085256E1  -1.120816783520325E2  -7.325673081235541E-1  -9.944155076624212E1  
 9.606000000000000E9    -5.109087918488406E-1   4.876639050254042E1  -1.096889720297970E1  -1.330517983522266E2  -1.094838967429400E1  -1.331785786680871E2  -7.673785510489050E-1  -1.309061897060555E2  
 9.725950000000000E9    -5.168649321782399E-1   3.775324289731783E1  -1.084461446485514E1  -1.548960600961335E2  -1.076235508206285E1  -1.546032148485444E2  -8.019657258141956E-1  -1.630245022477723E2  
 9.845900000000000E9    -5.292196187338402E-1   2.673814890491723E1  -1.075459363680439E1  -1.764538620035783E2  -1.058787853705275E1  -1.762613110121064E2  -8.339605493845134E-1   1.643077275918213E2  
 9.965850000000000E9    -5.523180489851113E-1   1.576726474523579E1  -1.062674899531445E1   1.620256986493193E2  -1.049610675396370E1   1.620200594252411E2  -8.610114671580428E-1   1.312581572872015E2  
 1.008580000000000E10   -5.857511362978926E-1   5.003789889174476  -1.046943815691121E1   1.404656683749804E2  -1.041318576238370E1   1.404715569722142E2  -8.678233519995072E-1   9.817152739971516E1  
 1.020575000000000E10   -6.035942812107020E-1  -5.597206258639489  -1.033750784227224E1   1.185022060954543E2  -1.040007451275799E1   1.190827715653428E2  -8.511935795735570E-1   6.540862013259594E1  
 1.032570000000000E10   -6.100838169292285E-1  -1.584794053296004E1  -1.029625854950104E1   9.685801756611963E1  -1.041140952385588E1   9.774905740575224E1  -8.421278142211708E-1   3.345178918876177E1  
 1.044565000000000E10   -6.027588811802700E-1  -2.601307990599599E1  -1.036551803877440E1   7.563492806314578E1  -1.043555202560840E1   7.684078029811279E1  -8.261042053229210E-1   2.189861676898003  
 1.056560000000000E10   -5.888883788268302E-1  -3.631316480020685E1  -1.046615848427376E1   5.536858585750025E1  -1.044551523632246E1   5.641895503359694E1  -8.196178010148796E-1  -2.832936973247340E1  
 1.068555000000000E10   -5.771278510816884E-1  -4.657183382356927E1  -1.043847021713853E1   3.582072570318920E1  -1.042498817593304E1   3.610889277818127E1  -8.130534259285261E-1  -5.817303736058487E1  
 1.080550000000000E10   -5.729264065596769E-1  -5.692652895393749E1  -1.026511948421768E1   1.621958873085121E1  -1.034278019726686E1   1.584385276821542E1  -8.340654211342312E-1  -8.773277125259763E1  
 1.092545000000000E10   -5.784154602484265E-1  -6.747375016065766E1  -1.007968452561794E1  -4.132922563406832  -1.019884896480470E1  -4.185362153744375  -8.709060887135581E-1  -1.174666380488416E2  
 1.104540000000000E10   -5.721969544481703E-1  -7.807500689755163E1  -9.885055356822585  -2.512670746925855E1  -9.992972265781797  -2.454284250832400E1  -9.186758607843878E-1  -1.475508990578685E2  
 1.116535000000000E10   -5.810517891297257E-1  -8.894365507245360E1  -9.741921940978516  -4.625696594306379E1  -9.725074193087572  -4.522402785020712E1  -9.712588744338415E-1  -1.783834024021915E2  
 1.128530000000000E10   -5.923057039716853E-1  -9.988550951218447E1  -9.564506515416309  -6.724319474468388E1  -9.450468574824653  -6.619186624619314E1  -1.020173758717538   1.499627662523911E2  
 1.140525000000000E10   -6.226833388427456E-1  -1.107580970405672E2  -9.324084118126802  -8.840899001192901E1  -9.182284350945441  -8.768461941272422E1  -1.064078335432708   1.172801914749511E2  
 1.152520000000000E10   -6.855177399208845E-1  -1.218161884669593E2  -9.041329459997202  -1.102655595722065E2  -9.012596989454277  -1.097994766466211E2  -1.096592795417164   8.389355155505584E1  
 1.164515000000000E10   -7.369270572316944E-1  -1.323713451968004E2  -8.865788008338701  -1.330251495936199E2  -8.893900463757159  -1.318284990694501E2  -1.105528666561201   5.027147477845505E1  
