!Agilent Technologies,N5230C,MY48100320,A.08.04.10
!Agilent N5230C: A.08.04.10
!Date: Wednesday, October 05, 2016 20:58:38
!Correction: S11(Full 2 Port(1,2)) 
!S21(Full 2 Port(1,2)) 
!S12(Full 2 Port(1,2)) 
!S22(Full 2 Port(1,2)) 
!S2P File: Measurements: S11, S21, S12, S22:
# Hz S  dB   R 50
300000 -2.693234e+001 7.792245e+001 -6.305887e-002 -2.813909e+000 -7.020418e-002 -2.787591e+000 -2.529329e+001 7.714031e+001
17174625 -5.316088e+001 1.165741e+002 9.291084e-003 -9.689851e-001 5.643629e-003 -9.971749e-001 -5.206178e+001 8.849905e+001
34049250 -6.440074e+001 1.049354e+002 -5.017839e-004 -1.712835e+000 -4.148225e-003 -1.705820e+000 -6.324557e+001 7.918415e+001
50923875 -5.827610e+001 5.222765e+001 -4.630051e-003 -2.551602e+000 -8.606785e-003 -2.551388e+000 -6.183498e+001 1.907114e+001
67798500 -5.639996e+001 3.534402e+001 -6.221960e-003 -3.368486e+000 -5.202066e-003 -3.376170e+000 -6.442570e+001 5.892050e+001
84673125 -5.537001e+001 2.284704e+001 -7.553934e-003 -4.227869e+000 -8.374612e-003 -4.184834e+000 -5.740895e+001 4.331724e+001
101547750 -5.868121e+001 1.675236e+001 -6.986251e-003 -5.088400e+000 -1.266097e-002 -5.076028e+000 -5.600734e+001 4.732105e+001
118422375 -5.551243e+001 1.533914e+001 -5.749285e-003 -5.900781e+000 -8.795225e-003 -5.909343e+000 -5.488486e+001 3.961867e+001
135297000 -5.823195e+001 1.385451e+001 -6.230680e-003 -6.728970e+000 -1.622875e-002 -6.744168e+000 -5.649377e+001 2.414118e+001
152171625 -5.599319e+001 -3.095277e+001 -6.601624e-003 -7.554505e+000 -1.758969e-002 -7.531657e+000 -5.924461e+001 6.024794e+001
169046250 -5.643847e+001 -7.434543e+000 -5.922192e-003 -8.353440e+000 -1.154066e-002 -8.425782e+000 -5.549196e+001 4.513758e+001
185920875 -5.938880e+001 3.230689e+001 -8.693380e-003 -9.218732e+000 -1.235530e-002 -9.226491e+000 -5.775734e+001 4.997353e+001
202795500 -6.096983e+001 5.216206e+001 -1.192358e-002 -1.004086e+001 -9.620917e-003 -1.004807e+001 -5.305518e+001 2.527219e+001
219670125 -5.983492e+001 5.745163e+001 -1.361428e-002 -1.089279e+001 -1.440288e-002 -1.089749e+001 -5.437535e+001 2.176439e+001
236544750 -5.850665e+001 3.001562e+001 -9.879676e-003 -1.170048e+001 -1.774241e-002 -1.171984e+001 -5.253214e+001 2.838184e+001
253419375 -5.782123e+001 3.390474e+001 -9.659616e-003 -1.256509e+001 -1.251065e-002 -1.254264e+001 -5.107522e+001 2.638736e+001
270294000 -6.910585e+001 5.636863e+001 -1.257786e-002 -1.336051e+001 -1.433076e-002 -1.336751e+001 -5.045744e+001 2.819011e+001
287168625 -6.055623e+001 6.662585e+001 -1.022908e-002 -1.420570e+001 -1.734956e-002 -1.420538e+001 -4.945118e+001 2.865802e+001
304043250 -6.331633e+001 9.394391e+001 -1.221724e-002 -1.502462e+001 -1.507653e-002 -1.502144e+001 -5.073119e+001 3.845386e+001
320917875 -6.007998e+001 7.104736e+001 -1.416965e-002 -1.586157e+001 -1.412795e-002 -1.585523e+001 -5.079742e+001 2.721232e+001
337792500 -5.953300e+001 6.806691e+001 -8.688778e-003 -1.669919e+001 -1.986818e-002 -1.669540e+001 -4.942263e+001 3.286957e+001
354667125 -6.327189e+001 7.382355e+001 -1.011469e-002 -1.752971e+001 -1.366415e-002 -1.753790e+001 -4.910426e+001 4.523066e+001
371541750 -5.556186e+001 8.802138e+001 -1.207381e-002 -1.836396e+001 -1.616185e-002 -1.833075e+001 -4.702977e+001 3.618757e+001
388416375 -5.494515e+001 8.349215e+001 -1.724292e-002 -1.916748e+001 -1.313250e-002 -1.918665e+001 -4.677287e+001 3.705495e+001
405291000 -5.221944e+001 9.107122e+001 -1.173927e-002 -2.001217e+001 -1.979941e-002 -2.000588e+001 -4.533709e+001 3.672827e+001
422165625 -5.168829e+001 8.359410e+001 -2.024871e-002 -2.081701e+001 -1.922479e-002 -2.081984e+001 -4.532561e+001 4.356785e+001
439040250 -4.850021e+001 8.558510e+001 -1.326378e-002 -2.167357e+001 -1.809140e-002 -2.165923e+001 -4.539813e+001 3.588012e+001
455914875 -4.898819e+001 9.551147e+001 -1.726487e-002 -2.246882e+001 -1.624865e-002 -2.249248e+001 -4.541336e+001 2.707536e+001
472789500 -5.039891e+001 8.967809e+001 -1.421475e-002 -2.331792e+001 -2.005794e-002 -2.333311e+001 -4.509512e+001 2.713474e+001
489664125 -5.137724e+001 1.091325e+002 -1.395399e-002 -2.414786e+001 -1.796282e-002 -2.417190e+001 -4.496588e+001 2.581467e+001
506538750 -5.145394e+001 1.257816e+002 -1.512462e-002 -2.497912e+001 -1.696186e-002 -2.496226e+001 -4.562143e+001 8.936186e+000
523413375 -5.222085e+001 1.478888e+002 -1.309558e-002 -2.580864e+001 -2.102826e-002 -2.581366e+001 -4.582673e+001 2.986369e+000
540288000 -5.035644e+001 1.565595e+002 -1.162196e-002 -2.666665e+001 -1.954741e-002 -2.664190e+001 -4.520937e+001 -3.483859e+000
557162625 -5.010976e+001 1.514253e+002 -1.841567e-002 -2.748039e+001 -1.919925e-002 -2.747404e+001 -4.423060e+001 -6.374460e+000
574037250 -4.748312e+001 1.509187e+002 -1.872527e-002 -2.830064e+001 -1.972550e-002 -2.830246e+001 -4.497310e+001 -1.186799e+001
590911875 -4.769640e+001 1.525482e+002 -1.603198e-002 -2.914375e+001 -1.974377e-002 -2.913833e+001 -4.409827e+001 -1.503059e+001
607786500 -4.657663e+001 1.445527e+002 -1.319304e-002 -2.994074e+001 -2.186994e-002 -2.995880e+001 -4.304384e+001 -8.434486e+000
624661125 -4.605377e+001 1.354350e+002 -1.990707e-002 -3.079617e+001 -2.096877e-002 -3.078111e+001 -4.250686e+001 -4.953860e+000
641535750 -4.498471e+001 1.299503e+002 -1.870504e-002 -3.158351e+001 -2.226379e-002 -3.161992e+001 -4.236997e+001 -4.096098e+000
658410375 -4.425997e+001 1.199288e+002 -1.870927e-002 -3.245321e+001 -1.925755e-002 -3.245885e+001 -4.153830e+001 -8.695245e-002
675285000 -4.340899e+001 1.210131e+002 -1.538721e-002 -3.330169e+001 -2.220522e-002 -3.327657e+001 -4.099945e+001 -5.005169e+000
692159625 -4.335492e+001 1.185427e+002 -1.796552e-002 -3.411876e+001 -2.106196e-002 -3.409210e+001 -4.071552e+001 -5.766298e+000
709034250 -4.337712e+001 1.180569e+002 -1.897851e-002 -3.499712e+001 -2.213037e-002 -3.497296e+001 -4.075715e+001 -9.370125e+000
725908875 -4.260447e+001 1.126349e+002 -2.104956e-002 -3.579511e+001 -2.216647e-002 -3.580009e+001 -4.050861e+001 -8.447675e+000
742783500 -4.297040e+001 1.174096e+002 -2.319700e-002 -3.661650e+001 -2.583286e-002 -3.663010e+001 -4.068367e+001 -1.098593e+001
759658125 -4.419664e+001 1.162542e+002 -2.500379e-002 -3.744640e+001 -2.755844e-002 -3.745483e+001 -4.024379e+001 -9.208293e+000
776532750 -4.315596e+001 1.171711e+002 -2.085414e-002 -3.828508e+001 -2.819068e-002 -3.826178e+001 -3.986610e+001 -1.112351e+001
793407375 -4.269018e+001 1.147379e+002 -2.600254e-002 -3.911630e+001 -3.011779e-002 -3.912313e+001 -3.984283e+001 -1.126082e+001
810282000 -4.227622e+001 1.068732e+002 -2.758475e-002 -3.993685e+001 -2.874155e-002 -3.993879e+001 -3.952277e+001 -1.230015e+001
827156625 -4.188877e+001 1.103869e+002 -2.642030e-002 -4.077195e+001 -2.495680e-002 -4.074350e+001 -3.980062e+001 -1.108026e+001
844031250 -4.067556e+001 1.043169e+002 -2.991753e-002 -4.158319e+001 -2.964287e-002 -4.157932e+001 -3.939013e+001 -1.105120e+001
860905875 -4.167366e+001 1.013873e+002 -2.497873e-002 -4.242887e+001 -3.455088e-002 -4.237241e+001 -3.875660e+001 -1.281185e+001
877780500 -4.059311e+001 9.739810e+001 -2.745987e-002 -4.323244e+001 -3.139379e-002 -4.325375e+001 -3.883286e+001 -1.109680e+001
894655125 -4.057489e+001 9.503712e+001 -2.973752e-002 -4.405963e+001 -2.857010e-002 -4.406084e+001 -3.847308e+001 -1.189404e+001
911529750 -4.073003e+001 9.151514e+001 -2.708821e-002 -4.490886e+001 -2.734191e-002 -4.490274e+001 -3.820389e+001 -1.059556e+001
928404375 -4.041755e+001 8.898245e+001 -2.589329e-002 -4.571851e+001 -3.162491e-002 -4.570866e+001 -3.778432e+001 -1.480475e+001
945279000 -4.113144e+001 9.362059e+001 -2.451127e-002 -4.653164e+001 -2.381094e-002 -4.655761e+001 -3.837447e+001 -1.463049e+001
962153625 -4.077777e+001 9.462855e+001 -2.329990e-002 -4.737259e+001 -2.418421e-002 -4.738042e+001 -3.819147e+001 -1.407272e+001
979028250 -4.100041e+001 9.196147e+001 -2.493304e-002 -4.819836e+001 -2.672771e-002 -4.819796e+001 -3.828756e+001 -1.557640e+001
995902875 -4.081119e+001 9.476291e+001 -2.672455e-002 -4.902720e+001 -2.678478e-002 -4.905194e+001 -3.897200e+001 -1.812376e+001
1012777500 -4.122031e+001 9.736947e+001 -2.427939e-002 -4.990248e+001 -2.687326e-002 -4.987206e+001 -3.882307e+001 -1.762743e+001
1029652125 -4.097177e+001 9.450380e+001 -2.461502e-002 -5.073169e+001 -2.408973e-002 -5.070295e+001 -3.890784e+001 -1.755015e+001
1046526750 -4.060345e+001 8.939187e+001 -2.247887e-002 -5.154090e+001 -2.433730e-002 -5.151496e+001 -3.870026e+001 -1.543708e+001
1063401375 -3.988572e+001 9.037513e+001 -2.554462e-002 -5.239248e+001 -2.333278e-002 -5.235839e+001 -3.853788e+001 -1.296799e+001
1080276000 -3.922474e+001 8.810677e+001 -2.306649e-002 -5.320800e+001 -2.548499e-002 -5.318563e+001 -3.837471e+001 -1.449893e+001
1097150625 -3.955782e+001 8.134084e+001 -2.035749e-002 -5.401725e+001 -2.380065e-002 -5.401956e+001 -3.796298e+001 -1.546738e+001
1114025250 -3.877458e+001 7.717444e+001 -1.878153e-002 -5.486592e+001 -2.766058e-002 -5.486057e+001 -3.730585e+001 -1.337635e+001
1130899875 -3.892006e+001 7.543559e+001 -2.607822e-002 -5.571278e+001 -2.652986e-002 -5.570416e+001 -3.738249e+001 -1.373967e+001
1147774500 -3.870457e+001 7.370741e+001 -2.774661e-002 -5.652460e+001 -2.866763e-002 -5.651962e+001 -3.755283e+001 -1.417453e+001
1164649125 -3.912159e+001 7.422971e+001 -2.358090e-002 -5.735109e+001 -2.705497e-002 -5.736454e+001 -3.745004e+001 -1.047613e+001
1181523750 -3.902803e+001 7.320818e+001 -2.540641e-002 -5.816987e+001 -2.885114e-002 -5.818496e+001 -3.760928e+001 -7.263566e+000
1198398375 -3.925274e+001 7.355603e+001 -2.569003e-002 -5.903354e+001 -2.846045e-002 -5.901672e+001 -3.793679e+001 -8.191197e+000
1215273000 -3.953431e+001 7.206833e+001 -2.857305e-002 -5.984541e+001 -2.548643e-002 -5.983576e+001 -3.815944e+001 -1.218377e+001
1232147625 -3.940315e+001 6.933167e+001 -2.626218e-002 -6.066131e+001 -3.077946e-002 -6.065065e+001 -3.805741e+001 -1.339018e+001
1249022250 -3.934787e+001 6.829143e+001 -2.288645e-002 -6.149435e+001 -2.653514e-002 -6.148796e+001 -3.835696e+001 -1.313574e+001
1265896875 -3.902435e+001 6.552888e+001 -2.806740e-002 -6.231411e+001 -2.859153e-002 -6.234895e+001 -3.824001e+001 -1.017238e+001
1282771500 -3.919344e+001 6.402547e+001 -1.984055e-002 -6.316306e+001 -3.082530e-002 -6.314318e+001 -3.773643e+001 -1.212373e+001
1299646125 -3.875125e+001 5.964731e+001 -2.101658e-002 -6.400887e+001 -2.610679e-002 -6.397250e+001 -3.751854e+001 -1.096390e+001
1316520750 -3.867023e+001 5.688912e+001 -2.722658e-002 -6.482150e+001 -2.944944e-002 -6.482092e+001 -3.758195e+001 -1.010362e+001
1333395375 -3.876837e+001 5.377205e+001 -2.226939e-002 -6.562035e+001 -2.959056e-002 -6.564980e+001 -3.766067e+001 -7.239582e+000
1350270000 -3.853173e+001 5.175688e+001 -2.316287e-002 -6.649463e+001 -2.787324e-002 -6.645616e+001 -3.746126e+001 -6.031814e+000
1367144625 -3.862016e+001 5.225926e+001 -2.170925e-002 -6.730882e+001 -2.517582e-002 -6.732093e+001 -3.803099e+001 -7.677550e+000
1384019250 -3.948336e+001 5.417159e+001 -2.375440e-002 -6.816197e+001 -2.905807e-002 -6.811771e+001 -3.815821e+001 -3.530284e+000
1400893875 -3.886403e+001 5.486760e+001 -2.673499e-002 -6.895616e+001 -2.495072e-002 -6.895932e+001 -3.868158e+001 -5.531658e+000
1417768500 -3.933841e+001 5.144614e+001 -2.593720e-002 -6.980586e+001 -2.536954e-002 -6.978040e+001 -3.806287e+001 -1.475046e+000
1434643125 -3.975819e+001 4.812404e+001 -2.038819e-002 -7.062823e+001 -2.609917e-002 -7.060061e+001 -3.873577e+001 -5.817998e+000
1451517750 -3.915974e+001 4.832530e+001 -2.755644e-002 -7.143714e+001 -2.942464e-002 -7.144424e+001 -3.886011e+001 -4.623526e+000
1468392375 -3.915014e+001 4.398829e+001 -1.897506e-002 -7.228182e+001 -2.574773e-002 -7.226978e+001 -3.849535e+001 -5.192417e+000
1485267000 -3.881192e+001 4.317259e+001 -1.403961e-002 -7.313617e+001 -1.947189e-002 -7.313146e+001 -3.846516e+001 -5.685723e+000
1502141625 -3.832226e+001 3.874466e+001 -3.521102e-002 -7.399812e+001 -3.332589e-002 -7.394836e+001 -3.807647e+001 -1.087235e+000
1519016250 -3.835746e+001 3.312971e+001 -2.963081e-002 -7.478362e+001 -3.317333e-002 -7.474774e+001 -3.769760e+001 2.114969e+000
1535890875 -3.779480e+001 3.546788e+001 -2.849662e-002 -7.558627e+001 -2.851433e-002 -7.560958e+001 -3.746087e+001 9.760659e-001
1552765500 -3.767543e+001 3.123045e+001 -2.595008e-002 -7.644572e+001 -3.108720e-002 -7.640793e+001 -3.730978e+001 5.484275e+000
1569640125 -3.787395e+001 3.012692e+001 -3.598319e-002 -7.726784e+001 -2.911546e-002 -7.723147e+001 -3.731396e+001 7.697622e+000
1586514750 -3.817982e+001 2.596707e+001 -2.797208e-002 -7.809842e+001 -3.004526e-002 -7.807956e+001 -3.768888e+001 5.683862e+000
1603389375 -3.897489e+001 2.390918e+001 -2.833688e-002 -7.893632e+001 -3.245053e-002 -7.890749e+001 -3.840075e+001 1.050697e+001
1620264000 -3.945447e+001 1.870749e+001 -3.136417e-002 -7.978501e+001 -2.682701e-002 -7.974432e+001 -3.827803e+001 8.848207e+000
1637138625 -3.896863e+001 2.179276e+001 -3.224021e-002 -8.058311e+001 -3.012278e-002 -8.059689e+001 -3.829827e+001 1.324847e+001
1654013250 -3.918964e+001 1.243521e+001 -2.319235e-002 -8.141554e+001 -2.869394e-002 -8.141250e+001 -3.852795e+001 1.351126e+001
1670887875 -3.895443e+001 1.414105e+001 -2.158327e-002 -8.225629e+001 -3.721278e-002 -8.225355e+001 -3.861496e+001 1.480330e+001
1687762500 -3.922914e+001 1.221302e+001 -2.796538e-002 -8.309064e+001 -3.531283e-002 -8.307247e+001 -3.814255e+001 1.202326e+001
1704637125 -3.815843e+001 5.885660e+000 -3.003123e-002 -8.390807e+001 -2.229003e-002 -8.392419e+001 -3.820507e+001 1.606981e+001
1721511750 -3.826142e+001 4.773695e+000 -3.282813e-002 -8.475722e+001 -3.351758e-002 -8.472457e+001 -3.792140e+001 1.517303e+001
1738386375 -3.779993e+001 2.042903e+000 -3.155871e-002 -8.558736e+001 -3.312789e-002 -8.558312e+001 -3.763277e+001 1.765759e+001
1755261000 -3.767285e+001 2.056837e+000 -3.147184e-002 -8.642381e+001 -3.316922e-002 -8.640058e+001 -3.743943e+001 1.964078e+001
1772135625 -3.754113e+001 -2.239844e+000 -2.512486e-002 -8.723540e+001 -3.476520e-002 -8.721423e+001 -3.696186e+001 2.148664e+001
1789010250 -3.768580e+001 -3.696992e+000 -2.738753e-002 -8.808157e+001 -3.312666e-002 -8.804231e+001 -3.693647e+001 2.368117e+001
1805884875 -3.807087e+001 -5.225214e+000 -3.295515e-002 -8.890771e+001 -3.183024e-002 -8.889123e+001 -3.685214e+001 2.402106e+001
1822759500 -3.783091e+001 -9.370974e+000 -2.732815e-002 -8.973395e+001 -3.117950e-002 -8.973172e+001 -3.743621e+001 2.572640e+001
1839634125 -3.772563e+001 -1.463883e+001 -2.800700e-002 -9.055701e+001 -3.249853e-002 -9.055382e+001 -3.718204e+001 2.873097e+001
1856508750 -3.802781e+001 -1.621212e+001 -2.868465e-002 -9.140977e+001 -2.766304e-002 -9.137627e+001 -3.720614e+001 3.012972e+001
1873383375 -3.780824e+001 -2.071694e+001 -2.829044e-002 -9.226600e+001 -3.250610e-002 -9.221914e+001 -3.695609e+001 3.044330e+001
1890258000 -3.795212e+001 -2.099745e+001 -2.865106e-002 -9.304021e+001 -3.124345e-002 -9.304673e+001 -3.680362e+001 3.147293e+001
1907132625 -3.784690e+001 -2.251723e+001 -3.637523e-002 -9.389951e+001 -3.586017e-002 -9.387074e+001 -3.689417e+001 3.041942e+001
1924007250 -3.743844e+001 -2.508293e+001 -3.270278e-002 -9.472710e+001 -3.398561e-002 -9.471268e+001 -3.699132e+001 3.030527e+001
1940881875 -3.747243e+001 -2.972821e+001 -3.390347e-002 -9.555759e+001 -3.321272e-002 -9.552724e+001 -3.661020e+001 2.822163e+001
1957756500 -3.706324e+001 -3.166525e+001 -2.707377e-002 -9.638722e+001 -3.777901e-002 -9.636382e+001 -3.658468e+001 3.074736e+001
1974631125 -3.723888e+001 -3.268661e+001 -2.622541e-002 -9.720831e+001 -3.746185e-002 -9.722272e+001 -3.621852e+001 3.153730e+001
1991505750 -3.694820e+001 -3.615588e+001 -3.930593e-002 -9.804677e+001 -3.610979e-002 -9.800590e+001 -3.614970e+001 3.189456e+001
2008380375 -3.716997e+001 -3.815840e+001 -2.464299e-002 -9.887066e+001 -3.420501e-002 -9.885609e+001 -3.587063e+001 3.573347e+001
2025255000 -3.707408e+001 -4.321065e+001 -2.501671e-002 -9.969222e+001 -3.746608e-002 -9.968535e+001 -3.569801e+001 3.643546e+001
2042129625 -3.761843e+001 -4.395825e+001 -2.588495e-002 -1.005354e+002 -3.105878e-002 -1.005137e+002 -3.583408e+001 3.540400e+001
2059004250 -3.713553e+001 -5.202219e+001 -2.576121e-002 -1.013727e+002 -3.428169e-002 -1.013509e+002 -3.607848e+001 3.792334e+001
2075878875 -3.670037e+001 -5.109168e+001 -2.382965e-002 -1.022119e+002 -3.732428e-002 -1.021663e+002 -3.605261e+001 3.936190e+001
2092753500 -3.719812e+001 -5.646535e+001 -3.357440e-002 -1.030508e+002 -3.555416e-002 -1.030287e+002 -3.580570e+001 4.028960e+001
2109628125 -3.695401e+001 -5.707081e+001 -2.644850e-002 -1.038662e+002 -3.979424e-002 -1.038582e+002 -3.575213e+001 4.111463e+001
2126502750 -3.714769e+001 -5.712654e+001 -3.767147e-002 -1.046919e+002 -3.439652e-002 -1.046877e+002 -3.570197e+001 4.222696e+001
2143377375 -3.667940e+001 -5.949593e+001 -3.218598e-002 -1.055187e+002 -3.176041e-002 -1.055137e+002 -3.546367e+001 3.901287e+001
2160252000 -3.653519e+001 -6.137783e+001 -3.181465e-002 -1.063560e+002 -3.749031e-002 -1.063129e+002 -3.546148e+001 3.745018e+001
2177126625 -3.652595e+001 -6.604553e+001 -4.317264e-002 -1.071639e+002 -3.720871e-002 -1.071797e+002 -3.527705e+001 3.601010e+001
2194001250 -3.587047e+001 -6.596870e+001 -2.464551e-002 -1.080025e+002 -3.607586e-002 -1.080269e+002 -3.549735e+001 3.765610e+001
2210875875 -3.605928e+001 -6.828920e+001 -2.056546e-002 -1.088473e+002 -2.464597e-002 -1.088245e+002 -3.524897e+001 3.863130e+001
2227750500 -3.598011e+001 -7.403046e+001 -2.345653e-002 -1.096765e+002 -3.326624e-002 -1.096697e+002 -3.477248e+001 4.046422e+001
2244625125 -3.641533e+001 -7.376405e+001 -3.579517e-002 -1.105443e+002 -3.612455e-002 -1.104823e+002 -3.459569e+001 4.024873e+001
2261499750 -3.641521e+001 -7.787238e+001 -3.644091e-002 -1.113411e+002 -2.817734e-002 -1.112933e+002 -3.451709e+001 4.341781e+001
2278374375 -3.639891e+001 -7.982341e+001 -3.331035e-002 -1.121698e+002 -3.604688e-002 -1.121652e+002 -3.491830e+001 4.237717e+001
2295249000 -3.636510e+001 -8.283549e+001 -3.114147e-002 -1.130034e+002 -3.617582e-002 -1.129713e+002 -3.480718e+001 4.284227e+001
2312123625 -3.597228e+001 -8.367160e+001 -3.040945e-002 -1.138270e+002 -3.603324e-002 -1.138005e+002 -3.503047e+001 4.497020e+001
2328998250 -3.615178e+001 -8.477969e+001 -2.832901e-002 -1.146698e+002 -3.489913e-002 -1.146426e+002 -3.483722e+001 4.272388e+001
2345872875 -3.623825e+001 -8.722955e+001 -3.582320e-002 -1.154959e+002 -3.546942e-002 -1.154772e+002 -3.483587e+001 4.514108e+001
2362747500 -3.559734e+001 -8.860663e+001 -1.982862e-002 -1.163164e+002 -3.401954e-002 -1.162905e+002 -3.458311e+001 4.402312e+001
2379622125 -3.618979e+001 -9.171134e+001 -3.058267e-002 -1.171193e+002 -2.874287e-002 -1.171298e+002 -3.459044e+001 4.153120e+001
2396496750 -3.595152e+001 -9.344741e+001 -4.028243e-002 -1.179732e+002 -3.716010e-002 -1.179575e+002 -3.466365e+001 3.940404e+001
2413371375 -3.594730e+001 -9.299158e+001 -3.553906e-002 -1.188038e+002 -3.850135e-002 -1.187828e+002 -3.464021e+001 4.227398e+001
2430246000 -3.591929e+001 -9.610593e+001 -3.748264e-002 -1.196250e+002 -3.502566e-002 -1.196317e+002 -3.462440e+001 4.083473e+001
2447120625 -3.606544e+001 -9.824773e+001 -3.027699e-002 -1.204525e+002 -3.682745e-002 -1.204377e+002 -3.448088e+001 4.353416e+001
2463995250 -3.619810e+001 -1.015576e+002 -3.989652e-002 -1.212995e+002 -3.493761e-002 -1.212612e+002 -3.426917e+001 4.302248e+001
2480869875 -3.602793e+001 -1.041869e+002 -3.264610e-002 -1.221172e+002 -3.817319e-002 -1.220981e+002 -3.436548e+001 4.583161e+001
2497744500 -3.626376e+001 -1.040345e+002 -2.731656e-002 -1.229570e+002 -3.983253e-002 -1.229175e+002 -3.436922e+001 4.562862e+001
2514619125 -3.622956e+001 -1.078444e+002 -3.860122e-002 -1.237714e+002 -4.007981e-002 -1.237646e+002 -3.502197e+001 4.500222e+001
2531493750 -3.609723e+001 -1.095746e+002 -3.347387e-002 -1.245974e+002 -3.917422e-002 -1.246079e+002 -3.531155e+001 4.729110e+001
2548368375 -3.629395e+001 -1.088644e+002 -2.805810e-002 -1.254527e+002 -3.562929e-002 -1.254206e+002 -3.517605e+001 4.054211e+001
