!Agilent Technologies,N5230C,MY48100320,A.08.04.10
!Agilent N5230C: A.08.04.10
!Date: Friday, July 15, 2016 04:18:48
!Correction: S11(Full 2 Port(1,2)) 
!S21(Full 2 Port(1,2)) 
!S12(Full 2 Port(1,2)) 
!S22(Full 2 Port(1,2)) 
!S2P File: Measurements: S11, S21, S12, S22:
# Hz S  dB   R 50
300000 -2.431074e+001 8.337634e+001 -6.898898e-002 -3.385521e+000 -4.087948e-002 -3.702652e+000 -2.426862e+001 8.051842e+001
67798500 -3.554403e+001 -9.873302e+001 -1.296515e-002 -6.633072e+000 -1.497731e-002 -6.635045e+000 -3.498879e+001 -9.067178e+001
135297000 -2.927123e+001 -1.088568e+002 -2.476310e-002 -1.321730e+001 -2.223215e-002 -1.321454e+001 -2.911552e+001 -9.361764e+001
202795500 -2.559838e+001 -1.196406e+002 -3.072411e-002 -1.978873e+001 -2.986238e-002 -1.976496e+001 -2.546757e+001 -9.715571e+001
270294000 -2.296585e+001 -1.308065e+002 -4.254223e-002 -2.634427e+001 -4.323537e-002 -2.635548e+001 -2.291470e+001 -1.010038e+002
337792500 -2.093408e+001 -1.418102e+002 -5.610511e-002 -3.289743e+001 -5.357911e-002 -3.290307e+001 -2.088260e+001 -1.040738e+002
405291000 -1.945756e+001 -1.514858e+002 -7.426012e-002 -3.945490e+001 -7.200144e-002 -3.943035e+001 -1.933577e+001 -1.072722e+002
472789500 -1.804973e+001 -1.621290e+002 -9.196567e-002 -4.601149e+001 -9.329703e-002 -4.598335e+001 -1.797830e+001 -1.106275e+002
540288000 -1.677547e+001 -1.719709e+002 -1.187792e-001 -5.250721e+001 -1.205571e-001 -5.253184e+001 -1.669224e+001 -1.139381e+002
607786500 -1.571601e+001 1.788257e+002 -1.498543e-001 -5.901029e+001 -1.513504e-001 -5.898797e+001 -1.564896e+001 -1.176305e+002
675285000 -1.481175e+001 1.693987e+002 -1.782264e-001 -6.550424e+001 -1.774621e-001 -6.551447e+001 -1.476547e+001 -1.210157e+002
742783500 -1.395733e+001 1.600507e+002 -2.084531e-001 -7.195394e+001 -2.172193e-001 -7.196741e+001 -1.393301e+001 -1.248494e+002
810282000 -1.329314e+001 1.512336e+002 -2.477149e-001 -7.833813e+001 -2.507719e-001 -7.838326e+001 -1.323014e+001 -1.285917e+002
877780500 -1.270196e+001 1.419819e+002 -2.806860e-001 -8.473229e+001 -2.853298e-001 -8.475110e+001 -1.264447e+001 -1.321854e+002
945279000 -1.214019e+001 1.328617e+002 -3.119654e-001 -9.114671e+001 -3.156467e-001 -9.112240e+001 -1.211857e+001 -1.359036e+002
1012777500 -1.166548e+001 1.240737e+002 -3.468308e-001 -9.747765e+001 -3.519372e-001 -9.744503e+001 -1.164800e+001 -1.395228e+002
1080276000 -1.126528e+001 1.148596e+002 -3.747077e-001 -1.037710e+002 -3.755513e-001 -1.037807e+002 -1.130405e+001 -1.430221e+002
1147774500 -1.090050e+001 1.058148e+002 -4.070375e-001 -1.101092e+002 -4.120484e-001 -1.100959e+002 -1.096014e+001 -1.466193e+002
1215273000 -1.065275e+001 9.678488e+001 -4.364102e-001 -1.163960e+002 -4.348572e-001 -1.163861e+002 -1.065469e+001 -1.497263e+002
1282771500 -1.040584e+001 8.714877e+001 -4.597504e-001 -1.226738e+002 -4.603567e-001 -1.226482e+002 -1.044331e+001 -1.528715e+002
1350270000 -1.017092e+001 7.767510e+001 -4.826989e-001 -1.289691e+002 -4.823182e-001 -1.289366e+002 -1.020903e+001 -1.557700e+002
1417768500 -9.995852e+000 6.786164e+001 -5.021070e-001 -1.352392e+002 -5.038182e-001 -1.352462e+002 -1.002785e+001 -1.584683e+002
1485267000 -9.828030e+000 5.795571e+001 -5.230229e-001 -1.415391e+002 -5.230247e-001 -1.415087e+002 -9.856546e+000 -1.611373e+002
1552765500 -9.671878e+000 4.768299e+001 -5.473962e-001 -1.477881e+002 -5.444462e-001 -1.478099e+002 -9.684197e+000 -1.635159e+002
1620264000 -9.503879e+000 3.764782e+001 -5.678530e-001 -1.540998e+002 -5.671359e-001 -1.540920e+002 -9.511723e+000 -1.658566e+002
1687762500 -9.366507e+000 2.739099e+001 -5.875781e-001 -1.603614e+002 -5.877564e-001 -1.603747e+002 -9.358106e+000 -1.680547e+002
1755261000 -9.200312e+000 1.713396e+001 -6.141808e-001 -1.666668e+002 -6.123365e-001 -1.666661e+002 -9.169457e+000 -1.704007e+002
1822759500 -9.052639e+000 6.840878e+000 -6.350047e-001 -1.729151e+002 -6.355932e-001 -1.729392e+002 -8.999223e+000 -1.725245e+002
1890258000 -8.915124e+000 -3.388439e+000 -6.612319e-001 -1.791801e+002 -6.643330e-001 -1.791905e+002 -8.829537e+000 -1.747187e+002
1957756500 -8.744302e+000 -1.349125e+001 -6.908306e-001 1.745486e+002 -6.858435e-001 1.745469e+002 -8.641891e+000 -1.772424e+002
2025255000 -8.581135e+000 -2.344835e+001 -7.182751e-001 1.682913e+002 -7.190852e-001 1.683423e+002 -8.447987e+000 -1.797020e+002
2092753500 -8.424052e+000 -3.333942e+001 -7.485647e-001 1.621142e+002 -7.524484e-001 1.621151e+002 -8.285064e+000 1.777618e+002
2160252000 -8.261970e+000 -4.280562e+001 -7.846892e-001 1.559757e+002 -7.833821e-001 1.559510e+002 -8.109109e+000 1.748555e+002
2227750500 -8.133000e+000 -5.222897e+001 -8.124092e-001 1.498562e+002 -8.081733e-001 1.498223e+002 -7.960433e+000 1.719876e+002
2295249000 -8.000939e+000 -6.138238e+001 -8.385733e-001 1.437762e+002 -8.349975e-001 1.437547e+002 -7.842221e+000 1.688422e+002
2362747500 -7.898580e+000 -7.027441e+001 -8.613615e-001 1.376940e+002 -8.578047e-001 1.376742e+002 -7.742857e+000 1.655341e+002
2430246000 -7.831916e+000 -7.906716e+001 -8.768355e-001 1.316705e+002 -8.773720e-001 1.316628e+002 -7.667424e+000 1.621942e+002
2497744500 -7.771997e+000 -8.772518e+001 -8.948513e-001 1.256012e+002 -8.917000e-001 1.256271e+002 -7.638412e+000 1.588543e+002
2565243000 -7.759894e+000 -9.628256e+001 -9.000099e-001 1.196253e+002 -8.911470e-001 1.196087e+002 -7.631963e+000 1.550904e+002
2632741500 -7.782237e+000 -1.047470e+002 -8.932587e-001 1.136191e+002 -8.875719e-001 1.136635e+002 -7.672790e+000 1.515620e+002
2700240000 -7.853415e+000 -1.132351e+002 -8.825046e-001 1.076133e+002 -8.827103e-001 1.076028e+002 -7.727455e+000 1.479342e+002
2767738500 -7.932771e+000 -1.217256e+002 -8.677922e-001 1.015864e+002 -8.673108e-001 1.015750e+002 -7.831336e+000 1.443395e+002
2835237000 -8.064225e+000 -1.303081e+002 -8.396553e-001 9.552001e+001 -8.444914e-001 9.552772e+001 -7.953021e+000 1.407305e+002
2902735500 -8.219643e+000 -1.391102e+002 -8.139207e-001 8.943990e+001 -8.136923e-001 8.945639e+001 -8.107368e+000 1.372616e+002
2970234000 -8.387421e+000 -1.478160e+002 -7.850445e-001 8.332275e+001 -7.880450e-001 8.333373e+001 -8.304964e+000 1.337612e+002
3037732500 -8.591733e+000 -1.568377e+002 -7.521750e-001 7.715377e+001 -7.491085e-001 7.717346e+001 -8.491607e+000 1.302290e+002
3105231000 -8.795613e+000 -1.660272e+002 -7.202842e-001 7.098528e+001 -7.194663e-001 7.098093e+001 -8.745572e+000 1.271167e+002
3172729500 -9.046556e+000 -1.753591e+002 -6.839573e-001 6.475179e+001 -6.791199e-001 6.473935e+001 -9.013534e+000 1.240448e+002
3240228000 -9.296705e+000 1.751004e+002 -6.438702e-001 5.845924e+001 -6.441581e-001 5.846961e+001 -9.277112e+000 1.210382e+002
3307726500 -9.556244e+000 1.652240e+002 -6.163200e-001 5.217250e+001 -6.139658e-001 5.218521e+001 -9.568022e+000 1.183358e+002
3375225000 -9.781671e+000 1.550740e+002 -5.822020e-001 4.582537e+001 -5.805086e-001 4.585733e+001 -9.844794e+000 1.158662e+002
3442723500 -1.005677e+001 1.448658e+002 -5.494900e-001 3.949538e+001 -5.521958e-001 3.949372e+001 -1.013897e+001 1.134444e+002
3510222000 -1.027219e+001 1.347858e+002 -5.320165e-001 3.314310e+001 -5.242923e-001 3.315507e+001 -1.036203e+001 1.112022e+002
3577720500 -1.050550e+001 1.243334e+002 -5.098768e-001 2.678540e+001 -5.085439e-001 2.679321e+001 -1.062779e+001 1.089381e+002
3645219000 -1.070662e+001 1.141701e+002 -4.890522e-001 2.043237e+001 -4.897623e-001 2.040874e+001 -1.084296e+001 1.064142e+002
3712717500 -1.096601e+001 1.039512e+002 -4.700018e-001 1.404819e+001 -4.670794e-001 1.401991e+001 -1.105929e+001 1.042972e+002
3780216000 -1.119217e+001 9.372620e+001 -4.550077e-001 7.680109e+000 -4.526100e-001 7.668147e+000 -1.131552e+001 1.016973e+002
3847714500 -1.142283e+001 8.404257e+001 -4.313378e-001 1.327829e+000 -4.352100e-001 1.362017e+000 -1.148743e+001 9.872318e+001
3915213000 -1.172069e+001 7.423905e+001 -4.137651e-001 -5.019044e+000 -4.197850e-001 -5.009961e+000 -1.174520e+001 9.601206e+001
3982711500 -1.196574e+001 6.476070e+001 -4.009663e-001 -1.135299e+001 -3.940817e-001 -1.136283e+001 -1.202993e+001 9.254447e+001
4050210000 -1.237195e+001 5.539561e+001 -3.737652e-001 -1.769680e+001 -3.787448e-001 -1.771298e+001 -1.232329e+001 8.914104e+001
4117708500 -1.276008e+001 4.621535e+001 -3.556410e-001 -2.405371e+001 -3.508993e-001 -2.407454e+001 -1.270011e+001 8.560251e+001
4185207000 -1.323866e+001 3.723719e+001 -3.269683e-001 -3.044313e+001 -3.284042e-001 -3.046952e+001 -1.319868e+001 8.176799e+001
4252705500 -1.379978e+001 2.834789e+001 -3.074954e-001 -3.682056e+001 -3.032456e-001 -3.680826e+001 -1.363993e+001 7.741913e+001
4320204000 -1.447589e+001 1.947922e+001 -2.745240e-001 -4.322736e+001 -2.744453e-001 -4.324540e+001 -1.428837e+001 7.353400e+001
4387702500 -1.526524e+001 1.080106e+001 -2.537631e-001 -4.964378e+001 -2.509483e-001 -4.966771e+001 -1.503898e+001 6.925491e+001
4455201000 -1.621307e+001 2.438208e+000 -2.223472e-001 -5.611709e+001 -2.224263e-001 -5.612411e+001 -1.592514e+001 6.448640e+001
4522699500 -1.733537e+001 -6.582283e+000 -1.950853e-001 -6.259295e+001 -1.990791e-001 -6.260398e+001 -1.701677e+001 6.028105e+001
4590198000 -1.867080e+001 -1.506350e+001 -1.735640e-001 -6.911214e+001 -1.710014e-001 -6.912961e+001 -1.829062e+001 5.513068e+001
4657696500 -2.037445e+001 -2.362709e+001 -1.528412e-001 -7.562562e+001 -1.525620e-001 -7.565707e+001 -2.003029e+001 5.015715e+001
4725195000 -2.266770e+001 -3.250838e+001 -1.385575e-001 -8.217968e+001 -1.388286e-001 -8.219189e+001 -2.200442e+001 4.548562e+001
4792693500 -2.553939e+001 -4.070021e+001 -1.278840e-001 -8.875938e+001 -1.262233e-001 -8.873633e+001 -2.482985e+001 3.980648e+001
4860192000 -2.983221e+001 -4.676147e+001 -1.197465e-001 -9.530136e+001 -1.183353e-001 -9.529634e+001 -2.903575e+001 2.858101e+001
4927690500 -4.018684e+001 -5.037507e+001 -1.222113e-001 -1.018558e+002 -1.114644e-001 -1.018659e+002 -3.650220e+001 1.196334e+001
4995189000 -4.048499e+001 8.996479e+001 -1.180234e-001 -1.084510e+002 -1.152843e-001 -1.084455e+002 -3.956914e+001 -1.027966e+002
5062687500 -3.025875e+001 9.298897e+001 -1.263743e-001 -1.149622e+002 -1.207286e-001 -1.150018e+002 -3.050607e+001 -1.353715e+002
5130186000 -2.604188e+001 8.561485e+001 -1.323482e-001 -1.215323e+002 -1.355122e-001 -1.215400e+002 -2.599476e+001 -1.458055e+002
5197684500 -2.335022e+001 7.572725e+001 -1.458240e-001 -1.280271e+002 -1.382916e-001 -1.280544e+002 -2.326595e+001 -1.522212e+002
5265183000 -2.120452e+001 6.646574e+001 -1.645340e-001 -1.345641e+002 -1.552530e-001 -1.345775e+002 -2.121894e+001 -1.565723e+002
5332681500 -1.958218e+001 5.614504e+001 -1.746476e-001 -1.410528e+002 -1.771676e-001 -1.410637e+002 -1.963479e+001 -1.600137e+002
5400180000 -1.827582e+001 4.642101e+001 -1.945739e-001 -1.475189e+002 -1.978717e-001 -1.475469e+002 -1.843434e+001 -1.644930e+002
5467678500 -1.725882e+001 3.599319e+001 -2.175476e-001 -1.539796e+002 -2.153907e-001 -1.540169e+002 -1.730395e+001 -1.670565e+002
5535177000 -1.624356e+001 2.554040e+001 -2.403952e-001 -1.604375e+002 -2.382987e-001 -1.604931e+002 -1.647826e+001 -1.699820e+002
5602675500 -1.545664e+001 1.540884e+001 -2.607194e-001 -1.668883e+002 -2.599138e-001 -1.669429e+002 -1.572488e+001 -1.729069e+002
5670174000 -1.461757e+001 4.591969e+000 -2.825903e-001 -1.733391e+002 -2.846884e-001 -1.733505e+002 -1.504427e+001 -1.748489e+002
5737672500 -1.396364e+001 -5.472841e+000 -3.032890e-001 -1.797858e+002 -3.079152e-001 -1.797873e+002 -1.444786e+001 -1.772305e+002
5805171000 -1.333848e+001 -1.576128e+001 -3.276620e-001 1.737956e+002 -3.324521e-001 1.737484e+002 -1.385977e+001 -1.793606e+002
5872669500 -1.274393e+001 -2.606071e+001 -3.616157e-001 1.673460e+002 -3.585675e-001 1.673472e+002 -1.327478e+001 1.785426e+002
5940168000 -1.221058e+001 -3.608514e+001 -3.891281e-001 1.609542e+002 -3.923976e-001 1.609196e+002 -1.277698e+001 1.763547e+002
6007666500 -1.170468e+001 -4.562199e+001 -4.205544e-001 1.545167e+002 -4.183336e-001 1.545232e+002 -1.232619e+001 1.741738e+002
6075165000 -1.130109e+001 -5.610158e+001 -4.501963e-001 1.481179e+002 -4.477130e-001 1.481049e+002 -1.182010e+001 1.722881e+002
6142663500 -1.087027e+001 -6.546755e+001 -4.840834e-001 1.417206e+002 -4.887129e-001 1.416977e+002 -1.139438e+001 1.701290e+002
6210162000 -1.051842e+001 -7.526166e+001 -5.176784e-001 1.353867e+002 -5.242742e-001 1.353860e+002 -1.097928e+001 1.672669e+002
6277660500 -1.019129e+001 -8.505264e+001 -5.563536e-001 1.290287e+002 -5.604829e-001 1.290179e+002 -1.055454e+001 1.653075e+002
6345159000 -9.912492e+000 -9.452680e+001 -5.993106e-001 1.227091e+002 -5.969313e-001 1.226889e+002 -1.022075e+001 1.626723e+002
6412657500 -9.651919e+000 -1.041060e+002 -6.405593e-001 1.164517e+002 -6.332465e-001 1.164485e+002 -9.900568e+000 1.598023e+002
6480156000 -9.443552e+000 -1.139599e+002 -6.743426e-001 1.101465e+002 -6.755901e-001 1.101331e+002 -9.586301e+000 1.573237e+002
6547654500 -9.236556e+000 -1.233583e+002 -7.156886e-001 1.039069e+002 -7.120017e-001 1.038693e+002 -9.298667e+000 1.542788e+002
6615153000 -9.051855e+000 -1.326888e+002 -7.554013e-001 9.768890e+001 -7.536177e-001 9.764894e+001 -9.058963e+000 1.511762e+002
6682651500 -8.923787e+000 -1.424474e+002 -7.897005e-001 9.150623e+001 -7.901244e-001 9.147266e+001 -8.823596e+000 1.482078e+002
6750150000 -8.767328e+000 -1.515704e+002 -8.233777e-001 8.530977e+001 -8.238661e-001 8.527131e+001 -8.642899e+000 1.450178e+002
6817648500 -8.659732e+000 -1.612236e+002 -8.524001e-001 7.917463e+001 -8.555844e-001 7.915119e+001 -8.471562e+000 1.416638e+002
6885147000 -8.548824e+000 -1.705197e+002 -8.821906e-001 7.304885e+001 -8.778917e-001 7.298989e+001 -8.323965e+000 1.383834e+002
6952645500 -8.438109e+000 -1.795947e+002 -9.076330e-001 6.692060e+001 -9.038805e-001 6.688261e+001 -8.213782e+000 1.348003e+002
7020144000 -8.350141e+000 1.711659e+002 -9.274650e-001 6.080590e+001 -9.269712e-001 6.076810e+001 -8.094773e+000 1.312649e+002
7087642500 -8.264804e+000 1.622227e+002 -9.384938e-001 5.467377e+001 -9.452870e-001 5.468703e+001 -8.023954e+000 1.277028e+002
7155141000 -8.162767e+000 1.533187e+002 -9.624099e-001 4.860699e+001 -9.597289e-001 4.857402e+001 -7.966794e+000 1.239453e+002
7222639500 -8.104242e+000 1.446056e+002 -9.635305e-001 4.254494e+001 -9.618741e-001 4.255989e+001 -7.952181e+000 1.201912e+002
7290138000 -8.060880e+000 1.357920e+002 -9.719268e-001 3.647599e+001 -9.702082e-001 3.643828e+001 -7.952987e+000 1.164643e+002
7357636500 -7.994037e+000 1.272907e+002 -9.694855e-001 3.033022e+001 -9.695681e-001 3.033542e+001 -7.971279e+000 1.127280e+002
7425135000 -7.971162e+000 1.188161e+002 -9.687394e-001 2.428895e+001 -9.675497e-001 2.429757e+001 -8.054616e+000 1.088374e+002
7492633500 -7.984356e+000 1.104262e+002 -9.561611e-001 1.822852e+001 -9.545070e-001 1.820584e+001 -8.116398e+000 1.048693e+002
7560132000 -7.982750e+000 1.019666e+002 -9.433596e-001 1.211717e+001 -9.394042e-001 1.209604e+001 -8.237697e+000 1.010669e+002
7627630500 -8.039639e+000 9.363049e+001 -9.294378e-001 5.977926e+000 -9.243481e-001 5.963422e+000 -8.362079e+000 9.729466e+001
7695129000 -8.118089e+000 8.531149e+001 -9.049042e-001 -2.364119e-001 -9.135868e-001 -2.301002e-001 -8.506467e+000 9.346443e+001
7762627500 -8.175869e+000 7.669073e+001 -8.939128e-001 -6.330769e+000 -8.873407e-001 -6.367959e+000 -8.654878e+000 8.983500e+001
7830126000 -8.359340e+000 6.815699e+001 -8.628227e-001 -1.257087e+001 -8.691151e-001 -1.254356e+001 -8.859728e+000 8.630416e+001
7897624500 -8.516029e+000 5.946897e+001 -8.385478e-001 -1.881128e+001 -8.365543e-001 -1.879878e+001 -9.085263e+000 8.269545e+001
7965123000 -8.714818e+000 5.035490e+001 -8.134323e-001 -2.502464e+001 -8.132902e-001 -2.501702e+001 -9.257667e+000 7.954639e+001
8032621500 -8.969645e+000 4.128810e+001 -7.890775e-001 -3.133426e+001 -7.911747e-001 -3.137367e+001 -9.514725e+000 7.643496e+001
8100120000 -9.202134e+000 3.189768e+001 -7.657089e-001 -3.762724e+001 -7.605817e-001 -3.764692e+001 -9.741860e+000 7.312386e+001
8167618500 -9.490849e+000 2.192465e+001 -7.458640e-001 -4.395575e+001 -7.459552e-001 -4.392596e+001 -9.925574e+000 7.057323e+001
8235117000 -9.775553e+000 1.190365e+001 -7.195695e-001 -5.033431e+001 -7.223847e-001 -5.032128e+001 -1.020608e+001 6.780353e+001
8302615500 -1.005871e+001 1.373333e+000 -7.146316e-001 -5.666010e+001 -7.051696e-001 -5.671136e+001 -1.034912e+001 6.525878e+001
8370114000 -1.029757e+001 -9.502773e+000 -6.924943e-001 -6.305843e+001 -6.943274e-001 -6.306612e+001 -1.053970e+001 6.313231e+001
8437612500 -1.056726e+001 -2.036576e+001 -6.757612e-001 -6.945713e+001 -6.808502e-001 -6.941470e+001 -1.074426e+001 6.062380e+001
8505111000 -1.073383e+001 -3.160109e+001 -6.780564e-001 -7.575012e+001 -6.670401e-001 -7.576012e+001 -1.086571e+001 5.814408e+001
8572609500 -1.091095e+001 -4.287434e+001 -6.681325e-001 -8.215043e+001 -6.615168e-001 -8.214757e+001 -1.100475e+001 5.618026e+001
8640108000 -1.101239e+001 -5.416322e+001 -6.577387e-001 -8.842236e+001 -6.621289e-001 -8.846585e+001 -1.119722e+001 5.353779e+001
8707606500 -1.110802e+001 -6.524934e+001 -6.616507e-001 -9.479242e+001 -6.523468e-001 -9.477058e+001 -1.129658e+001 5.087622e+001
8775105000 -1.119818e+001 -7.633328e+001 -6.543953e-001 -1.011379e+002 -6.527615e-001 -1.010931e+002 -1.142316e+001 4.863090e+001
8842603500 -1.122771e+001 -8.635661e+001 -6.514238e-001 -1.073812e+002 -6.491455e-001 -1.073956e+002 -1.165153e+001 4.530061e+001
8910102000 -1.132366e+001 -9.705972e+001 -6.448094e-001 -1.136550e+002 -6.451012e-001 -1.136144e+002 -1.178422e+001 4.237823e+001
8977600500 -1.136704e+001 -1.063814e+002 -6.340832e-001 -1.198660e+002 -6.313570e-001 -1.199016e+002 -1.207120e+001 3.927518e+001
9045099000 -1.156864e+001 -1.157254e+002 -6.203886e-001 -1.261511e+002 -6.150076e-001 -1.261512e+002 -1.240041e+001 3.514857e+001
9112597500 -1.178018e+001 -1.254124e+002 -6.006610e-001 -1.324051e+002 -5.981929e-001 -1.324286e+002 -1.274385e+001 3.201878e+001
9180096000 -1.210932e+001 -1.339730e+002 -5.789055e-001 -1.386985e+002 -5.764601e-001 -1.386975e+002 -1.324424e+001 2.814832e+001
9247594500 -1.250639e+001 -1.427314e+002 -5.493553e-001 -1.449608e+002 -5.497017e-001 -1.450086e+002 -1.378798e+001 2.371570e+001
9315093000 -1.314562e+001 -1.513237e+002 -5.303063e-001 -1.513787e+002 -5.284404e-001 -1.514059e+002 -1.444860e+001 1.955695e+001
9382591500 -1.380986e+001 -1.597722e+002 -5.024860e-001 -1.577435e+002 -4.973958e-001 -1.577242e+002 -1.529547e+001 1.500208e+001
9450090000 -1.475726e+001 -1.683284e+002 -4.714901e-001 -1.641248e+002 -4.739624e-001 -1.641311e+002 -1.625847e+001 1.001763e+001
9517588500 -1.604621e+001 -1.769941e+002 -4.437871e-001 -1.705908e+002 -4.451129e-001 -1.706076e+002 -1.761328e+001 5.041966e+000
9585087000 -1.766280e+001 1.738212e+002 -4.260687e-001 -1.771149e+002 -4.246619e-001 -1.771492e+002 -1.934679e+001 -7.836711e-001
9652585500 -1.963472e+001 1.638936e+002 -4.111411e-001 1.763404e+002 -4.095009e-001 1.763970e+002 -2.131496e+001 -6.504380e+000
9720084000 -2.277353e+001 1.529199e+002 -4.061901e-001 1.698481e+002 -3.978821e-001 1.697777e+002 -2.447836e+001 -1.143756e+001
9787582500 -2.730590e+001 1.367117e+002 -3.977091e-001 1.632473e+002 -3.939726e-001 1.632470e+002 -2.890519e+001 -2.429949e+001
9855081000 -3.522992e+001 9.303019e+001 -4.019577e-001 1.566804e+002 -4.055451e-001 1.566405e+002 -3.710232e+001 -4.569804e+001
9922579500 -3.177534e+001 -1.029805e+001 -4.138892e-001 1.501018e+002 -4.137087e-001 1.500813e+002 -3.525948e+001 -1.753197e+002
9990078000 -2.575900e+001 -3.486983e+001 -4.198049e-001 1.435621e+002 -4.250565e-001 1.435352e+002 -2.821921e+001 1.704919e+002
10057576500 -2.168273e+001 -4.904266e+001 -4.409872e-001 1.370101e+002 -4.430583e-001 1.370091e+002 -2.444514e+001 1.592688e+002
10125075000 -1.930731e+001 -5.949159e+001 -4.668943e-001 1.305448e+002 -4.638670e-001 1.304925e+002 -2.161113e+001 1.551468e+002
10192573500 -1.767379e+001 -7.039039e+001 -4.897714e-001 1.240272e+002 -4.896336e-001 1.240212e+002 -2.006115e+001 1.518776e+002
