!Agilent Technologies,N5230C,MY48100320,A.08.04.10
!Agilent N5230C: A.08.04.10
!Date: Friday, July 15, 2016 04:15:09
!Correction: S11(Full 2 Port(1,2)) 
!S21(Full 2 Port(1,2)) 
!S12(Full 2 Port(1,2)) 
!S22(Full 2 Port(1,2)) 
!S2P File: Measurements: S11, S21, S12, S22:
# Hz S  dB   R 50
300000 -2.427529e+001 8.375110e+001 -6.741395e-002 -3.385183e+000 -4.354815e-002 -3.681173e+000 -2.429127e+001 8.034489e+001
67798500 -4.317210e+001 -9.827905e+001 -1.122725e-002 -6.068260e+000 -1.113724e-002 -6.126005e+000 -4.161451e+001 -8.657835e+001
135297000 -3.637234e+001 -1.081129e+002 -1.851427e-002 -1.214280e+001 -1.360777e-002 -1.215998e+001 -3.582980e+001 -8.840029e+001
202795500 -3.240040e+001 -1.207160e+002 -1.933398e-002 -1.816664e+001 -1.631616e-002 -1.815909e+001 -3.197665e+001 -8.990813e+001
270294000 -2.957874e+001 -1.335350e+002 -2.513142e-002 -2.419461e+001 -2.122779e-002 -2.420757e+001 -2.929226e+001 -9.276109e+001
337792500 -2.730364e+001 -1.458071e+002 -3.164405e-002 -3.021377e+001 -2.662484e-002 -3.024003e+001 -2.710486e+001 -9.430903e+001
405291000 -2.584558e+001 -1.558132e+002 -3.357149e-002 -3.625329e+001 -3.032215e-002 -3.625711e+001 -2.553027e+001 -9.613933e+001
472789500 -2.421819e+001 -1.674496e+002 -3.640032e-002 -4.231744e+001 -3.858585e-002 -4.228283e+001 -2.405102e+001 -9.833344e+001
540288000 -2.266316e+001 -1.769767e+002 -4.686269e-002 -4.831908e+001 -4.765730e-002 -4.834343e+001 -2.249498e+001 -1.011093e+002
607786500 -2.141938e+001 1.742967e+002 -5.951639e-002 -5.434754e+001 -6.040841e-002 -5.432613e+001 -2.129592e+001 -1.039757e+002
675285000 -2.042107e+001 1.649994e+002 -6.974909e-002 -6.037062e+001 -6.809072e-002 -6.037167e+001 -2.032608e+001 -1.063833e+002
742783500 -1.938020e+001 1.557742e+002 -7.911821e-002 -6.636739e+001 -8.310343e-002 -6.635481e+001 -1.936850e+001 -1.098437e+002
810282000 -1.864556e+001 1.474341e+002 -9.397708e-002 -7.232975e+001 -9.598642e-002 -7.235533e+001 -1.855085e+001 -1.129715e+002
877780500 -1.798453e+001 1.382272e+002 -1.077838e-001 -7.827451e+001 -1.098894e-001 -7.829018e+001 -1.790623e+001 -1.157770e+002
945279000 -1.734086e+001 1.291116e+002 -1.197243e-001 -8.428117e+001 -1.177831e-001 -8.424619e+001 -1.732489e+001 -1.188139e+002
1012777500 -1.681726e+001 1.204957e+002 -1.260002e-001 -9.023009e+001 -1.305182e-001 -9.021408e+001 -1.679200e+001 -1.217903e+002
1080276000 -1.638139e+001 1.111220e+002 -1.359272e-001 -9.618700e+001 -1.374313e-001 -9.619327e+001 -1.646712e+001 -1.244917e+002
1147774500 -1.598203e+001 1.019892e+002 -1.481143e-001 -1.021835e+002 -1.494789e-001 -1.021404e+002 -1.608389e+001 -1.271741e+002
1215273000 -1.575418e+001 9.277312e+001 -1.562963e-001 -1.081147e+002 -1.561698e-001 -1.081183e+002 -1.573619e+001 -1.293252e+002
1282771500 -1.546481e+001 8.255177e+001 -1.683385e-001 -1.140767e+002 -1.675963e-001 -1.140550e+002 -1.552733e+001 -1.313178e+002
1350270000 -1.521928e+001 7.260328e+001 -1.754928e-001 -1.200638e+002 -1.761254e-001 -1.200468e+002 -1.526325e+001 -1.328692e+002
1417768500 -1.500017e+001 6.189244e+001 -1.819269e-001 -1.260357e+002 -1.807482e-001 -1.260195e+002 -1.502604e+001 -1.341052e+002
1485267000 -1.477549e+001 5.111743e+001 -1.885092e-001 -1.320241e+002 -1.884511e-001 -1.320124e+002 -1.479121e+001 -1.352382e+002
1552765500 -1.453107e+001 3.956350e+001 -2.058535e-001 -1.379764e+002 -2.021511e-001 -1.379921e+002 -1.454870e+001 -1.358921e+002
1620264000 -1.426690e+001 2.870778e+001 -2.146660e-001 -1.440099e+002 -2.149251e-001 -1.440125e+002 -1.425251e+001 -1.366251e+002
1687762500 -1.397102e+001 1.718974e+001 -2.321238e-001 -1.499884e+002 -2.279624e-001 -1.499837e+002 -1.393664e+001 -1.370107e+002
1755261000 -1.364430e+001 5.862328e+000 -2.470301e-001 -1.560100e+002 -2.452452e-001 -1.560133e+002 -1.358516e+001 -1.377982e+002
1822759500 -1.330076e+001 -5.430469e+000 -2.616219e-001 -1.620096e+002 -2.649973e-001 -1.620088e+002 -1.321260e+001 -1.384245e+002
1890258000 -1.294160e+001 -1.658504e+001 -2.864813e-001 -1.679890e+002 -2.870279e-001 -1.679927e+002 -1.280235e+001 -1.392680e+002
1957756500 -1.255950e+001 -2.733591e+001 -3.065382e-001 -1.739908e+002 -3.082456e-001 -1.739718e+002 -1.240281e+001 -1.406354e+002
2025255000 -1.217900e+001 -3.772154e+001 -3.350075e-001 -1.799612e+002 -3.363304e-001 -1.799188e+002 -1.198137e+001 -1.422867e+002
2092753500 -1.177828e+001 -4.806530e+001 -3.662433e-001 1.740920e+002 -3.682209e-001 1.741107e+002 -1.158312e+001 -1.440465e+002
2160252000 -1.141169e+001 -5.764705e+001 -3.998462e-001 1.682293e+002 -3.949737e-001 1.681903e+002 -1.120050e+001 -1.462199e+002
2227750500 -1.108525e+001 -6.729028e+001 -4.293474e-001 1.623262e+002 -4.250818e-001 1.622975e+002 -1.086920e+001 -1.485817e+002
2295249000 -1.076928e+001 -7.657056e+001 -4.594004e-001 1.564660e+002 -4.537485e-001 1.564398e+002 -1.056833e+001 -1.511284e+002
2362747500 -1.050313e+001 -8.553032e+001 -4.856993e-001 1.506340e+002 -4.836082e-001 1.506264e+002 -1.032447e+001 -1.537749e+002
2430246000 -1.028165e+001 -9.450838e+001 -5.123281e-001 1.448117e+002 -5.115793e-001 1.448044e+002 -1.009655e+001 -1.566206e+002
2497744500 -1.008534e+001 -1.032616e+002 -5.373151e-001 1.389888e+002 -5.355501e-001 1.389898e+002 -9.910670e+000 -1.592015e+002
2565243000 -9.927624e+000 -1.121418e+002 -5.553909e-001 1.331947e+002 -5.499307e-001 1.332159e+002 -9.788906e+000 -1.621692e+002
2632741500 -9.821583e+000 -1.209029e+002 -5.660194e-001 1.274224e+002 -5.656306e-001 1.274409e+002 -9.707719e+000 -1.649457e+002
2700240000 -9.772275e+000 -1.299152e+002 -5.793111e-001 1.216295e+002 -5.767853e-001 1.216212e+002 -9.629376e+000 -1.676371e+002
2767738500 -9.723083e+000 -1.388319e+002 -5.853361e-001 1.158329e+002 -5.855026e-001 1.158367e+002 -9.619868e+000 -1.700686e+002
2835237000 -9.709056e+000 -1.480866e+002 -5.845367e-001 1.100280e+002 -5.887878e-001 1.100237e+002 -9.616155e+000 -1.725597e+002
2902735500 -9.712526e+000 -1.575621e+002 -5.862640e-001 1.041938e+002 -5.859542e-001 1.042005e+002 -9.616498e+000 -1.747796e+002
2970234000 -9.730956e+000 -1.670001e+002 -5.854225e-001 9.831950e+001 -5.870265e-001 9.832234e+001 -9.665912e+000 -1.768383e+002
3037732500 -9.745070e+000 -1.768429e+002 -5.870885e-001 9.246018e+001 -5.845266e-001 9.246844e+001 -9.687821e+000 -1.789671e+002
3105231000 -9.748652e+000 1.732159e+002 -5.846231e-001 8.654509e+001 -5.844352e-001 8.654941e+001 -9.741774e+000 1.794920e+002
3172729500 -9.775109e+000 1.629597e+002 -5.842717e-001 8.062195e+001 -5.823532e-001 8.059341e+001 -9.775320e+000 1.779989e+002
3240228000 -9.760139e+000 1.525172e+002 -5.858701e-001 7.467019e+001 -5.832124e-001 7.465778e+001 -9.769245e+000 1.766165e+002
3307726500 -9.718809e+000 1.419617e+002 -5.913522e-001 6.870836e+001 -5.927196e-001 6.869370e+001 -9.757285e+000 1.754729e+002
3375225000 -9.624148e+000 1.314033e+002 -6.023734e-001 6.268768e+001 -6.021119e-001 6.270928e+001 -9.687457e+000 1.743737e+002
3442723500 -9.532052e+000 1.206014e+002 -6.169726e-001 5.672081e+001 -6.158076e-001 5.671392e+001 -9.609453e+000 1.732110e+002
3510222000 -9.423554e+000 1.103609e+002 -6.342513e-001 5.075537e+001 -6.313542e-001 5.076886e+001 -9.455184e+000 1.718627e+002
3577720500 -9.250947e+000 1.000024e+002 -6.577260e-001 4.481363e+001 -6.555868e-001 4.481865e+001 -9.303278e+000 1.704269e+002
3645219000 -9.097157e+000 8.998340e+001 -6.852261e-001 3.887270e+001 -6.858542e-001 3.886327e+001 -9.146527e+000 1.686739e+002
3712717500 -8.959982e+000 7.989616e+001 -7.086684e-001 3.296752e+001 -7.073559e-001 3.297519e+001 -8.956971e+000 1.670209e+002
3780216000 -8.791640e+000 7.012379e+001 -7.451543e-001 2.708335e+001 -7.381650e-001 2.706822e+001 -8.794773e+000 1.650194e+002
3847714500 -8.646767e+000 6.057996e+001 -7.650527e-001 2.123088e+001 -7.665491e-001 2.128122e+001 -8.616520e+000 1.627863e+002
3915213000 -8.526071e+000 5.096682e+001 -7.924834e-001 1.542523e+001 -7.932349e-001 1.542547e+001 -8.457071e+000 1.606901e+002
3982711500 -8.381328e+000 4.184681e+001 -8.215078e-001 9.645878e+000 -8.134524e-001 9.653452e+000 -8.322868e+000 1.581677e+002
4050210000 -8.291918e+000 3.244428e+001 -8.363814e-001 3.924680e+000 -8.395706e-001 3.876389e+000 -8.204572e+000 1.558072e+002
4117708500 -8.216689e+000 2.324687e+001 -8.607483e-001 -1.851128e+000 -8.546563e-001 -1.886365e+000 -8.110237e+000 1.533571e+002
4185207000 -8.141463e+000 1.409060e+001 -8.667198e-001 -7.585105e+000 -8.672855e-001 -7.627233e+000 -8.051081e+000 1.510104e+002
4252705500 -8.117307e+000 4.969360e+000 -8.841513e-001 -1.329972e+001 -8.796380e-001 -1.329860e+001 -7.998326e+000 1.483607e+002
4320204000 -8.083533e+000 -4.393081e+000 -8.846117e-001 -1.908471e+001 -8.836148e-001 -1.907048e+001 -7.967656e+000 1.460553e+002
4387702500 -8.072956e+000 -1.375118e+001 -8.909103e-001 -2.477783e+001 -8.870706e-001 -2.480096e+001 -7.938290e+000 1.437941e+002
4455201000 -8.090062e+000 -2.315528e+001 -8.801774e-001 -3.054803e+001 -8.845991e-001 -3.053073e+001 -7.963048e+000 1.414805e+002
4522699500 -8.089262e+000 -3.284568e+001 -8.795775e-001 -3.632409e+001 -8.849539e-001 -3.631649e+001 -7.973351e+000 1.394835e+002
4590198000 -8.116696e+000 -4.263502e+001 -8.783839e-001 -4.207046e+001 -8.743431e-001 -4.208379e+001 -7.994123e+000 1.374579e+002
4657696500 -8.143316e+000 -5.255767e+001 -8.637151e-001 -4.785162e+001 -8.675351e-001 -4.788160e+001 -8.059887e+000 1.358009e+002
4725195000 -8.153603e+000 -6.281596e+001 -8.604217e-001 -5.366897e+001 -8.644227e-001 -5.364846e+001 -8.057059e+000 1.341561e+002
4792693500 -8.172324e+000 -7.315062e+001 -8.555436e-001 -5.948317e+001 -8.547969e-001 -5.946840e+001 -8.079999e+000 1.327279e+002
4860192000 -8.205560e+000 -8.324550e+001 -8.467516e-001 -6.532612e+001 -8.438746e-001 -6.532198e+001 -8.160085e+000 1.311853e+002
4927690500 -8.185204e+000 -9.387292e+001 -8.516784e-001 -7.116523e+001 -8.485484e-001 -7.116943e+001 -8.150103e+000 1.299405e+002
4995189000 -8.183770e+000 -1.040764e+002 -8.451675e-001 -7.700735e+001 -8.440594e-001 -7.699835e+001 -8.161864e+000 1.285691e+002
5062687500 -8.193807e+000 -1.143480e+002 -8.425776e-001 -8.284086e+001 -8.369286e-001 -8.283641e+001 -8.193583e+000 1.273063e+002
5130186000 -8.182444e+000 -1.247802e+002 -8.437441e-001 -8.870987e+001 -8.427243e-001 -8.873077e+001 -8.195233e+000 1.261732e+002
5197684500 -8.183897e+000 -1.350366e+002 -8.422884e-001 -9.453773e+001 -8.447350e-001 -9.456425e+001 -8.157895e+000 1.249701e+002
5265183000 -8.165655e+000 -1.450927e+002 -8.581178e-001 -1.003496e+002 -8.527959e-001 -1.004021e+002 -8.149371e+000 1.236752e+002
5332681500 -8.172519e+000 -1.553845e+002 -8.575042e-001 -1.062004e+002 -8.590784e-001 -1.062034e+002 -8.134991e+000 1.223415e+002
5400180000 -8.174349e+000 -1.654865e+002 -8.635038e-001 -1.120232e+002 -8.697497e-001 -1.120210e+002 -8.076908e+000 1.210735e+002
5467678500 -8.189911e+000 -1.751859e+002 -8.763232e-001 -1.178236e+002 -8.725742e-001 -1.178410e+002 -8.067153e+000 1.195980e+002
5535177000 -8.210512e+000 1.747000e+002 -8.804817e-001 -1.235657e+002 -8.845139e-001 -1.236350e+002 -8.039253e+000 1.179721e+002
5602675500 -8.243773e+000 1.650727e+002 -8.905719e-001 -1.293570e+002 -8.864223e-001 -1.293559e+002 -8.001809e+000 1.163427e+002
5670174000 -8.295369e+000 1.552212e+002 -8.891837e-001 -1.350550e+002 -8.977501e-001 -1.350252e+002 -7.994488e+000 1.145048e+002
5737672500 -8.341903e+000 1.455469e+002 -8.913878e-001 -1.407952e+002 -8.930727e-001 -1.407956e+002 -7.999595e+000 1.127272e+002
5805171000 -8.411077e+000 1.358512e+002 -8.869478e-001 -1.465074e+002 -8.918611e-001 -1.465349e+002 -8.026949e+000 1.106925e+002
5872669500 -8.488219e+000 1.261464e+002 -8.874201e-001 -1.522835e+002 -8.874887e-001 -1.522644e+002 -8.058506e+000 1.089041e+002
5940168000 -8.584355e+000 1.162726e+002 -8.794402e-001 -1.580171e+002 -8.809650e-001 -1.580502e+002 -8.127190e+000 1.069694e+002
6007666500 -8.606554e+000 1.065276e+002 -8.798596e-001 -1.637144e+002 -8.736036e-001 -1.637381e+002 -8.186738e+000 1.049178e+002
6075165000 -8.730167e+000 9.691608e+001 -8.562916e-001 -1.695122e+002 -8.574733e-001 -1.694926e+002 -8.289940e+000 1.028966e+002
6142663500 -8.798090e+000 8.695103e+001 -8.444366e-001 -1.752669e+002 -8.429208e-001 -1.752509e+002 -8.420803e+000 1.009483e+002
6210162000 -8.885260e+000 7.703574e+001 -8.221198e-001 1.789354e+002 -8.293703e-001 1.789386e+002 -8.518746e+000 9.922324e+001
6277660500 -8.945514e+000 6.729179e+001 -8.054157e-001 1.731656e+002 -8.071396e-001 1.731379e+002 -8.700206e+000 9.711694e+001
6345159000 -9.037898e+000 5.738731e+001 -7.837796e-001 1.673666e+002 -7.808360e-001 1.673365e+002 -8.846059e+000 9.535417e+001
6412657500 -9.131194e+000 4.752994e+001 -7.665301e-001 1.614848e+002 -7.658681e-001 1.614946e+002 -9.005895e+000 9.347053e+001
6480156000 -9.217423e+000 3.789078e+001 -7.383958e-001 1.556620e+002 -7.405156e-001 1.556198e+002 -9.184000e+000 9.149345e+001
6547654500 -9.328016e+000 2.791774e+001 -7.161484e-001 1.497418e+002 -7.153315e-001 1.497544e+002 -9.398435e+000 8.992298e+001
6615153000 -9.401866e+000 1.820232e+001 -6.996612e-001 1.438611e+002 -6.959075e-001 1.438507e+002 -9.571115e+000 8.813908e+001
6682651500 -9.553216e+000 8.537928e+000 -6.779857e-001 1.379553e+002 -6.809201e-001 1.379312e+002 -9.759317e+000 8.662168e+001
6750150000 -9.651114e+000 -1.187799e+000 -6.594310e-001 1.320567e+002 -6.607665e-001 1.320146e+002 -9.970515e+000 8.500230e+001
6817648500 -9.824934e+000 -1.099564e+001 -6.425924e-001 1.260653e+002 -6.440582e-001 1.260787e+002 -1.014203e+001 8.354817e+001
6885147000 -9.980974e+000 -2.079556e+001 -6.281117e-001 1.201254e+002 -6.250461e-001 1.200962e+002 -1.031246e+001 8.201113e+001
6952645500 -1.014901e+001 -3.066160e+001 -6.153582e-001 1.141096e+002 -6.143598e-001 1.141386e+002 -1.047711e+001 8.070251e+001
7020144000 -1.029579e+001 -4.072823e+001 -6.031856e-001 1.081458e+002 -6.056340e-001 1.081081e+002 -1.062844e+001 7.919384e+001
7087642500 -1.046394e+001 -5.066404e+001 -5.941843e-001 1.021373e+002 -5.981085e-001 1.021457e+002 -1.070478e+001 7.778046e+001
7155141000 -1.062764e+001 -6.115344e+001 -5.924353e-001 9.614501e+001 -5.882190e-001 9.613667e+001 -1.081053e+001 7.651600e+001
7222639500 -1.075468e+001 -7.126868e+001 -5.903420e-001 9.016414e+001 -5.927961e-001 9.014365e+001 -1.084954e+001 7.472594e+001
7290138000 -1.090785e+001 -8.173029e+001 -5.880173e-001 8.421783e+001 -5.879078e-001 8.417484e+001 -1.087525e+001 7.314187e+001
7357636500 -1.099713e+001 -9.204536e+001 -5.886515e-001 7.817768e+001 -5.919657e-001 7.820591e+001 -1.092748e+001 7.123062e+001
7425135000 -1.106580e+001 -1.026745e+002 -5.991718e-001 7.224755e+001 -5.968097e-001 7.223032e+001 -1.088938e+001 6.897270e+001
7492633500 -1.111845e+001 -1.129852e+002 -6.061342e-001 6.632603e+001 -6.012802e-001 6.630848e+001 -1.084549e+001 6.697986e+001
7560132000 -1.114725e+001 -1.232518e+002 -6.101803e-001 6.040005e+001 -6.081662e-001 6.040559e+001 -1.080041e+001 6.431738e+001
7627630500 -1.109236e+001 -1.333542e+002 -6.158541e-001 5.447659e+001 -6.140646e-001 5.446769e+001 -1.078811e+001 6.159877e+001
7695129000 -1.106688e+001 -1.431428e+002 -6.189636e-001 4.856648e+001 -6.248129e-001 4.856501e+001 -1.075112e+001 5.874557e+001
7762627500 -1.100681e+001 -1.531795e+002 -6.339924e-001 4.272068e+001 -6.238949e-001 4.267844e+001 -1.072248e+001 5.579991e+001
7830126000 -1.096415e+001 -1.623319e+002 -6.296723e-001 3.684599e+001 -6.316029e-001 3.683432e+001 -1.074376e+001 5.251337e+001
7897624500 -1.091323e+001 -1.715095e+002 -6.279574e-001 3.100825e+001 -6.293671e-001 3.104332e+001 -1.073921e+001 4.895574e+001
7965123000 -1.088498e+001 1.795024e+002 -6.262254e-001 2.517167e+001 -6.237952e-001 2.519344e+001 -1.079593e+001 4.567302e+001
8032621500 -1.087890e+001 1.709594e+002 -6.205808e-001 1.931720e+001 -6.184298e-001 1.932702e+001 -1.088464e+001 4.196105e+001
8100120000 -1.090445e+001 1.626752e+002 -6.097938e-001 1.350798e+001 -6.078156e-001 1.351343e+001 -1.096169e+001 3.829202e+001
8167618500 -1.098217e+001 1.544200e+002 -6.015539e-001 7.631230e+000 -5.931845e-001 7.657806e+000 -1.111681e+001 3.477317e+001
8235117000 -1.112761e+001 1.463936e+002 -5.779114e-001 1.806777e+000 -5.865455e-001 1.822788e+000 -1.130912e+001 3.109737e+001
8302615500 -1.135383e+001 1.382728e+002 -5.588406e-001 -4.078654e+000 -5.553618e-001 -4.079066e+000 -1.158005e+001 2.764405e+001
8370114000 -1.159883e+001 1.302383e+002 -5.371422e-001 -9.978054e+000 -5.332698e-001 -9.941573e+000 -1.187130e+001 2.431860e+001
8437612500 -1.200645e+001 1.220456e+002 -5.080456e-001 -1.593295e+001 -5.122418e-001 -1.584051e+001 -1.221417e+001 2.133289e+001
8505111000 -1.238813e+001 1.136681e+002 -4.890326e-001 -2.182476e+001 -4.837392e-001 -2.183656e+001 -1.260717e+001 1.821976e+001
8572609500 -1.291551e+001 1.051552e+002 -4.674399e-001 -2.782827e+001 -4.588701e-001 -2.780969e+001 -1.308100e+001 1.584366e+001
8640108000 -1.355338e+001 9.563936e+001 -4.366381e-001 -3.378833e+001 -4.435541e-001 -3.379149e+001 -1.360807e+001 1.375773e+001
8707606500 -1.427346e+001 8.661247e+001 -4.229077e-001 -3.985257e+001 -4.183728e-001 -3.982386e+001 -1.417055e+001 1.196400e+001
8775105000 -1.515902e+001 7.587206e+001 -4.024874e-001 -4.588435e+001 -3.992643e-001 -4.584652e+001 -1.479930e+001 1.112834e+001
8842603500 -1.588864e+001 6.480471e+001 -3.877320e-001 -5.190120e+001 -3.880828e-001 -5.191080e+001 -1.539916e+001 1.094416e+001
8910102000 -1.696120e+001 5.264664e+001 -3.730454e-001 -5.798001e+001 -3.714732e-001 -5.794812e+001 -1.604694e+001 1.114392e+001
8977600500 -1.776028e+001 3.796814e+001 -3.706356e-001 -6.397746e+001 -3.641980e-001 -6.401775e+001 -1.660003e+001 1.240888e+001
9045099000 -1.857785e+001 2.341340e+001 -3.597727e-001 -7.003257e+001 -3.627232e-001 -7.005521e+001 -1.709756e+001 1.377802e+001
9112597500 -1.931506e+001 6.785698e+000 -3.590655e-001 -7.604888e+001 -3.555325e-001 -7.607991e+001 -1.759547e+001 1.508023e+001
9180096000 -1.967156e+001 -1.020612e+001 -3.525447e-001 -8.209083e+001 -3.549681e-001 -8.206113e+001 -1.796129e+001 1.702421e+001
9247594500 -1.975390e+001 -2.623223e+001 -3.494701e-001 -8.808647e+001 -3.501528e-001 -8.810767e+001 -1.821691e+001 1.886325e+001
9315093000 -1.975289e+001 -4.111240e+001 -3.490611e-001 -9.416895e+001 -3.544062e-001 -9.416066e+001 -1.845207e+001 2.055888e+001
9382591500 -1.954000e+001 -5.531446e+001 -3.497022e-001 -1.001831e+002 -3.491355e-001 -1.001384e+002 -1.866867e+001 2.209531e+001
9450090000 -1.947101e+001 -6.807039e+001 -3.479671e-001 -1.061702e+002 -3.476613e-001 -1.061732e+002 -1.883189e+001 2.271657e+001
9517588500 -1.932448e+001 -7.871201e+001 -3.487263e-001 -1.121759e+002 -3.530671e-001 -1.122057e+002 -1.907217e+001 2.228269e+001
9585087000 -1.954614e+001 -8.965276e+001 -3.447562e-001 -1.182278e+002 -3.508810e-001 -1.182389e+002 -1.942213e+001 2.026783e+001
9652585500 -1.971522e+001 -9.872735e+001 -3.493632e-001 -1.242558e+002 -3.509249e-001 -1.242009e+002 -1.981934e+001 1.933846e+001
9720084000 -2.018711e+001 -1.074863e+002 -3.507883e-001 -1.302417e+002 -3.460192e-001 -1.302781e+002 -2.066504e+001 1.785694e+001
9787582500 -2.090822e+001 -1.168398e+002 -3.483422e-001 -1.363063e+002 -3.468772e-001 -1.363067e+002 -2.146841e+001 1.574397e+001
9855081000 -2.183338e+001 -1.240595e+002 -3.501386e-001 -1.423614e+002 -3.487048e-001 -1.423975e+002 -2.279053e+001 1.569945e+001
9922579500 -2.338016e+001 -1.318938e+002 -3.502974e-001 -1.484445e+002 -3.508096e-001 -1.484565e+002 -2.457836e+001 1.350021e+001
9990078000 -2.505070e+001 -1.398274e+002 -3.533546e-001 -1.545247e+002 -3.529828e-001 -1.545550e+002 -2.659489e+001 1.390501e+001
10057576500 -2.813145e+001 -1.475732e+002 -3.524786e-001 -1.606666e+002 -3.589297e-001 -1.606442e+002 -3.018217e+001 2.158926e+001
10125075000 -3.318163e+001 -1.612325e+002 -3.638601e-001 -1.667730e+002 -3.622124e-001 -1.668027e+002 -3.520552e+001 4.254543e+001
10192573500 -4.420400e+001 1.543608e+002 -3.780149e-001 -1.729004e+002 -3.777291e-001 -1.729329e+002 -3.542932e+001 9.397594e+001
