#  HZ   S   DB   R     50.00 
! Rohde & Schwarz ZVA24 2Ports - Version 3.70 - 1145.1110k24 SN: 100407
! Date: 2016-10-05 20:15:31
! Measurements: S11 S21 S12 S22 
! 
 1.000000000000000E7    -3.001655837868864E1  -1.016440922064273E1  -2.738978113330687E-1  -1.481147027357991  -4.269628693053946E-1  -2.310891310013663E-1  -3.787411457163931E1   4.379034295216273  
 1.299500000000000E8    -4.212336474769366E1   1.937119942906936E1  -5.737034712750581E-2  -1.842979540450332E1  -2.664701846769647E-3  -1.845608340359810E1  -4.563470209276073E1   4.735126105845843E1  
 2.499000000000000E8    -4.069937753614596E1   7.808132165543218E-2  -5.376875441770011E-2  -3.561067587055086E1  -3.439758816510126E-2  -3.567986011910634E1  -3.938670520552982E1   1.583303156020010E1  
 3.698500000000000E8    -4.078919940009038E1  -3.621020090439018E1  -5.200046339959620E-2  -5.280695073018112E1  -5.575318573721193E-2  -5.265890830128458E1  -3.872522940800202E1   9.175747863420247  
 4.898000000000000E8    -4.013717904249960E1  -7.912217162638206E1  -6.600479670545795E-2  -6.980530463266192E1  -5.365887773222772E-2  -6.974734090899999E1  -3.877652204265267E1   2.220710848144343  
 6.097500000000000E8    -4.198046412232038E1  -1.207004641251473E2  -8.482138686350080E-2  -8.666997784868443E1  -8.384307343803091E-2  -8.663159854224878E1  -4.083661113154680E1  -1.072920451767638E1  
 7.297000000000000E8    -4.266493573713223E1  -1.742385576868660E2  -9.344543855654260E-2  -1.036270367193844E2  -9.984621918118247E-2  -1.036117872633314E2  -4.237441601585660E1  -5.559031613504235  
 8.496500000000000E8    -4.203407608705600E1   1.359778787620018E2  -9.756873990544944E-2  -1.206039431854143E2  -1.045672815072934E-1  -1.204815993330876E2  -4.542218078644730E1   2.261115002632397E1  
 9.696000000000000E8    -3.993678048520301E1   9.779569424304516E1  -1.016918133942575E-1  -1.376272211483674E2  -1.045193533925042E-1  -1.374373363319384E2  -4.347616932795606E1   3.766863386905685E1  
 1.089550000000000E9    -3.858651528019362E1   7.089424746764205E1  -1.093684815660174E-1  -1.546255491102446E2  -1.164741416871465E-1  -1.543193395815424E2  -3.998788426418698E1   5.227026406349476E1  
 1.209500000000000E9    -3.825138921832609E1   4.356929193401212E1  -1.188856535713991E-1  -1.714121479330400E2  -1.201747489761601E-1  -1.713515219949979E2  -3.710832730304495E1   4.922523799584502E1  
 1.329450000000000E9    -3.761951118520282E1   1.883110690980439E1  -1.260148804265077E-1   1.716858677260248E2  -1.261425447707939E-1   1.716945823742067E2  -3.517196207914550E1   4.102613582605407E1  
 1.449400000000000E9    -3.839657702520830E1  -4.876332671046122  -1.262018006855050E-1   1.548355673608793E2  -1.282943144714580E-1   1.547658124486979E2  -3.420801013893000E1   3.670752933420886E1  
 1.569350000000000E9    -3.978358605219430E1  -3.248164543092972E1  -1.301559342366216E-1   1.377465091874368E2  -1.292329246408899E-1   1.379297674271919E2  -3.396891245845495E1   2.446758324518315E1  
 1.689300000000000E9    -4.398889903754601E1  -5.107731976785796E1  -1.284152601406239E-1   1.208009089575117E2  -1.242485897700385E-1   1.210312755537537E2  -3.385774727754566E1   1.604402615584007E1  
 1.809250000000000E9    -5.237651387402951E1  -7.060428443169853E1  -1.278362974937788E-1   1.038748182399826E2  -1.300999757295445E-1   1.041365117870775E2  -3.488006657444083E1   6.481643345091256  
 1.929200000000000E9    -4.998889956218551E1   4.037343821612875E1  -1.342168049813659E-1   8.695909805827519E1  -1.282893060800298E-1   8.713048264442105E1  -3.591844952543549E1  -1.044376058074304  
 2.049150000000000E9    -4.321046834826019E1   1.991598583612018E1  -1.333388651323179E-1   6.990863034913619E1  -1.244886516004407E-1   7.026307490674367E1  -3.878485577346069E1  -6.239191719910302  
 2.169100000000000E9    -4.023001913900767E1  -1.325056988221265E1  -1.294807240807174E-1   5.285093525578160E1  -1.266174621542776E-1   5.311473816257664E1  -4.216088779070102E1  -3.996539892063605  
 2.289050000000000E9    -3.950411808292326E1  -4.205667055428275E1  -1.402291048486635E-1   3.601495072551443E1  -1.370810322583680E-1   3.617055221127763E1  -4.370506885074384E1   2.493457643232834E1  
 2.409000000000000E9    -4.057368796350264E1  -8.958672992684426E1  -1.404274109837297E-1   1.918170256763030E1  -1.284014215958677E-1   1.924171123477999E1  -4.292043406874537E1   5.289424044030841E1  
 2.528950000000000E9    -4.362237045898769E1  -1.331990605155039E2  -1.354754621871461E-1   2.190392584732490  -1.340969139232930E-1   2.372382094401049  -3.914792218629383E1   5.704218808768486E1  
 2.648900000000000E9    -4.382170240889239E1   1.575704380711899E2  -1.324897338113378E-1  -1.483862731306991E1  -1.333445155207986E-1  -1.454734804073305E1  -3.684620817177579E1   5.382701659311717E1  
 2.768850000000000E9    -4.246999909928448E1   1.025707464069435E2  -1.419361099747264E-1  -3.167074809546379E1  -1.469671225916286E-1  -3.145366842482191E1  -3.525164122851807E1   4.377495996770346E1  
 2.888800000000000E9    -4.015357708791785E1   7.087867842415788E1  -1.399028961352413E-1  -4.873044296119821E1  -1.516745011659128E-1  -4.828161565174133E1  -3.480583089833161E1   3.405540417806556E1  
 3.008750000000000E9    -3.880816559462524E1   4.817851802978227E1  -1.366906807129098E-1  -6.570232496384530E1  -1.537813319441027E-1  -6.528221999565218E1  -3.448965855416780E1   2.136569277892973E1  
 3.128700000000000E9    -3.678546172421295E1   2.882209641781894E1  -1.512479295904388E-1  -8.257458387553234E1  -1.570971174431512E-1  -8.236412164982332E1  -3.511282654550777E1   1.151153086497371E1  
 3.248650000000000E9    -3.461395644361809E1   1.055228681930045E1  -1.662494329480089E-1  -9.943310606566722E1  -1.594345749051208E-1  -9.933383907622020E1  -3.609224398751074E1  -4.888736911101328  
 3.368600000000000E9    -3.281273199366453E1  -1.227437412722962E1  -1.549803150964150E-1  -1.165739289260363E2  -1.581231280142096E-1  -1.160484521648066E2  -3.801591187000800E1  -1.603507694714921E1  
 3.488550000000000E9    -3.202014090734797E1  -4.247013721171396E1  -1.554388107258318E-1  -1.333209104084274E2  -1.569964763908204E-1  -1.331801489153937E2  -3.990050652350293E1  -2.875568075720453E1  
 3.608500000000000E9    -3.181081057161019E1  -7.589391897454172E1  -1.494762374837002E-1  -1.501769712526539E2  -1.475720160789046E-1  -1.502846559591425E2  -4.331959766633950E1  -4.076703036731613E1  
 3.728450000000000E9    -3.247854729260211E1  -1.106613702268232E2  -1.491686964500624E-1  -1.673031742345300E2  -1.499787655124038E-1  -1.670968212058121E2  -4.758688464775444E1  -4.160588961653503E1  
 3.848400000000000E9    -3.358560795064142E1  -1.537628499899334E2  -1.387322634833791E-1   1.756243350359125E2  -1.473070702467237E-1   1.759562591292086E2  -5.283701733690784E1  -1.143303117936875E1  
 3.968350000000000E9    -3.467683825935940E1   1.627585826378866E2  -1.504315548476987E-1   1.587642481485579E2  -1.476243194869571E-1   1.591125077334931E2  -4.715787277542840E1   2.038875899168511E1  
 4.088300000000000E9    -3.518718378949688E1   1.136807090849903E2  -1.572132106918555E-1   1.417529222141285E2  -1.660258221741030E-1   1.420019522213238E2  -4.283439666137966E1   1.708331790756351E1  
 4.208250000000000E9    -3.497583389478838E1   7.059514003794479E1  -1.571430812276328E-1   1.248643693681108E2  -1.660299075102596E-1   1.249626269487069E2  -4.081881781047230E1   3.094939658319878  
 4.328200000000000E9    -3.501100539591047E1   3.753551158139042E1  -1.604867613809987E-1   1.077377013560729E2  -1.619057427343221E-1   1.082430553259982E2  -3.936938435962467E1  -1.586996015073603E1  
 4.448150000000000E9    -3.509376171118535E1   1.574431011642588E1  -1.632109370490819E-1   9.072153347043825E1  -1.708686914752369E-1   9.131674504113032E1  -3.840137584157750E1  -3.584245016559707E1  
 4.568100000000000E9    -3.470903630389039E1  -8.994813396822714E-1  -1.596733558433784E-1   7.397707057670807E1  -1.625828015953141E-1   7.417427001676289E1  -3.782665155289096E1  -5.630152551893188E1  
 4.688050000000000E9    -3.366986612446184E1  -1.880430490706004E1  -1.550564473382194E-1   5.707178620101034E1  -1.597638802184480E-1   5.730719534470401E1  -3.702241359680285E1  -7.158056661732076E1  
 4.808000000000000E9    -3.280081006724443E1  -4.362396202397698E1  -1.574653346327444E-1   4.004231820946339E1  -1.614979959663273E-1   4.040197723010594E1  -3.655624112165003E1  -8.745382099943952E1  
 4.927950000000000E9    -3.266047399946541E1  -7.136086237737810E1  -1.567667137771487E-1   2.309922102852129E1  -1.693054499888373E-1   2.342313802981267E1  -3.605589457586488E1  -9.867579834026435E1  
 5.047900000000000E9    -3.360662831450649E1  -1.025053856897781E2  -1.685509401993837E-1   6.152018428555039  -1.714737904012740E-1   6.452436064325438  -3.592308285222896E1  -1.086904890234725E2  
 5.167850000000000E9    -3.625833594083813E1  -1.362549227288374E2  -1.638007372690598E-1  -1.078687165934973E1  -1.727767927740914E-1  -1.048082022880765E1  -3.617206200211158E1  -1.147174121170142E2  
 5.287800000000000E9    -4.243166621809390E1  -1.724756220323473E2  -1.699827909955571E-1  -2.768713258872933E1  -1.722977415850047E-1  -2.736551185751510E1  -3.648216045434822E1  -1.227721194005668E2  
 5.407750000000000E9    -5.865117659335221E1  -1.732706437044691E2  -1.612020313374059E-1  -4.467037557763679E1  -1.741366383649335E-1  -4.428505633789460E1  -3.645175055509922E1  -1.234211860551228E2  
 5.527700000000000E9    -4.270013341179613E1  -5.957985560964940E1  -1.534090265240552E-1  -6.165059450752558E1  -1.533079467524093E-1  -6.129363508295943E1  -3.595394962853062E1  -1.253111669803662E2  
 5.647650000000000E9    -3.935364069058922E1  -9.687209157884149E1  -1.513249548290706E-1  -7.851429492754879E1  -1.581446901679433E-1  -7.813789298464381E1  -3.527844405519881E1  -1.270278415066375E2  
 5.767600000000000E9    -3.760573363200712E1  -1.364768775821417E2  -1.395013417262325E-1  -9.556659400437773E1  -1.642063080162192E-1  -9.527251655334254E1  -3.483685293186507E1  -1.314413794459684E2  
 5.887550000000000E9    -3.808890988737871E1  -1.788020434130200E2  -1.412636464431052E-1  -1.123162368403201E2  -1.583015670374324E-1  -1.121946806408406E2  -3.457470348928636E1  -1.372978260826692E2  
 6.007500000000000E9    -3.899675738550338E1   1.347050824405134E2  -1.511984867630001E-1  -1.294113932173436E2  -1.657994777042507E-1  -1.290279917586122E2  -3.441265133107059E1  -1.472909103619658E2  
 6.127450000000000E9    -4.147073198427911E1   8.403214677269585E1  -1.552512697672525E-1  -1.463656878567970E2  -1.628607306834178E-1  -1.459578014619443E2  -3.544096445600667E1  -1.528278286192136E2  
 6.247400000000000E9    -4.386220686225735E1   3.720827851020069E1  -1.491766149902304E-1  -1.633051556930106E2  -1.566905736332198E-1  -1.629356373078434E2  -3.631996900458007E1  -1.589106045726024E2  
 6.367350000000000E9    -4.764472743474671E1  -2.473188151125132E1  -1.455411186163083E-1   1.797704450978891E2  -1.535411644508920E-1  -1.799523456880832E2  -3.663148664289579E1  -1.565463964568912E2  
 6.487300000000000E9    -4.724008122108025E1  -3.422031356299153E1  -1.460875459452085E-1   1.628200389131164E2  -1.514146603726173E-1   1.630519156346768E2  -3.765086115863151E1  -1.531009961094491E2  
 6.607250000000000E9    -4.625259365686034E1  -3.546376415066621E1  -1.430151622756986E-1   1.457031854063696E2  -1.474584099573183E-1   1.462015476833138E2  -3.743091517261509E1  -1.525809534638601E2  
 6.727200000000000E9    -3.884356019760711E1  -5.809310702527531E1  -1.424430632568619E-1   1.287703019269955E2  -1.476385570722666E-1   1.291687113376506E2  -3.722132455013854E1  -1.462804180928895E2  
 6.847150000000000E9    -3.469135988806366E1  -8.694825380405801E1  -1.457646491762470E-1   1.116843279195794E2  -1.583194478247250E-1   1.122229615441445E2  -3.697898310987871E1  -1.501327107571160E2  
 6.967100000000000E9    -3.156971355890173E1  -1.256809597211062E2  -1.516797170803970E-1   9.472444634457008E1  -1.712966613608908E-1   9.526578200408228E1  -3.511694861299615E1  -1.537670640740494E2  
 7.087050000000000E9    -2.980945641148152E1  -1.627492183497807E2  -1.603860637967773E-1   7.767823915865914E1  -1.686375093997224E-1   7.844539639313895E1  -3.440822765910306E1  -1.632773628889633E2  
 7.207000000000000E9    -2.865619095436712E1   1.632957934197715E2  -1.547333579457895E-1   6.060648851851755E1  -1.777885505437665E-1   6.148509312157211E1  -3.403970839696209E1  -1.772123945118210E2  
 7.326950000000000E9    -2.892846728642625E1   1.305618075978615E2  -1.602567354595879E-1   4.372176730218406E1  -1.584953613683746E-1   4.448909953420198E1  -3.377911062501035E1   1.654765733901876E2  
 7.446900000000000E9    -2.981549080569471E1   1.016195606421406E2  -1.589444017815441E-1   2.680716887313259E1  -1.512957309366243E-1   2.751675743092957E1  -3.408111732209959E1   1.383159356771314E2  
 7.566850000000000E9    -3.152948658182119E1   8.616715676403018E1  -1.560521252830754E-1   9.963956073879263  -1.651959237435136E-1   1.058002880891415E1  -3.319545120626967E1   1.157015893001895E2  
 7.686800000000000E9    -3.301486662556118E1   7.594357545112109E1  -1.604960295218904E-1  -6.975305070769398  -1.720964571129417E-1  -6.456257268175778  -3.335660752698859E1   9.112121598880538E1  
 7.806750000000000E9    -3.229336170567596E1   7.210058099525072E1  -1.647258551235490E-1  -2.387145802190221E1  -1.762999988387107E-1  -2.331447817481764E1  -3.279936436204589E1   6.496145973460362E1  
 7.926700000000000E9    -3.131005055194033E1   5.782629662281622E1  -1.673867964616231E-1  -4.078019857291903E1  -1.730570470375549E-1  -4.056438851981953E1  -3.248927160695862E1   4.095278266646150E1  
 8.046650000000000E9    -3.070077640821326E1   3.425358649337116E1  -1.707936913189526E-1  -5.763736208636039E1  -1.728947851610230E-1  -5.733498565557250E1  -3.190219293653839E1   1.848310040491462E1  
 8.166600000000000E9    -3.173286350660823E1   7.187251637396880  -1.618649575470416E-1  -7.450395752848192E1  -1.688638418042376E-1  -7.435096075153061E1  -3.192552807209091E1  -4.057120949664586  
 8.286550000000000E9    -3.494939039965072E1  -2.579144814813381E1  -1.623551769303097E-1  -9.152924091012153E1  -1.716130384997955E-1  -9.131062170248275E1  -3.213461356061170E1  -2.484378405281048E1  
 8.406500000000000E9    -4.423887326826911E1  -6.230515887738714E1  -1.593179166196746E-1  -1.083858299373681E2  -1.694149756264733E-1  -1.083121628700027E2  -3.318764300918686E1  -4.532930847495486E1  
 8.526450000000000E9    -4.521398833862909E1   1.001000764504953E2  -1.637430236705762E-1  -1.255129621098021E2  -1.630513746998672E-1  -1.251815956052819E2  -3.550935564299780E1  -6.466079216369042E1  
 8.646400000000000E9    -3.769975811367564E1   7.372003659035079E1  -1.646199422847442E-1  -1.426027607260249E2  -1.667934329326125E-1  -1.420156968349777E2  -4.096244493579372E1  -9.395512065196023E1  
 8.766350000000000E9    -3.547339261825930E1   4.279741027758688E1  -1.754508733805072E-1  -1.596815166456746E2  -1.798535408492362E-1  -1.588125697477373E2  -4.932610638854217E1  -1.738067561327449E2  
 8.886300000000000E9    -3.784934633244138E1   2.974120631101390E1  -1.732932064337354E-1  -1.766585248398440E2  -1.841458867665615E-1  -1.756942703143025E2  -3.925766854837838E1   9.099279426752386E1  
 9.006250000000000E9    -4.194100057953598E1   5.599605705737027E1  -1.648544106791881E-1   1.664480079415838E2  -1.708158168232684E-1   1.673715194172298E2  -3.317370198072112E1   6.841178956094572E1  
 9.126200000000000E9    -3.397997869570099E1   8.922153209154043E1  -1.589419587052989E-1   1.496244167184034E2  -1.539634134801860E-1   1.501683271654532E2  -2.981541240638667E1   4.887262905632526E1  
 9.246150000000000E9    -2.871573441531861E1   7.339301420931380E1  -1.505657802500554E-1   1.327911885545050E2  -1.353286165346830E-1   1.330408628302409E2  -2.742439683825033E1   3.234757024638564E1  
 9.366100000000000E9    -2.569124359515048E1   4.577027578953109E1  -1.521341759763341E-1   1.159207552711487E2  -1.494846040184084E-1   1.158829653239216E2  -2.585895256106374E1   1.553852379331321E1  
 9.486050000000000E9    -2.462477300702574E1   2.113648124755129E1  -1.586403548469696E-1   9.865356682513570E1  -1.828406067332259E-1   9.910262310665787E1  -2.469499163681560E1  -4.107684536366545E-1  
 9.606000000000000E9    -2.459328946986949E1   5.230340851364490E-1  -1.681884479076300E-1   8.169243514059849E1  -1.899126611364602E-1   8.227709372272354E1  -2.419915179332484E1  -1.762316169038598E1  
 9.725950000000000E9    -2.518259051149229E1  -1.649210676124165E1  -1.788375722590433E-1   6.477305051838074E1  -1.872095335739450E-1   6.540450347235955E1  -2.408756560387500E1  -3.487678959778886E1  
 9.845900000000000E9    -2.564846194961843E1  -2.705579692340679E1  -1.818342245838332E-1   4.778829582914969E1  -1.778081159310269E-1   4.841314554267209E1  -2.425449449706278E1  -5.157982655981367E1  
 9.965850000000000E9    -2.558133420308773E1  -3.746889093719935E1  -1.896027223060952E-1   3.082768593988966E1  -1.871430856821243E-1   3.138453946006896E1  -2.507514448864101E1  -6.866123976843758E1  
 1.008580000000000E10   -2.495473350127201E1  -5.321263882509326E1  -1.870170203467163E-1   1.382183896282086E1  -2.053082996947899E-1   1.451167906677437E1  -2.626842715406485E1  -8.383200846746017E1  
 1.020575000000000E10   -2.482762114642485E1  -7.446797896967144E1  -1.839709739243913E-1  -3.166554568526229  -2.062877504088556E-1  -2.259116062198251  -2.836213585964724E1  -9.959473446471498E1  
 1.032570000000000E10   -2.608062399975372E1  -1.039762530244401E2  -1.716843215401596E-1  -1.992708397142751E1  -1.859596268330680E-1  -1.920761758850921E1  -3.116611645119142E1  -1.172553076836778E2  
 1.044565000000000E10   -2.900177337213796E1  -1.415616967065266E2  -1.654163902590017E-1  -3.686025804067474E1  -1.780506714802545E-1  -3.628349119102544E1  -3.588717152565862E1  -1.321255440300926E2  
 1.056560000000000E10   -3.350569840979534E1   1.651826061613465E2  -1.701353603704712E-1  -5.388572779251195E1  -1.686953892141047E-1  -5.325790905632652E1  -5.203473169377298E1  -1.196021012216336E2  
 1.068555000000000E10   -3.356295881486889E1   7.721345587724245E1  -1.609556612263439E-1  -7.086400493626451E1  -1.821026244207137E-1  -7.033223066747389E1  -3.910386593916405E1   1.365324962024134E1  
 1.080550000000000E10   -2.995098060286568E1   2.290258641692697E1  -1.704210081920084E-1  -8.785606481379639E1  -1.953642412732935E-1  -8.729369949100374E1  -3.267596642050020E1  -5.862099118868132  
 1.092545000000000E10   -2.787730723728911E1  -9.776141051985601  -1.790780539488775E-1  -1.047199010311349E2  -1.874313202396169E-1  -1.041805242382386E2  -2.892394433528406E1  -2.094032170101650E1  
 1.104540000000000E10   -2.675054022888524E1  -3.120142735804545E1  -1.833261274008645E-1  -1.218031321281248E2  -1.855913922354021E-1  -1.211508052866442E2  -2.677374860562157E1  -3.772706784735657E1  
 1.116535000000000E10   -2.613021672554556E1  -4.331694780054262E1  -1.837376837718758E-1  -1.387800014631349E2  -1.888840327416591E-1  -1.380865691013084E2  -2.550966511046886E1  -5.534237001122117E1  
 1.128530000000000E10   -2.485282329466615E1  -5.455464316090054E1  -1.897636058944932E-1  -1.558525104925545E2  -1.916377350864133E-1  -1.549946920274772E2  -2.453122032708840E1  -7.236098162038218E1  
 1.140525000000000E10   -2.312953787765854E1  -6.948414945506208E1  -1.971633117786588E-1  -1.727168544917866E2  -1.976264562441686E-1  -1.718291261169545E2  -2.393551751800798E1  -8.859851977522663E1  
 1.152520000000000E10   -2.191648697750023E1  -8.960209193523774E1  -2.051039785341853E-1   1.702904147743217E2  -1.851814977367238E-1   1.712448104320203E2  -2.360215170534853E1  -1.044513005347643E2  
