!Agilent Technologies,N5230C,MY48100320,A.08.04.10
!Agilent N5230C: A.08.04.10
!Date: Friday, July 29, 2016 03:07:01
!Correction: S11(Full 2 Port(1,2)) 
!S21(Full 2 Port(1,2)) 
!S12(Full 2 Port(1,2)) 
!S22(Full 2 Port(1,2)) 
!S2P File: Measurements: S11, S21, S12, S22:
# Hz S  dB   R 50
1350270000 -1.008998e+001 -1.784776e+002 -8.399574e-001 1.034111e+002 -8.387208e-001 1.034187e+002 -1.017856e+001 -1.714980e+002
1411018650 -9.684190e+000 -1.648955e+002 -8.892752e-001 1.083203e+002 -8.911612e-001 1.083314e+002 -9.800582e+000 -1.754288e+002
1471767300 -9.315206e+000 -1.516644e+002 -9.477481e-001 1.132439e+002 -9.447735e-001 1.132664e+002 -9.398973e+000 -1.786646e+002
1532515950 -8.930087e+000 -1.387577e+002 -1.013234e+000 1.181584e+002 -1.004856e+000 1.181507e+002 -9.008146e+000 1.782770e+002
1593264600 -8.528721e+000 -1.257801e+002 -1.086400e+000 1.230658e+002 -1.079307e+000 1.230611e+002 -8.633854e+000 1.753460e+002
1654013250 -8.207057e+000 -1.133763e+002 -1.152820e+000 1.279313e+002 -1.145023e+000 1.279212e+002 -8.296304e+000 1.726532e+002
1714761900 -7.904986e+000 -1.008605e+002 -1.226849e+000 1.326982e+002 -1.219870e+000 1.327133e+002 -7.966201e+000 1.701251e+002
1775510550 -7.624791e+000 -8.876552e+001 -1.298087e+000 1.374792e+002 -1.287322e+000 1.374809e+002 -7.735100e+000 1.676557e+002
1836259200 -7.421045e+000 -7.624575e+001 -1.360317e+000 1.422314e+002 -1.349478e+000 1.422418e+002 -7.485010e+000 1.650700e+002
1897007850 -7.231670e+000 -6.403184e+001 -1.401103e+000 1.470039e+002 -1.403367e+000 1.469970e+002 -7.323436e+000 1.623823e+002
1957756500 -7.068052e+000 -5.147454e+001 -1.456677e+000 1.517491e+002 -1.446969e+000 1.517467e+002 -7.178415e+000 1.597142e+002
2018505150 -6.924100e+000 -3.877423e+001 -1.495986e+000 1.565493e+002 -1.489983e+000 1.565598e+002 -7.040614e+000 1.568176e+002
2079253800 -6.785197e+000 -2.585834e+001 -1.522898e+000 1.614334e+002 -1.524174e+000 1.614510e+002 -6.921231e+000 1.536701e+002
2140002450 -6.656467e+000 -1.274414e+001 -1.554659e+000 1.662813e+002 -1.558112e+000 1.662838e+002 -6.820723e+000 1.506091e+002
2200751100 -6.501236e+000 6.101276e-001 -1.593335e+000 1.712455e+002 -1.590977e+000 1.712446e+002 -6.711480e+000 1.472146e+002
2261499750 -6.337811e+000 1.405770e+001 -1.636532e+000 1.762891e+002 -1.633054e+000 1.762986e+002 -6.584603e+000 1.437516e+002
2322248400 -6.186004e+000 2.750716e+001 -1.678150e+000 -1.786567e+002 -1.671170e+000 -1.786461e+002 -6.436526e+000 1.403871e+002
2382997050 -5.988964e+000 4.098488e+001 -1.729401e+000 -1.735380e+002 -1.733756e+000 -1.735348e+002 -6.280488e+000 1.370315e+002
2443745700 -5.810975e+000 5.450242e+001 -1.796285e+000 -1.684548e+002 -1.790483e+000 -1.684342e+002 -6.111068e+000 1.336412e+002
2504494350 -5.643030e+000 6.782511e+001 -1.856233e+000 -1.632663e+002 -1.853526e+000 -1.632792e+002 -5.921378e+000 1.304711e+002
2565243000 -5.473797e+000 8.092794e+001 -1.936779e+000 -1.582360e+002 -1.922375e+000 -1.582265e+002 -5.752237e+000 1.274819e+002
2625991650 -5.313025e+000 9.393311e+001 -2.001491e+000 -1.531898e+002 -2.007951e+000 -1.531761e+002 -5.589263e+000 1.245477e+002
2686740300 -5.187790e+000 1.069076e+002 -2.075926e+000 -1.481287e+002 -2.076334e+000 -1.481301e+002 -5.426794e+000 1.216803e+002
2747488950 -5.079853e+000 1.195983e+002 -2.146334e+000 -1.431428e+002 -2.147679e+000 -1.431344e+002 -5.301633e+000 1.190727e+002
2808237600 -4.992625e+000 1.322396e+002 -2.213330e+000 -1.382053e+002 -2.215389e+000 -1.382056e+002 -5.208526e+000 1.164839e+002
2868986250 -4.917023e+000 1.449498e+002 -2.278985e+000 -1.332343e+002 -2.279947e+000 -1.332198e+002 -5.116800e+000 1.138813e+002
2929734900 -4.861301e+000 1.576534e+002 -2.301850e+000 -1.283326e+002 -2.303402e+000 -1.283199e+002 -5.037882e+000 1.113611e+002
2990483550 -4.822124e+000 1.703935e+002 -2.353779e+000 -1.233312e+002 -2.353973e+000 -1.233338e+002 -5.013136e+000 1.087859e+002
3051232200 -4.764473e+000 -1.766431e+002 -2.385779e+000 -1.183475e+002 -2.377233e+000 -1.183547e+002 -4.969216e+000 1.060995e+002
3111980850 -4.715022e+000 -1.635109e+002 -2.397981e+000 -1.132668e+002 -2.398065e+000 -1.132915e+002 -4.939711e+000 1.034169e+002
3172729500 -4.657873e+000 -1.502754e+002 -2.407150e+000 -1.081642e+002 -2.409728e+000 -1.081659e+002 -4.914385e+000 1.006820e+002
3233478150 -4.587917e+000 -1.368489e+002 -2.432912e+000 -1.029862e+002 -2.408635e+000 -1.030060e+002 -4.887861e+000 9.785693e+001
3294226800 -4.523929e+000 -1.233206e+002 -2.461455e+000 -9.771510e+001 -2.450961e+000 -9.770065e+001 -4.843302e+000 9.486006e+001
3354975450 -4.441175e+000 -1.097725e+002 -2.475166e+000 -9.241695e+001 -2.475418e+000 -9.243143e+001 -4.797226e+000 9.201718e+001
3415724100 -4.362179e+000 -9.636790e+001 -2.498206e+000 -8.713676e+001 -2.509286e+000 -8.712577e+001 -4.758687e+000 8.912181e+001
3476472750 -4.297187e+000 -8.292860e+001 -2.551529e+000 -8.179804e+001 -2.550427e+000 -8.182132e+001 -4.691526e+000 8.625522e+001
3537221400 -4.227316e+000 -6.967479e+001 -2.587018e+000 -7.644654e+001 -2.588459e+000 -7.643296e+001 -4.620512e+000 8.344499e+001
3597970050 -4.181880e+000 -5.668571e+001 -2.619857e+000 -7.128278e+001 -2.624781e+000 -7.129391e+001 -4.552934e+000 8.096722e+001
3658718700 -4.135262e+000 -4.383579e+001 -2.672915e+000 -6.602714e+001 -2.670551e+000 -6.601639e+001 -4.490591e+000 7.836857e+001
3719467350 -4.109548e+000 -3.084673e+001 -2.712878e+000 -6.088129e+001 -2.721097e+000 -6.088862e+001 -4.440781e+000 7.578947e+001
3780216000 -4.104633e+000 -1.801634e+001 -2.744807e+000 -5.575255e+001 -2.746787e+000 -5.575805e+001 -4.388880e+000 7.336291e+001
3840964650 -4.107061e+000 -5.368546e+000 -2.790446e+000 -5.067527e+001 -2.785600e+000 -5.069538e+001 -4.351709e+000 7.100808e+001
3901713300 -4.108891e+000 7.615063e+000 -2.815283e+000 -4.561942e+001 -2.798656e+000 -4.561000e+001 -4.329247e+000 6.837082e+001
3962461950 -4.127734e+000 2.057630e+001 -2.816298e+000 -4.057538e+001 -2.819142e+000 -4.058381e+001 -4.293967e+000 6.595791e+001
4023210600 -4.113991e+000 3.363727e+001 -2.828909e+000 -3.546024e+001 -2.833972e+000 -3.546677e+001 -4.320566e+000 6.336463e+001
4083959250 -4.113657e+000 4.681905e+001 -2.823642e+000 -3.040415e+001 -2.832567e+000 -3.041677e+001 -4.297971e+000 6.064740e+001
4144707900 -4.087151e+000 6.034862e+001 -2.840004e+000 -2.518089e+001 -2.839983e+000 -2.517866e+001 -4.288751e+000 5.778054e+001
4205456550 -4.063594e+000 7.385504e+001 -2.832519e+000 -2.001853e+001 -2.848383e+000 -2.002344e+001 -4.269655e+000 5.496090e+001
4266205200 -4.022713e+000 8.741743e+001 -2.821795e+000 -1.472328e+001 -2.817965e+000 -1.471490e+001 -4.287900e+000 5.202208e+001
4326953850 -3.958567e+000 1.010892e+002 -2.844519e+000 -9.422649e+000 -2.852331e+000 -9.423012e+000 -4.239832e+000 4.899174e+001
4387702500 -3.923239e+000 1.148455e+002 -2.863139e+000 -4.073901e+000 -2.850816e+000 -4.062560e+000 -4.204413e+000 4.597840e+001
4448451150 -3.867023e+000 1.282243e+002 -2.859765e+000 1.238968e+000 -2.878739e+000 1.253210e+000 -4.149652e+000 4.304294e+001
4509199800 -3.810483e+000 1.416651e+002 -2.918109e+000 6.486211e+000 -2.909933e+000 6.487279e+000 -4.098355e+000 4.003562e+001
4569948450 -3.792150e+000 1.548211e+002 -2.959392e+000 1.167524e+001 -2.943039e+000 1.167819e+001 -4.023610e+000 3.720837e+001
4630697100 -3.753168e+000 1.679495e+002 -2.982907e+000 1.689568e+001 -2.988167e+000 1.688341e+001 -3.962514e+000 3.439889e+001
4691445750 -3.706225e+000 -1.789211e+002 -3.048316e+000 2.201734e+001 -3.050860e+000 2.201167e+001 -3.892249e+000 3.162183e+001
4752194400 -3.686338e+000 -1.659655e+002 -3.060224e+000 2.712781e+001 -3.069790e+000 2.711508e+001 -3.830047e+000 2.881039e+001
4812943050 -3.629593e+000 -1.529267e+002 -3.115999e+000 3.219041e+001 -3.115617e+000 3.220500e+001 -3.781078e+000 2.603829e+001
4873691700 -3.639411e+000 -1.398300e+002 -3.176162e+000 3.720944e+001 -3.163255e+000 3.714318e+001 -3.735192e+000 2.336573e+001
4934440350 -3.624520e+000 -1.269071e+002 -3.200827e+000 4.230503e+001 -3.200898e+000 4.229821e+001 -3.684575e+000 2.064744e+001
4995189000 -3.584809e+000 -1.136819e+002 -3.221195e+000 4.733724e+001 -3.216509e+000 4.730707e+001 -3.649339e+000 1.780916e+001
5055937650 -3.556057e+000 -1.003785e+002 -3.248081e+000 5.238585e+001 -3.229776e+000 5.238239e+001 -3.580345e+000 1.507795e+001
5116686300 -3.509289e+000 -8.716681e+001 -3.261984e+000 5.756978e+001 -3.255354e+000 5.755665e+001 -3.577938e+000 1.220774e+001
5177434950 -3.428866e+000 -7.360012e+001 -3.286073e+000 6.265005e+001 -3.283608e+000 6.266326e+001 -3.538161e+000 9.186235e+000
5238183600 -3.382774e+000 -6.018344e+001 -3.305254e+000 6.780493e+001 -3.312379e+000 6.778451e+001 -3.472715e+000 6.387055e+000
5298932250 -3.297839e+000 -4.697357e+001 -3.347179e+000 7.311270e+001 -3.352804e+000 7.311912e+001 -3.469146e+000 3.458349e+000
5359680900 -3.236159e+000 -3.366697e+001 -3.374491e+000 7.816574e+001 -3.359784e+000 7.817383e+001 -3.394599e+000 5.198632e-001
5420429550 -3.160494e+000 -2.041868e+001 -3.430350e+000 8.355782e+001 -3.417176e+000 8.356249e+001 -3.354804e+000 -2.201422e+000
5481178200 -3.103656e+000 -7.584868e+000 -3.472836e+000 8.869393e+001 -3.479509e+000 8.868220e+001 -3.324563e+000 -4.849540e+000
5541926850 -3.027608e+000 5.626016e+000 -3.515160e+000 9.388956e+001 -3.505617e+000 9.390182e+001 -3.262268e+000 -7.724534e+000
5602675500 -3.000245e+000 1.834637e+001 -3.564029e+000 9.908862e+001 -3.556714e+000 9.906517e+001 -3.207222e+000 -1.016918e+001
5663424150 -2.960781e+000 3.116553e+001 -3.600418e+000 1.041428e+002 -3.588077e+000 1.041587e+002 -3.185991e+000 -1.287198e+001
5724172800 -2.985547e+000 4.384980e+001 -3.637983e+000 1.093507e+002 -3.636286e+000 1.093277e+002 -3.137190e+000 -1.524602e+001
5784921450 -2.958827e+000 5.666246e+001 -3.663563e+000 1.144135e+002 -3.662366e+000 1.144369e+002 -3.158078e+000 -1.777239e+001
5845670100 -3.001376e+000 6.939325e+001 -3.676640e+000 1.194988e+002 -3.666763e+000 1.194476e+002 -3.147331e+000 -2.026995e+001
5906418750 -3.004271e+000 8.235108e+001 -3.666971e+000 1.244652e+002 -3.661144e+000 1.244968e+002 -3.146180e+000 -2.273567e+001
5967167400 -3.030141e+000 9.540327e+001 -3.670190e+000 1.297925e+002 -3.680923e+000 1.297395e+002 -3.177027e+000 -2.517491e+001
6027916050 -3.028332e+000 1.086680e+002 -3.652788e+000 1.348689e+002 -3.646630e+000 1.349053e+002 -3.211926e+000 -2.773245e+001
6088664700 -3.044306e+000 1.221623e+002 -3.623050e+000 1.402518e+002 -3.629628e+000 1.401814e+002 -3.219331e+000 -3.025648e+001
6149413350 -3.005370e+000 1.357353e+002 -3.607834e+000 1.454545e+002 -3.599313e+000 1.454763e+002 -3.278205e+000 -3.286027e+001
6210162000 -2.996556e+000 1.494354e+002 -3.580128e+000 1.509239e+002 -3.574849e+000 1.508811e+002 -3.302330e+000 -3.563811e+001
6270910650 -2.954725e+000 1.633561e+002 -3.543393e+000 1.563512e+002 -3.544454e+000 1.563777e+002 -3.315234e+000 -3.822961e+001
6331659300 -2.907352e+000 1.772281e+002 -3.537351e+000 1.619002e+002 -3.536742e+000 1.618691e+002 -3.359496e+000 -4.102538e+001
6392407950 -2.875031e+000 -1.691356e+002 -3.523559e+000 1.673309e+002 -3.520151e+000 1.673544e+002 -3.378164e+000 -4.373520e+001
6453156600 -2.836487e+000 -1.554175e+002 -3.521981e+000 1.729569e+002 -3.519759e+000 1.729309e+002 -3.376842e+000 -4.651067e+001
6513905250 -2.819639e+000 -1.419190e+002 -3.533391e+000 1.782105e+002 -3.531769e+000 1.782085e+002 -3.396737e+000 -4.914710e+001
6574653900 -2.797111e+000 -1.285641e+002 -3.522536e+000 -1.761906e+002 -3.522397e+000 -1.762338e+002 -3.412320e+000 -5.191939e+001
6635402550 -2.805152e+000 -1.152656e+002 -3.538271e+000 -1.709820e+002 -3.536506e+000 -1.709621e+002 -3.410856e+000 -5.456708e+001
6696151200 -2.818654e+000 -1.021632e+002 -3.528038e+000 -1.656817e+002 -3.530687e+000 -1.657359e+002 -3.427401e+000 -5.709417e+001
6756899850 -2.843552e+000 -8.906734e+001 -3.533726e+000 -1.604184e+002 -3.531517e+000 -1.603841e+002 -3.456646e+000 -5.966583e+001
6817648500 -2.889804e+000 -7.582722e+001 -3.525407e+000 -1.551730e+002 -3.521246e+000 -1.552270e+002 -3.476569e+000 -6.237217e+001
6878397150 -2.943638e+000 -6.269110e+001 -3.502272e+000 -1.500350e+002 -3.501544e+000 -1.500246e+002 -3.496418e+000 -6.477483e+001
6939145800 -2.982842e+000 -4.941004e+001 -3.475286e+000 -1.447535e+002 -3.470736e+000 -1.447965e+002 -3.567488e+000 -6.736788e+001
6999894450 -3.048916e+000 -3.596562e+001 -3.436193e+000 -1.395509e+002 -3.438356e+000 -1.395232e+002 -3.610192e+000 -7.006849e+001
7060643100 -3.081464e+000 -2.236159e+001 -3.389592e+000 -1.342034e+002 -3.387642e+000 -1.342429e+002 -3.664725e+000 -7.270276e+001
7121391750 -3.120400e+000 -8.627385e+000 -3.359705e+000 -1.289675e+002 -3.358162e+000 -1.289606e+002 -3.726728e+000 -7.547376e+001
7182140400 -3.148313e+000 5.114927e+000 -3.309918e+000 -1.235947e+002 -3.304182e+000 -1.236284e+002 -3.778869e+000 -7.835744e+001
7242889050 -3.154160e+000 1.898842e+001 -3.291893e+000 -1.182222e+002 -3.288781e+000 -1.182022e+002 -3.805097e+000 -8.116369e+001
7303637700 -3.146139e+000 3.288476e+001 -3.272981e+000 -1.128176e+002 -3.272135e+000 -1.128551e+002 -3.844051e+000 -8.404700e+001
7364386350 -3.162339e+000 4.672512e+001 -3.267574e+000 -1.073736e+002 -3.258711e+000 -1.073643e+002 -3.833812e+000 -8.698306e+001
7425135000 -3.133862e+000 6.037957e+001 -3.273843e+000 -1.020046e+002 -3.275251e+000 -1.020580e+002 -3.857708e+000 -8.969146e+001
7485883650 -3.132124e+000 7.399895e+001 -3.284841e+000 -9.671226e+001 -3.280509e+000 -9.670842e+001 -3.842629e+000 -9.273013e+001
7546632300 -3.154220e+000 8.726404e+001 -3.289073e+000 -9.146119e+001 -3.291513e+000 -9.151543e+001 -3.822110e+000 -9.534745e+001
7607380950 -3.115421e+000 1.005497e+002 -3.320045e+000 -8.635403e+001 -3.309611e+000 -8.631679e+001 -3.857254e+000 -9.805087e+001
7668129600 -3.175165e+000 1.133172e+002 -3.322372e+000 -8.133247e+001 -3.325582e+000 -8.138741e+001 -3.829484e+000 -1.007462e+002
7728878250 -3.185303e+000 1.260209e+002 -3.320727e+000 -7.623407e+001 -3.312200e+000 -7.620035e+001 -3.820550e+000 -1.033021e+002
7789626900 -3.198635e+000 1.387477e+002 -3.346831e+000 -7.146056e+001 -3.344378e+000 -7.151048e+001 -3.853859e+000 -1.056494e+002
7850375550 -3.271994e+000 1.513431e+002 -3.313409e+000 -6.651437e+001 -3.307563e+000 -6.648266e+001 -3.858722e+000 -1.084269e+002
7911124200 -3.310933e+000 1.638631e+002 -3.311219e+000 -6.156949e+001 -3.307784e+000 -6.161182e+001 -3.865611e+000 -1.107266e+002
7971872850 -3.319051e+000 1.768227e+002 -3.289488e+000 -5.686612e+001 -3.284842e+000 -5.680980e+001 -3.935902e+000 -1.132281e+002
8032621500 -3.430281e+000 -1.704666e+002 -3.251374e+000 -5.169784e+001 -3.253634e+000 -5.174294e+001 -3.954268e+000 -1.158378e+002
8093370150 -3.436120e+000 -1.575068e+002 -3.209697e+000 -4.680016e+001 -3.197574e+000 -4.678479e+001 -4.015786e+000 -1.184476e+002
8154118800 -3.482865e+000 -1.441933e+002 -3.191124e+000 -4.189373e+001 -3.196369e+000 -4.195361e+001 -4.053649e+000 -1.209672e+002
8214867450 -3.531704e+000 -1.310897e+002 -3.135601e+000 -3.661204e+001 -3.124108e+000 -3.660696e+001 -4.122084e+000 -1.236941e+002
8275616100 -3.550779e+000 -1.177026e+002 -3.107272e+000 -3.145290e+001 -3.107369e+000 -3.147460e+001 -4.172597e+000 -1.264885e+002
8336364750 -3.566063e+000 -1.043030e+002 -3.077686e+000 -2.642636e+001 -3.068594e+000 -2.641273e+001 -4.210441e+000 -1.291669e+002
8397113400 -3.585157e+000 -9.103379e+001 -3.056916e+000 -2.085529e+001 -3.060651e+000 -2.087668e+001 -4.255530e+000 -1.320058e+002
8457862050 -3.593780e+000 -7.759835e+001 -3.055264e+000 -1.576713e+001 -3.047487e+000 -1.575119e+001 -4.273569e+000 -1.349447e+002
8518610700 -3.623601e+000 -6.434280e+001 -3.051811e+000 -1.050144e+001 -3.050328e+000 -1.055182e+001 -4.276510e+000 -1.376283e+002
8579359350 -3.640190e+000 -5.136945e+001 -3.078884e+000 -5.186101e+000 -3.072415e+000 -5.201495e+000 -4.290026e+000 -1.403993e+002
8640108000 -3.669962e+000 -3.818979e+001 -3.088305e+000 -9.299968e-002 -3.086324e+000 -1.233207e-001 -4.291602e+000 -1.431183e+002
8700856650 -3.723600e+000 -2.534117e+001 -3.107229e+000 5.007410e+000 -3.105821e+000 5.021258e+000 -4.280318e+000 -1.457480e+002
8761605300 -3.761595e+000 -1.262841e+001 -3.136003e+000 1.024782e+001 -3.137079e+000 1.020200e+001 -4.285721e+000 -1.483345e+002
8822353950 -3.812219e+000 3.140627e-001 -3.153344e+000 1.509504e+001 -3.150001e+000 1.511842e+001 -4.275009e+000 -1.509333e+002
8883102600 -3.873967e+000 1.299045e+001 -3.164921e+000 2.020957e+001 -3.172264e+000 2.019784e+001 -4.293535e+000 -1.533339e+002
8943851250 -3.923856e+000 2.555123e+001 -3.195623e+000 2.516013e+001 -3.181173e+000 2.512391e+001 -4.302541e+000 -1.558759e+002
9004599900 -3.974507e+000 3.848988e+001 -3.175040e+000 2.998874e+001 -3.184179e+000 2.999096e+001 -4.338175e+000 -1.581911e+002
9065348550 -4.029634e+000 5.124606e+001 -3.191624e+000 3.515230e+001 -3.183711e+000 3.510115e+001 -4.390388e+000 -1.606678e+002
9126097200 -4.070396e+000 6.405926e+001 -3.170865e+000 4.004104e+001 -3.171421e+000 4.002825e+001 -4.447251e+000 -1.632093e+002
9186845850 -4.134564e+000 7.695609e+001 -3.152957e+000 4.501428e+001 -3.149727e+000 4.503365e+001 -4.483360e+000 -1.655404e+002
9247594500 -4.146134e+000 8.985673e+001 -3.155229e+000 5.015424e+001 -3.151973e+000 5.015058e+001 -4.600832e+000 -1.680758e+002
9308343150 -4.219236e+000 1.027714e+002 -3.126531e+000 5.524768e+001 -3.124611e+000 5.524061e+001 -4.667782e+000 -1.708029e+002
9369091800 -4.257154e+000 1.156637e+002 -3.100907e+000 6.024734e+001 -3.100222e+000 6.024934e+001 -4.757331e+000 -1.730924e+002
9429840450 -4.279305e+000 1.287845e+002 -3.122128e+000 6.558257e+001 -3.117809e+000 6.554823e+001 -4.867395e+000 -1.759278e+002
9490589100 -4.367093e+000 1.418250e+002 -3.080921e+000 7.066578e+001 -3.079651e+000 7.066610e+001 -4.970010e+000 -1.786533e+002
9551337750 -4.424727e+000 1.549505e+002 -3.090176e+000 7.591428e+001 -3.086457e+000 7.590778e+001 -5.042703e+000 1.786942e+002
9612086400 -4.489626e+000 1.680999e+002 -3.110080e+000 8.104625e+001 -3.109965e+000 8.102441e+001 -5.146481e+000 1.760431e+002
9672835050 -4.590765e+000 -1.788324e+002 -3.084254e+000 8.648022e+001 -3.079281e+000 8.647646e+001 -5.243042e+000 1.732093e+002
9733583700 -4.677341e+000 -1.654663e+002 -3.103143e+000 9.143380e+001 -3.104682e+000 9.141264e+001 -5.309946e+000 1.708294e+002
9794332350 -4.767186e+000 -1.520565e+002 -3.104020e+000 9.668708e+001 -3.099099e+000 9.666487e+001 -5.392243e+000 1.680571e+002
9855081000 -4.895278e+000 -1.389372e+002 -3.086953e+000 1.019000e+002 -3.086696e+000 1.018857e+002 -5.439394e+000 1.656434e+002
9915829650 -4.969144e+000 -1.251548e+002 -3.080181e+000 1.069332e+002 -3.075346e+000 1.068960e+002 -5.489433e+000 1.630913e+002
9976578300 -5.101357e+000 -1.116106e+002 -3.077981e+000 1.119030e+002 -3.073886e+000 1.119084e+002 -5.497720e+000 1.603145e+002
10037326950 -5.147534e+000 -9.822549e+001 -3.045535e+000 1.170823e+002 -3.036697e+000 1.170246e+002 -5.585267e+000 1.575189e+002
10098075600 -5.248092e+000 -8.418983e+001 -3.060216e+000 1.218483e+002 -3.055714e+000 1.218569e+002 -5.616921e+000 1.545838e+002
10158824250 -5.318997e+000 -7.087045e+001 -3.048847e+000 1.269538e+002 -3.044438e+000 1.269145e+002 -5.739512e+000 1.517087e+002
10219572900 -5.362365e+000 -5.751961e+001 -3.063131e+000 1.321919e+002 -3.058121e+000 1.321754e+002 -5.857554e+000 1.488123e+002
10280321550 -5.405721e+000 -4.367958e+001 -3.051432e+000 1.372326e+002 -3.048327e+000 1.371919e+002 -5.951979e+000 1.461334e+002
10341070200 -5.503669e+000 -3.036170e+001 -3.030894e+000 1.426917e+002 -3.023082e+000 1.426507e+002 -6.102818e+000 1.433507e+002
10401818850 -5.530763e+000 -1.717633e+001 -2.994052e+000 1.479919e+002 -2.992246e+000 1.479640e+002 -6.211769e+000 1.405595e+002
10462567500 -5.624974e+000 -3.249090e+000 -2.946392e+000 1.533167e+002 -2.939901e+000 1.532871e+002 -6.279453e+000 1.376455e+002
10523316150 -5.699514e+000 9.863904e+000 -2.902941e+000 1.587346e+002 -2.896345e+000 1.587261e+002 -6.402242e+000 1.348242e+002
