!Agilent Technologies,N5230C,MY48100320,A.08.04.10
!Agilent N5230C: A.08.04.10
!Date: Friday, July 29, 2016 03:03:13
!Correction: S11(Full 2 Port(1,2)) 
!S21(Full 2 Port(1,2)) 
!S12(Full 2 Port(1,2)) 
!S22(Full 2 Port(1,2)) 
!S2P File: Measurements: S11, S21, S12, S22:
# Hz S  dB   R 50
1350270000 -1.038924e+001 -1.174615e+002 -3.691586e-001 1.032056e+002 -3.658907e-001 1.032213e+002 -1.056150e+001 1.449008e+002
1411018650 -9.982239e+000 -1.029066e+002 -4.059219e-001 1.079865e+002 -4.056746e-001 1.079927e+002 -1.011474e+001 1.391730e+002
1471767300 -9.658202e+000 -8.839307e+001 -4.458134e-001 1.127369e+002 -4.444658e-001 1.127536e+002 -9.740703e+000 1.343092e+002
1532515950 -9.388208e+000 -7.437819e+001 -4.921890e-001 1.174457e+002 -4.877712e-001 1.174532e+002 -9.424803e+000 1.295787e+002
1593264600 -9.111317e+000 -6.057953e+001 -5.300082e-001 1.221598e+002 -5.183670e-001 1.221636e+002 -9.115223e+000 1.251802e+002
1654013250 -8.949990e+000 -4.664491e+001 -5.500538e-001 1.268583e+002 -5.396966e-001 1.268574e+002 -8.900476e+000 1.207570e+002
1714761900 -8.783802e+000 -3.261029e+001 -5.691816e-001 1.315222e+002 -5.629452e-001 1.315350e+002 -8.736547e+000 1.166807e+002
1775510550 -8.708397e+000 -1.860230e+001 -5.871906e-001 1.362680e+002 -5.786148e-001 1.362734e+002 -8.679853e+000 1.119794e+002
1836259200 -8.607830e+000 -3.861450e+000 -5.920583e-001 1.410272e+002 -5.878600e-001 1.410411e+002 -8.601592e+000 1.074965e+002
1897007850 -8.574302e+000 1.099774e+001 -5.905668e-001 1.459042e+002 -5.848507e-001 1.459053e+002 -8.588618e+000 1.022884e+002
1957756500 -8.503021e+000 2.631633e+001 -5.876623e-001 1.508295e+002 -5.886384e-001 1.508467e+002 -8.611118e+000 9.706331e+001
2018505150 -8.425526e+000 4.160308e+001 -5.895424e-001 1.557944e+002 -5.823118e-001 1.558119e+002 -8.585885e+000 9.152649e+001
2079253800 -8.350532e+000 5.739993e+001 -5.881339e-001 1.608678e+002 -5.937570e-001 1.608900e+002 -8.533755e+000 8.585645e+001
2140002450 -8.225767e+000 7.302614e+001 -5.926744e-001 1.659415e+002 -5.977947e-001 1.659528e+002 -8.517673e+000 7.999161e+001
2200751100 -8.101916e+000 8.841936e+001 -6.036566e-001 1.710296e+002 -6.011887e-001 1.710447e+002 -8.403818e+000 7.424778e+001
2261499750 -8.002913e+000 1.035805e+002 -6.388616e-001 1.761325e+002 -6.318437e-001 1.761460e+002 -8.281656e+000 6.868750e+001
2322248400 -7.909095e+000 1.187945e+002 -6.504071e-001 -1.788186e+002 -6.495116e-001 -1.787978e+002 -8.156671e+000 6.340773e+001
2382997050 -7.832354e+000 1.332262e+002 -6.725848e-001 -1.738201e+002 -6.710737e-001 -1.738106e+002 -8.038315e+000 5.834359e+001
2443745700 -7.780640e+000 1.478395e+002 -7.044377e-001 -1.688855e+002 -6.910158e-001 -1.688546e+002 -7.924219e+000 5.369830e+001
2504494350 -7.766822e+000 1.622217e+002 -7.081767e-001 -1.639333e+002 -7.062165e-001 -1.639504e+002 -7.841739e+000 4.909274e+001
2565243000 -7.796702e+000 1.765479e+002 -7.176040e-001 -1.590545e+002 -7.137035e-001 -1.590331e+002 -7.835558e+000 4.468994e+001
2625991650 -7.836207e+000 -1.691957e+002 -7.049148e-001 -1.542004e+002 -7.115179e-001 -1.541965e+002 -7.845993e+000 4.021794e+001
2686740300 -7.922991e+000 -1.545606e+002 -6.981013e-001 -1.493070e+002 -6.938516e-001 -1.492837e+002 -7.879609e+000 3.592969e+001
2747488950 -8.032807e+000 -1.398803e+002 -6.768125e-001 -1.443651e+002 -6.838860e-001 -1.443589e+002 -8.005652e+000 3.121822e+001
2808237600 -8.169495e+000 -1.246880e+002 -6.544274e-001 -1.394466e+002 -6.456628e-001 -1.394349e+002 -8.161194e+000 2.637499e+001
2868986250 -8.294379e+000 -1.097422e+002 -6.230218e-001 -1.344580e+002 -6.267399e-001 -1.344497e+002 -8.318662e+000 2.132770e+001
2929734900 -8.405268e+000 -9.378300e+001 -5.827548e-001 -1.294738e+002 -5.849833e-001 -1.294693e+002 -8.520702e+000 1.589760e+001
2990483550 -8.547876e+000 -7.824255e+001 -5.765076e-001 -1.244620e+002 -5.679256e-001 -1.244447e+002 -8.712139e+000 9.989485e+000
3051232200 -8.645959e+000 -6.261303e+001 -5.373784e-001 -1.194447e+002 -5.353990e-001 -1.194412e+002 -8.877646e+000 4.302570e+000
3111980850 -8.723979e+000 -4.700093e+001 -5.201203e-001 -1.144338e+002 -5.131857e-001 -1.144350e+002 -9.001773e+000 -1.877797e+000
3172729500 -8.822849e+000 -3.123393e+001 -4.988993e-001 -1.095220e+002 -5.084109e-001 -1.095129e+002 -9.134274e+000 -7.948371e+000
3233478150 -8.898849e+000 -1.631694e+001 -4.919471e-001 -1.045361e+002 -4.678950e-001 -1.045142e+002 -9.193296e+000 -1.405711e+001
3294226800 -9.035846e+000 -1.260744e+000 -4.777372e-001 -9.974205e+001 -4.787685e-001 -9.973951e+001 -9.269780e+000 -1.940021e+001
3354975450 -9.152735e+000 1.342049e+001 -4.639355e-001 -9.492578e+001 -4.664437e-001 -9.493906e+001 -9.362330e+000 -2.512230e+001
3415724100 -9.353584e+000 2.825230e+001 -4.513439e-001 -9.019437e+001 -4.441496e-001 -9.018652e+001 -9.467439e+000 -3.039005e+001
3476472750 -9.570913e+000 4.266614e+001 -4.361425e-001 -8.547536e+001 -4.396221e-001 -8.548698e+001 -9.596711e+000 -3.569469e+001
3537221400 -9.858563e+000 5.775239e+001 -4.059203e-001 -8.085745e+001 -4.098445e-001 -8.083830e+001 -9.782548e+000 -4.058765e+001
3597970050 -1.009168e+001 7.278601e+001 -3.781830e-001 -7.615407e+001 -3.719496e-001 -7.615694e+001 -1.006859e+001 -4.628613e+001
3658718700 -1.050023e+001 8.825251e+001 -3.414411e-001 -7.154030e+001 -3.406849e-001 -7.152934e+001 -1.036507e+001 -5.146157e+001
3719467350 -1.076448e+001 1.035133e+002 -3.087672e-001 -6.685827e+001 -2.987973e-001 -6.684079e+001 -1.069236e+001 -5.708696e+001
3780216000 -1.104932e+001 1.194779e+002 -2.713436e-001 -6.216278e+001 -2.671878e-001 -6.216755e+001 -1.111602e+001 -6.283470e+001
3840964650 -1.140521e+001 1.355063e+002 -2.303087e-001 -5.747110e+001 -2.211022e-001 -5.744860e+001 -1.152176e+001 -6.941216e+001
3901713300 -1.167192e+001 1.513524e+002 -2.137088e-001 -5.277929e+001 -2.043303e-001 -5.276056e+001 -1.191709e+001 -7.546137e+001
3962461950 -1.185553e+001 1.669952e+002 -1.746940e-001 -4.806650e+001 -1.841664e-001 -4.805470e+001 -1.233235e+001 -8.244231e+001
4023210600 -1.221887e+001 -1.771514e+002 -1.683698e-001 -4.336377e+001 -1.629285e-001 -4.334868e+001 -1.265979e+001 -8.922385e+001
4083959250 -1.237938e+001 -1.621301e+002 -1.320146e-001 -3.866059e+001 -1.492814e-001 -3.866032e+001 -1.299174e+001 -9.603968e+001
4144707900 -1.277546e+001 -1.475597e+002 -1.345479e-001 -3.404430e+001 -1.323743e-001 -3.403325e+001 -1.334121e+001 -1.015920e+002
4205456550 -1.301376e+001 -1.332344e+002 -1.000454e-001 -2.941880e+001 -1.133909e-001 -2.941363e+001 -1.362198e+001 -1.079353e+002
4266205200 -1.344767e+001 -1.189726e+002 -1.041264e-001 -2.478886e+001 -9.918327e-002 -2.476368e+001 -1.389898e+001 -1.135641e+002
4326953850 -1.394789e+001 -1.055434e+002 -7.522999e-002 -2.020815e+001 -8.139110e-002 -2.020283e+001 -1.433220e+001 -1.178512e+002
4387702500 -1.453176e+001 -9.219549e+001 -7.025128e-002 -1.563869e+001 -6.294326e-002 -1.561300e+001 -1.486526e+001 -1.221570e+002
4448451150 -1.514988e+001 -7.870230e+001 -3.648226e-002 -1.108360e+001 -4.620210e-002 -1.106525e+001 -1.548451e+001 -1.264770e+002
4509199800 -1.618834e+001 -6.506899e+001 -1.782096e-002 -6.518080e+000 -3.032786e-002 -6.515903e+000 -1.633443e+001 -1.295075e+002
4569948450 -1.694794e+001 -5.198727e+001 -1.834761e-002 -1.938091e+000 -1.800859e-003 -1.924260e+000 -1.741962e+001 -1.336933e+002
4630697100 -1.833106e+001 -3.855691e+001 3.236143e-002 2.621572e+000 1.682702e-002 2.631906e+000 -1.880944e+001 -1.368077e+002
4691445750 -1.967207e+001 -2.543196e+001 4.679883e-002 7.213081e+000 3.793031e-002 7.219104e+000 -2.035469e+001 -1.388907e+002
4752194400 -2.138690e+001 -1.314850e+001 6.529134e-002 1.178919e+001 4.829383e-002 1.179210e+001 -2.252095e+001 -1.414709e+002
4812943050 -2.359091e+001 -1.747207e+000 6.146305e-002 1.634612e+001 7.148142e-002 1.635253e+001 -2.531276e+001 -1.421039e+002
4873691700 -2.649051e+001 5.790742e+000 7.157031e-002 2.092998e+001 8.532062e-002 2.089360e+001 -2.936152e+001 -1.388474e+002
4934440350 -2.974436e+001 1.100037e+001 8.785510e-002 2.546503e+001 7.451977e-002 2.547132e+001 -3.601546e+001 -1.172935e+002
4995189000 -3.406443e+001 -1.082915e+001 7.796710e-002 3.001189e+001 8.610453e-002 3.000893e+001 -3.575421e+001 -4.242900e+001
5055937650 -3.270912e+001 -4.539475e+001 8.162843e-002 3.453509e+001 8.330951e-002 3.454148e+001 -3.052375e+001 -1.791157e+001
5116686300 -2.843233e+001 -6.277186e+001 8.075085e-002 3.907270e+001 8.032491e-002 3.906656e+001 -2.608771e+001 -1.535186e+001
5177434950 -2.467383e+001 -5.543941e+001 7.160403e-002 4.358802e+001 7.553439e-002 4.358654e+001 -2.357740e+001 -1.932193e+001
5238183600 -2.174522e+001 -4.682393e+001 6.331409e-002 4.812542e+001 5.767357e-002 4.811628e+001 -2.108269e+001 -2.154733e+001
5298932250 -1.988923e+001 -3.838071e+001 4.296771e-002 5.261876e+001 4.609311e-002 5.261655e+001 -1.959321e+001 -2.694383e+001
5359680900 -1.789278e+001 -2.531199e+001 4.224868e-002 5.713121e+001 4.089688e-002 5.714086e+001 -1.793796e+001 -3.123263e+001
5420429550 -1.655512e+001 -1.457797e+001 7.305721e-003 6.174439e+001 1.183271e-002 6.175290e+001 -1.674587e+001 -3.623022e+001
5481178200 -1.527969e+001 -3.045074e+000 -8.368612e-003 6.630453e+001 -1.561239e-002 6.631544e+001 -1.545660e+001 -3.962129e+001
5541926850 -1.424323e+001 1.001798e+001 -3.766178e-002 7.087530e+001 -4.120757e-002 7.088573e+001 -1.454721e+001 -4.476801e+001
5602675500 -1.341512e+001 2.147268e+001 -6.785927e-002 7.547083e+001 -6.963328e-002 7.546417e+001 -1.358982e+001 -4.845909e+001
5663424150 -1.275207e+001 3.434245e+001 -1.003584e-001 8.005380e+001 -1.052948e-001 8.006321e+001 -1.299247e+001 -5.228945e+001
5724172800 -1.223779e+001 4.682996e+001 -1.427620e-001 8.466565e+001 -1.509823e-001 8.464127e+001 -1.225912e+001 -5.620453e+001
5784921450 -1.184837e+001 5.961036e+001 -1.776227e-001 8.926151e+001 -1.725733e-001 8.928159e+001 -1.192981e+001 -6.015114e+001
5845670100 -1.148562e+001 7.336375e+001 -1.872390e-001 9.390078e+001 -1.851013e-001 9.388161e+001 -1.145492e+001 -6.385823e+001
5906418750 -1.125538e+001 8.714447e+001 -2.157312e-001 9.842925e+001 -2.062722e-001 9.846682e+001 -1.125172e+001 -6.817097e+001
5967167400 -1.102339e+001 1.011995e+002 -2.378550e-001 1.032064e+002 -2.490527e-001 1.032109e+002 -1.098682e+001 -7.263442e+001
6027916050 -1.079047e+001 1.161960e+002 -2.483914e-001 1.078358e+002 -2.338655e-001 1.078772e+002 -1.086380e+001 -7.722176e+001
6088664700 -1.062713e+001 1.314398e+002 -2.670436e-001 1.126192e+002 -2.592539e-001 1.125934e+002 -1.072765e+001 -8.280161e+001
6149413350 -1.036605e+001 1.467051e+002 -2.760182e-001 1.174591e+002 -2.594493e-001 1.174668e+002 -1.069739e+001 -8.790799e+001
6210162000 -1.008546e+001 1.625247e+002 -2.736284e-001 1.222691e+002 -2.745736e-001 1.222604e+002 -1.052323e+001 -9.433374e+001
6270910650 -9.880043e+000 1.784024e+002 -2.765937e-001 1.271361e+002 -2.773252e-001 1.271736e+002 -1.050607e+001 -1.001513e+002
6331659300 -9.491919e+000 -1.662281e+002 -2.912184e-001 1.322246e+002 -2.904464e-001 1.322228e+002 -1.029028e+001 -1.070137e+002
6392407950 -9.314424e+000 -1.505491e+002 -3.117489e-001 1.370152e+002 -3.114851e-001 1.370407e+002 -1.014634e+001 -1.133247e+002
6453156600 -9.031894e+000 -1.354407e+002 -3.291628e-001 1.420687e+002 -3.299867e-001 1.420601e+002 -9.889193e+000 -1.197045e+002
6513905250 -8.780941e+000 -1.203815e+002 -3.680106e-001 1.469311e+002 -3.710099e-001 1.469424e+002 -9.717846e+000 -1.256111e+002
6574653900 -8.637913e+000 -1.053197e+002 -3.790164e-001 1.518495e+002 -3.823824e-001 1.518315e+002 -9.447720e+000 -1.320592e+002
6635402550 -8.476434e+000 -9.054643e+001 -4.143054e-001 1.566674e+002 -4.179153e-001 1.566955e+002 -9.273905e+000 -1.372038e+002
6696151200 -8.347553e+000 -7.571494e+001 -4.371646e-001 1.615646e+002 -4.400192e-001 1.615519e+002 -9.103076e+000 -1.432119e+002
6756899850 -8.344262e+000 -6.051383e+001 -4.542162e-001 1.663203e+002 -4.549891e-001 1.663397e+002 -8.943577e+000 -1.487424e+002
6817648500 -8.209935e+000 -4.545823e+001 -4.771497e-001 1.712332e+002 -4.785371e-001 1.712067e+002 -8.795038e+000 -1.542838e+002
6878397150 -8.246961e+000 -2.970011e+001 -4.860957e-001 1.759812e+002 -4.942429e-001 1.759761e+002 -8.749704e+000 -1.597039e+002
6939145800 -8.186580e+000 -1.422629e+001 -4.887912e-001 -1.790782e+002 -4.853323e-001 -1.790809e+002 -8.681706e+000 -1.657446e+002
6999894450 -8.166566e+000 1.929375e+000 -4.998374e-001 -1.742729e+002 -5.038574e-001 -1.742348e+002 -8.623648e+000 -1.716675e+002
7060643100 -8.068308e+000 1.815992e+001 -5.010492e-001 -1.692601e+002 -4.954610e-001 -1.692587e+002 -8.553555e+000 -1.781634e+002
7121391750 -7.968231e+000 3.412397e+001 -5.216720e-001 -1.643857e+002 -5.215002e-001 -1.643596e+002 -8.506883e+000 1.758132e+002
7182140400 -7.822041e+000 5.017116e+001 -5.332469e-001 -1.593758e+002 -5.289779e-001 -1.593480e+002 -8.374478e+000 1.695217e+002
7242889050 -7.691689e+000 6.604376e+001 -5.541825e-001 -1.544131e+002 -5.547215e-001 -1.543954e+002 -8.219721e+000 1.635730e+002
7303637700 -7.495790e+000 8.110673e+001 -5.822184e-001 -1.494951e+002 -5.825106e-001 -1.494790e+002 -8.081197e+000 1.576355e+002
7364386350 -7.386368e+000 9.677254e+001 -6.238936e-001 -1.446115e+002 -6.192166e-001 -1.445954e+002 -7.884174e+000 1.522964e+002
7425135000 -7.226046e+000 1.113531e+002 -6.407906e-001 -1.396846e+002 -6.429016e-001 -1.396742e+002 -7.695088e+000 1.468290e+002
7485883650 -7.133118e+000 1.258588e+002 -6.887848e-001 -1.350078e+002 -6.850725e-001 -1.349672e+002 -7.586560e+000 1.420232e+002
7546632300 -7.026344e+000 1.405104e+002 -7.089242e-001 -1.301154e+002 -7.088507e-001 -1.301088e+002 -7.438427e+000 1.372915e+002
7607380950 -7.025865e+000 1.544742e+002 -7.211456e-001 -1.253388e+002 -7.136974e-001 -1.253148e+002 -7.346472e+000 1.323351e+002
7668129600 -7.005853e+000 1.686659e+002 -7.245370e-001 -1.207412e+002 -7.275150e-001 -1.207417e+002 -7.374491e+000 1.284382e+002
7728878250 -7.106619e+000 -1.768246e+002 -7.257192e-001 -1.159190e+002 -7.196814e-001 -1.158781e+002 -7.386807e+000 1.237762e+002
7789626900 -7.166467e+000 -1.632011e+002 -6.922242e-001 -1.112017e+002 -6.903228e-001 -1.111893e+002 -7.477713e+000 1.194507e+002
7850375550 -7.292243e+000 -1.483147e+002 -6.818224e-001 -1.065449e+002 -6.854532e-001 -1.064961e+002 -7.641171e+000 1.150878e+002
7911124200 -7.438383e+000 -1.339127e+002 -6.422919e-001 -1.016257e+002 -6.344560e-001 -1.016066e+002 -7.770041e+000 1.105637e+002
7971872850 -7.578579e+000 -1.194079e+002 -5.984582e-001 -9.670373e+001 -5.971928e-001 -9.668828e+001 -8.031002e+000 1.054623e+002
8032621500 -7.687834e+000 -1.039502e+002 -5.714102e-001 -9.195530e+001 -5.746555e-001 -9.196609e+001 -8.183996e+000 1.007773e+002
8093370150 -7.897033e+000 -8.881652e+001 -5.286825e-001 -8.685251e+001 -5.222553e-001 -8.684993e+001 -8.465726e+000 9.520263e+001
8154118800 -7.967474e+000 -7.419176e+001 -4.931807e-001 -8.193613e+001 -5.002448e-001 -8.191645e+001 -8.684015e+000 8.994221e+001
8214867450 -8.148675e+000 -5.821077e+001 -4.691198e-001 -7.708260e+001 -4.629982e-001 -7.706754e+001 -8.932677e+000 8.412482e+001
8275616100 -8.316297e+000 -4.334865e+001 -4.379790e-001 -7.203227e+001 -4.383253e-001 -7.199210e+001 -9.055073e+000 7.834119e+001
8336364750 -8.476580e+000 -2.845372e+001 -4.181795e-001 -6.709868e+001 -4.171069e-001 -6.708580e+001 -9.357950e+000 7.256123e+001
8397113400 -8.694406e+000 -1.342723e+001 -3.943978e-001 -6.231223e+001 -3.990149e-001 -6.228833e+001 -9.407664e+000 6.694807e+001
8457862050 -8.959948e+000 1.154492e+000 -3.801380e-001 -5.742595e+001 -3.768284e-001 -5.738528e+001 -9.631213e+000 6.174880e+001
8518610700 -9.164690e+000 1.541103e+001 -3.569436e-001 -5.268663e+001 -3.552069e-001 -5.265559e+001 -9.823497e+000 5.638800e+001
8579359350 -9.627634e+000 3.008733e+001 -3.233585e-001 -4.803573e+001 -3.209714e-001 -4.801086e+001 -1.011001e+001 5.187656e+001
8640108000 -9.894379e+000 4.411815e+001 -3.037963e-001 -4.329802e+001 -3.014648e-001 -4.326674e+001 -1.028370e+001 4.666991e+001
8700856650 -1.035940e+001 5.876578e+001 -2.648027e-001 -3.873401e+001 -2.689041e-001 -3.866758e+001 -1.078388e+001 4.250975e+001
8761605300 -1.086481e+001 7.325188e+001 -2.298966e-001 -3.403587e+001 -2.325361e-001 -3.402493e+001 -1.107863e+001 3.777789e+001
8822353950 -1.134480e+001 8.769736e+001 -1.978705e-001 -2.940354e+001 -1.967672e-001 -2.935441e+001 -1.162782e+001 3.328271e+001
8883102600 -1.186329e+001 1.026367e+002 -1.501846e-001 -2.478274e+001 -1.568018e-001 -2.477301e+001 -1.222676e+001 2.836694e+001
8943851250 -1.265458e+001 1.178696e+002 -1.160394e-001 -2.012064e+001 -1.060179e-001 -2.012292e+001 -1.291914e+001 2.427973e+001
9004599900 -1.302865e+001 1.324834e+002 -7.843406e-002 -1.548686e+001 -8.473717e-002 -1.542902e+001 -1.363141e+001 1.757224e+001
9065348550 -1.392330e+001 1.484409e+002 -4.487164e-002 -1.086847e+001 -3.636990e-002 -1.082564e+001 -1.459294e+001 1.327346e+001
9126097200 -1.457018e+001 1.641465e+002 -8.873663e-003 -6.114117e+000 -6.774230e-003 -6.057393e+000 -1.527152e+001 5.781050e+000
9186845850 -1.531072e+001 1.797412e+002 1.557878e-002 -1.488063e+000 1.592009e-002 -1.454373e+000 -1.640496e+001 -1.001844e+000
9247594500 -1.631291e+001 -1.644273e+002 4.273204e-002 3.126076e+000 4.372342e-002 3.157052e+000 -1.728470e+001 -8.387061e+000
9308343150 -1.726264e+001 -1.467766e+002 5.360030e-002 7.866797e+000 5.376156e-002 7.885287e+000 -1.825178e+001 -1.587780e+001
9369091800 -1.809080e+001 -1.313193e+002 6.754293e-002 1.239562e+001 6.835558e-002 1.244319e+001 -1.932947e+001 -2.764991e+001
9429840450 -2.012732e+001 -1.128648e+002 8.678854e-002 1.694230e+001 8.755828e-002 1.696779e+001 -2.047560e+001 -3.211988e+001
9490589100 -2.074216e+001 -9.672023e+001 9.086639e-002 2.157852e+001 9.380098e-002 2.163508e+001 -2.128186e+001 -4.270706e+001
9551337750 -2.282976e+001 -7.606735e+001 1.055755e-001 2.613287e+001 1.071836e-001 2.614524e+001 -2.295526e+001 -4.952434e+001
9612086400 -2.543284e+001 -5.700107e+001 1.171958e-001 3.072809e+001 1.158228e-001 3.073708e+001 -2.481355e+001 -5.820544e+001
9672835050 -2.708220e+001 -3.191885e+001 1.154686e-001 3.526914e+001 1.175876e-001 3.527911e+001 -2.668529e+001 -6.367627e+001
9733583700 -3.028391e+001 -3.030018e+000 1.301510e-001 3.981940e+001 1.292578e-001 3.983488e+001 -3.070752e+001 -7.991281e+001
9794332350 -3.361815e+001 6.056478e+001 1.291697e-001 4.436398e+001 1.344296e-001 4.437585e+001 -3.751461e+001 -9.255576e+001
9855081000 -3.343004e+001 9.339666e+001 1.313863e-001 4.892141e+001 1.304423e-001 4.892218e+001 -4.085962e+001 1.706089e+002
9915829650 -2.862778e+001 1.417263e+002 1.289295e-001 5.351969e+001 1.304793e-001 5.350719e+001 -3.183181e+001 1.209071e+002
9976578300 -2.624844e+001 1.735405e+002 1.246666e-001 5.809267e+001 1.251821e-001 5.808105e+001 -2.761003e+001 1.071770e+002
10037326950 -2.378777e+001 -1.699866e+002 1.186734e-001 6.264662e+001 1.210946e-001 6.260643e+001 -2.448463e+001 1.036868e+002
10098075600 -2.186989e+001 -1.476475e+002 1.102183e-001 6.718670e+001 1.136045e-001 6.717918e+001 -2.221855e+001 9.470308e+001
10158824250 -1.970608e+001 -1.318514e+002 9.152751e-002 7.173888e+001 9.249012e-002 7.170593e+001 -2.040735e+001 9.001411e+001
10219572900 -1.866399e+001 -1.170085e+002 7.688067e-002 7.631757e+001 8.005396e-002 7.630890e+001 -1.898042e+001 8.622200e+001
10280321550 -1.689362e+001 -1.008109e+002 5.394317e-002 8.084128e+001 5.331333e-002 8.083259e+001 -1.758377e+001 7.994782e+001
10341070200 -1.611244e+001 -8.650769e+001 3.922205e-002 8.544299e+001 4.505857e-002 8.544374e+001 -1.696040e+001 7.597499e+001
10401818850 -1.502863e+001 -7.303280e+001 1.971092e-002 8.996134e+001 2.137865e-002 8.998279e+001 -1.577989e+001 7.107346e+001
10462567500 -1.411506e+001 -5.663377e+001 -5.303615e-003 9.455334e+001 -2.610001e-003 9.456074e+001 -1.528007e+001 6.482497e+001
10523316150 -1.348882e+001 -4.448631e+001 -2.554565e-002 9.922358e+001 -2.078925e-002 9.922523e+001 -1.457744e+001 5.938332e+001
10584064800 -1.299424e+001 -2.933094e+001 -5.026441e-002 1.038095e+002 -4.643871e-002 1.038601e+002 -1.392348e+001 5.459090e+001
