!Agilent Technologies,N5230C,MY48100320,A.08.04.10
!Agilent N5230C: A.08.04.10
!Date: Friday, July 29, 2016 03:00:08
!Correction: S11(Full 2 Port(1,2)) 
!S21(Full 2 Port(1,2)) 
!S12(Full 2 Port(1,2)) 
!S22(Full 2 Port(1,2)) 
!S2P File: Measurements: S11, S21, S12, S22:
# Hz S  dB   R 50
1350270000 -3.345507e+001 3.079605e+001 1.887943e-002 1.225479e+002 1.994894e-002 1.225559e+002 -3.383802e+001 2.004507e+001
1411018650 -3.641475e+001 3.962453e+001 1.992333e-002 1.280435e+002 1.907087e-002 1.280601e+002 -3.597769e+001 3.173054e+001
1471767300 -3.879167e+001 5.698952e+001 1.990969e-002 1.335701e+002 2.159617e-002 1.335720e+002 -3.956969e+001 3.281371e+001
1532515950 -4.308819e+001 1.001097e+002 1.167045e-002 1.390657e+002 1.663473e-002 1.390685e+002 -4.712144e+001 2.027469e+001
1593264600 -4.455645e+001 1.725287e+002 1.446629e-002 1.445892e+002 2.056578e-002 1.445945e+002 -5.028651e+001 -1.030395e+002
1654013250 -3.831491e+001 -1.565034e+002 1.748903e-002 1.501011e+002 2.695538e-002 1.501006e+002 -4.177132e+001 -1.124122e+002
1714761900 -3.603123e+001 -1.428525e+002 1.689821e-002 1.555985e+002 1.987681e-002 1.556204e+002 -3.574036e+001 -1.128037e+002
1775510550 -3.303920e+001 -1.289063e+002 1.104864e-002 1.611053e+002 2.302156e-002 1.611070e+002 -3.411583e+001 -1.021781e+002
1836259200 -3.268761e+001 -1.229192e+002 1.514024e-002 1.666070e+002 1.972854e-002 1.666238e+002 -3.218427e+001 -9.942456e+001
1897007850 -3.174417e+001 -1.135861e+002 1.157006e-002 1.720950e+002 2.421921e-002 1.720955e+002 -3.208534e+001 -9.185848e+001
1957756500 -3.165511e+001 -1.102978e+002 1.748183e-002 1.776025e+002 2.406472e-002 1.776121e+002 -3.123866e+001 -8.320721e+001
2018505150 -3.242467e+001 -9.967283e+001 1.742190e-002 -1.769153e+002 1.458614e-002 -1.768988e+002 -3.146513e+001 -7.408453e+001
2079253800 -3.293430e+001 -9.631999e+001 2.399826e-002 -1.714082e+002 2.441767e-002 -1.713938e+002 -3.243719e+001 -6.606857e+001
2140002450 -3.458413e+001 -9.417632e+001 1.943842e-002 -1.659193e+002 2.012405e-002 -1.659107e+002 -3.265828e+001 -5.309120e+001
2200751100 -3.672920e+001 -8.884857e+001 3.219695e-002 -1.604117e+002 3.034015e-002 -1.603981e+002 -3.358560e+001 -4.093646e+001
2261499750 -4.089956e+001 -8.047473e+001 2.377892e-002 -1.549077e+002 3.079226e-002 -1.548891e+002 -3.515250e+001 -2.034905e+001
2322248400 -4.358887e+001 -8.738623e+001 2.761242e-002 -1.494071e+002 3.200352e-002 -1.493995e+002 -3.675001e+001 -7.198427e-001
2382997050 -6.294777e+001 1.575034e+002 3.935196e-002 -1.438875e+002 3.395638e-002 -1.438869e+002 -3.744170e+001 1.839932e+001
2443745700 -4.929208e+001 1.238602e+002 3.480510e-002 -1.384031e+002 3.575588e-002 -1.383897e+002 -3.813312e+001 4.671572e+001
2504494350 -4.116890e+001 1.294560e+002 3.193311e-002 -1.328790e+002 4.110079e-002 -1.328872e+002 -3.646904e+001 7.248082e+001
2565243000 -3.907825e+001 1.320948e+002 3.057681e-002 -1.273943e+002 3.860433e-002 -1.273840e+002 -3.670457e+001 9.194985e+001
2625991650 -3.692386e+001 1.404290e+002 3.984485e-002 -1.218873e+002 2.999066e-002 -1.218808e+002 -3.608559e+001 1.033446e+002
2686740300 -3.628856e+001 1.459939e+002 4.133646e-002 -1.163811e+002 3.250918e-002 -1.163759e+002 -3.501226e+001 1.162071e+002
2747488950 -3.600613e+001 1.604466e+002 3.911298e-002 -1.108678e+002 3.066597e-002 -1.108685e+002 -3.502909e+001 1.219309e+002
2808237600 -3.738915e+001 1.610423e+002 4.184028e-002 -1.053735e+002 3.560503e-002 -1.053693e+002 -3.644810e+001 1.356555e+002
2868986250 -3.742911e+001 -1.771527e+002 3.560988e-002 -9.987798e+001 3.355864e-002 -9.985936e+001 -3.767215e+001 1.373616e+002
2929734900 -4.143988e+001 -1.718803e+002 5.256836e-002 -9.437050e+001 4.658270e-002 -9.435764e+001 -3.974789e+001 1.463697e+002
2990483550 -4.458836e+001 -1.358969e+002 2.875674e-002 -8.886665e+001 3.440882e-002 -8.884637e+001 -4.572903e+001 1.459617e+002
3051232200 -4.612495e+001 -1.035967e+002 4.125206e-002 -8.335743e+001 4.281253e-002 -8.335528e+001 -5.386725e+001 1.740197e+002
3111980850 -4.213167e+001 -4.768193e+001 4.172639e-002 -7.783977e+001 4.724871e-002 -7.784703e+001 -4.746634e+001 1.220895e+001
3172729500 -4.077007e+001 -2.544525e+001 3.677942e-002 -7.234893e+001 4.399299e-002 -7.235506e+001 -4.359951e+001 3.534950e+000
3233478150 -3.663133e+001 -1.106930e+001 3.866500e-002 -6.682330e+001 6.278928e-002 -6.681123e+001 -3.873372e+001 2.936595e+000
3294226800 -3.624155e+001 -8.582973e+000 4.706638e-002 -6.131879e+001 4.259586e-002 -6.132577e+001 -3.735328e+001 2.045229e+001
3354975450 -3.416772e+001 2.443403e+000 3.780935e-002 -5.579506e+001 4.790242e-002 -5.580491e+001 -3.546147e+001 2.527772e+001
3415724100 -3.423632e+001 7.841865e+000 5.100518e-002 -5.031468e+001 4.901259e-002 -5.029882e+001 -3.558072e+001 3.781387e+001
3476472750 -3.347551e+001 1.637875e+001 5.031601e-002 -4.478147e+001 4.473466e-002 -4.479760e+001 -3.428493e+001 4.290851e+001
3537221400 -3.388136e+001 1.488177e+001 5.379619e-002 -3.930109e+001 4.171185e-002 -3.927534e+001 -3.388291e+001 5.748278e+001
3597970050 -3.509728e+001 3.130183e+001 4.706638e-002 -3.379679e+001 5.862277e-002 -3.377983e+001 -3.489557e+001 6.619181e+001
3658718700 -3.583033e+001 2.308727e+001 6.149238e-002 -2.830178e+001 5.769536e-002 -2.828551e+001 -3.560421e+001 8.320727e+001
3719467350 -3.786156e+001 3.542316e+001 5.408509e-002 -2.278397e+001 6.662202e-002 -2.278306e+001 -3.651675e+001 9.035327e+001
3780216000 -4.085356e+001 3.930434e+001 5.888546e-002 -1.726552e+001 5.821630e-002 -1.727089e+001 -3.635743e+001 1.133764e+002
3840964650 -4.485339e+001 3.400140e+001 6.277010e-002 -1.175917e+001 6.428292e-002 -1.175614e+001 -3.761942e+001 1.419383e+002
3901713300 -4.849778e+001 3.447905e+000 5.345233e-002 -6.261353e+000 6.145509e-002 -6.264693e+000 -3.720239e+001 1.582646e+002
3962461950 -4.928100e+001 -7.698774e+001 6.844492e-002 -7.588015e-001 5.567876e-002 -7.471618e-001 -3.713199e+001 1.786768e+002
4023210600 -4.924103e+001 -6.913988e+001 6.357502e-002 4.743860e+000 6.962279e-002 4.754138e+000 -3.600563e+001 -1.696980e+002
4083959250 -4.124977e+001 -7.342378e+001 7.003890e-002 1.026052e+001 5.188189e-002 1.026939e+001 -3.530191e+001 -1.497764e+002
4144707900 -4.446367e+001 -7.791824e+001 6.471521e-002 1.575880e+001 6.127189e-002 1.576268e+001 -3.595736e+001 -1.469686e+002
4205456550 -4.184928e+001 -7.357907e+001 6.915944e-002 2.124276e+001 6.083680e-002 2.124650e+001 -3.655808e+001 -1.375521e+002
4266205200 -4.347017e+001 -6.709540e+001 6.312199e-002 2.677840e+001 6.779306e-002 2.679016e+001 -3.679575e+001 -1.258790e+002
4326953850 -4.516780e+001 -6.565678e+001 6.609347e-002 3.227439e+001 5.828506e-002 3.228081e+001 -3.905143e+001 -1.171817e+002
4387702500 -4.822610e+001 -7.080264e+001 6.617425e-002 3.779549e+001 7.292455e-002 3.780144e+001 -4.359742e+001 -1.130186e+002
4448451150 -5.162694e+001 -2.872415e+001 8.397688e-002 4.327253e+001 6.266616e-002 4.329338e+001 -4.734925e+001 -1.280991e+002
4509199800 -5.780164e+001 1.726452e+002 6.840183e-002 4.878976e+001 6.528790e-002 4.879787e+001 -5.163586e+001 1.753250e+002
4569948450 -4.381079e+001 8.979093e+001 4.890850e-002 5.430902e+001 7.712892e-002 5.431152e+001 -4.912569e+001 1.643570e+002
4630697100 -4.290912e+001 1.191500e+002 6.976189e-002 5.983275e+001 6.771739e-002 5.983294e+001 -4.091372e+001 1.336143e+002
4691445750 -3.864021e+001 1.251774e+002 6.999905e-002 6.532866e+001 6.527568e-002 6.533479e+001 -3.896690e+001 1.312094e+002
4752194400 -3.661195e+001 1.329400e+002 8.330911e-002 7.084608e+001 7.222299e-002 7.082573e+001 -3.733477e+001 1.414045e+002
4812943050 -3.608810e+001 1.446062e+002 6.507335e-002 7.633763e+001 7.924137e-002 7.633746e+001 -3.688395e+001 1.385187e+002
4873691700 -3.622400e+001 1.481391e+002 6.823451e-002 8.186507e+001 7.118602e-002 8.183118e+001 -3.524044e+001 1.429119e+002
4934440350 -3.464075e+001 1.607554e+002 6.871110e-002 8.736240e+001 5.690122e-002 8.736849e+001 -3.506092e+001 1.537043e+002
4995189000 -3.565567e+001 1.666160e+002 6.826001e-002 9.288050e+001 7.248294e-002 9.287138e+001 -3.552288e+001 1.540794e+002
5055937650 -3.561467e+001 1.714555e+002 7.272779e-002 9.839072e+001 7.550368e-002 9.838727e+001 -3.670872e+001 1.661909e+002
5116686300 -3.852705e+001 -1.742690e+002 7.026687e-002 1.039014e+002 6.263124e-002 1.038891e+002 -3.710990e+001 1.721437e+002
5177434950 -3.885350e+001 -1.706271e+002 7.432830e-002 1.093817e+002 8.831664e-002 1.093918e+002 -4.122412e+001 -1.617924e+002
5238183600 -4.175074e+001 -1.746172e+002 8.364947e-002 1.148890e+002 6.867824e-002 1.148992e+002 -4.259325e+001 -1.642092e+002
5298932250 -4.622089e+001 -1.131803e+002 7.786386e-002 1.203277e+002 7.303303e-002 1.203316e+002 -4.694244e+001 -1.107821e+002
5359680900 -4.708169e+001 -1.277553e+002 8.122986e-002 1.258270e+002 8.222235e-002 1.258225e+002 -4.784547e+001 -8.865172e+001
5420429550 -4.484876e+001 -5.569970e+001 7.150123e-002 1.313541e+002 8.427700e-002 1.313444e+002 -4.237077e+001 -4.780080e+001
5481178200 -4.313861e+001 -3.232773e+001 8.659317e-002 1.368486e+002 7.753068e-002 1.368380e+002 -4.719447e+001 -2.058296e+001
5541926850 -4.077694e+001 -3.524557e+001 7.875585e-002 1.423441e+002 9.251226e-002 1.423465e+002 -4.258409e+001 -2.007123e+001
5602675500 -4.014931e+001 -1.437365e+001 8.583678e-002 1.478442e+002 9.243844e-002 1.478285e+002 -4.387313e+001 4.646380e+000
5663424150 -3.893520e+001 -2.849509e+001 8.683331e-002 1.533362e+002 8.879142e-002 1.533361e+002 -4.486233e+001 -1.155032e+001
5724172800 -3.793253e+001 -2.566732e+001 8.931376e-002 1.588894e+002 8.627136e-002 1.588737e+002 -4.724535e+001 4.485468e+001
5784921450 -3.760199e+001 -2.448990e+001 8.154073e-002 1.643545e+002 8.286123e-002 1.643656e+002 -5.028347e+001 -8.681180e+001
5845670100 -3.590326e+001 -4.066447e+001 9.810532e-002 1.698832e+002 1.037831e-001 1.698685e+002 -4.758795e+001 -1.517344e+002
5906418750 -3.437082e+001 -3.879036e+001 9.050380e-002 1.753419e+002 1.034729e-001 1.753480e+002 -3.932434e+001 -1.400174e+002
5967167400 -3.386005e+001 -4.368689e+001 9.389395e-002 -1.791463e+002 9.139840e-002 -1.791567e+002 -3.653010e+001 -1.401006e+002
6027916050 -3.234496e+001 -4.479883e+001 8.671371e-002 -1.736597e+002 1.004032e-001 -1.736405e+002 -3.345535e+001 -1.319284e+002
6088664700 -3.177719e+001 -4.343965e+001 9.048580e-002 -1.681490e+002 9.404375e-002 -1.681603e+002 -3.247682e+001 -1.259118e+002
6149413350 -3.068148e+001 -4.406742e+001 9.332040e-002 -1.626198e+002 1.016355e-001 -1.626170e+002 -2.992708e+001 -1.271833e+002
6210162000 -2.986570e+001 -4.033753e+001 9.393129e-002 -1.571391e+002 1.006553e-001 -1.571431e+002 -2.966283e+001 -1.170049e+002
6270910650 -3.022069e+001 -3.676340e+001 1.047063e-001 -1.516112e+002 9.995294e-002 -1.515951e+002 -2.830091e+001 -1.151512e+002
6331659300 -2.870734e+001 -3.037443e+001 1.031945e-001 -1.461351e+002 1.030965e-001 -1.461043e+002 -2.871245e+001 -1.089987e+002
6392407950 -2.988849e+001 -2.665640e+001 9.885934e-002 -1.406372e+002 1.013240e-001 -1.406199e+002 -2.789490e+001 -1.074862e+002
6453156600 -2.959367e+001 -1.890899e+001 1.062462e-001 -1.351451e+002 1.055208e-001 -1.351336e+002 -2.832485e+001 -9.992952e+001
6513905250 -3.000957e+001 -6.958708e+000 1.060255e-001 -1.296310e+002 1.013459e-001 -1.296269e+002 -2.908344e+001 -1.010939e+002
6574653900 -3.140384e+001 1.000675e+000 1.041534e-001 -1.241716e+002 1.007493e-001 -1.241785e+002 -2.945709e+001 -9.571273e+001
6635402550 -3.231802e+001 1.451004e+001 1.093286e-001 -1.186604e+002 1.054915e-001 -1.186659e+002 -3.050853e+001 -1.001539e+002
6696151200 -3.322352e+001 3.615606e+001 1.078659e-001 -1.131611e+002 1.055169e-001 -1.131757e+002 -3.176365e+001 -9.522359e+001
6756899850 -3.608369e+001 4.821447e+001 1.128081e-001 -1.076897e+002 1.100513e-001 -1.076783e+002 -3.357416e+001 -1.049991e+002
6817648500 -3.413638e+001 7.812978e+001 1.089100e-001 -1.021749e+002 1.079219e-001 -1.021895e+002 -3.506263e+001 -1.069394e+002
6878397150 -3.585341e+001 9.641441e+001 1.160868e-001 -9.669489e+001 1.102783e-001 -9.668450e+001 -3.635451e+001 -1.240509e+002
6939145800 -3.332327e+001 1.190270e+002 1.092813e-001 -9.118468e+001 1.127665e-001 -9.117173e+001 -3.679620e+001 -1.331332e+002
6999894450 -3.339023e+001 1.304929e+002 1.179984e-001 -8.568685e+001 1.126364e-001 -8.565663e+001 -3.569707e+001 -1.508298e+002
7060643100 -3.247694e+001 1.464268e+002 1.154874e-001 -8.021438e+001 1.195686e-001 -8.018904e+001 -3.552145e+001 -1.441361e+002
7121391750 -3.144553e+001 1.544705e+002 1.141473e-001 -7.471542e+001 1.138752e-001 -7.470676e+001 -3.395281e+001 -1.539776e+002
7182140400 -3.115961e+001 1.658233e+002 1.151583e-001 -6.922682e+001 1.199306e-001 -6.919867e+001 -3.398075e+001 -1.537711e+002
7242889050 -3.250961e+001 1.709226e+002 1.164607e-001 -6.374951e+001 1.151645e-001 -6.372034e+001 -3.445802e+001 -1.464381e+002
7303637700 -3.149378e+001 1.765617e+002 1.209894e-001 -5.825619e+001 1.203404e-001 -5.820780e+001 -3.469469e+001 -1.364951e+002
7364386350 -3.418044e+001 1.701342e+002 1.253495e-001 -5.270189e+001 1.291564e-001 -5.268604e+001 -3.830896e+001 -1.234374e+002
7425135000 -3.474426e+001 1.735241e+002 1.215148e-001 -4.722926e+001 1.196913e-001 -4.720667e+001 -3.777213e+001 -9.254244e+001
7485883650 -3.468079e+001 1.608579e+002 1.192939e-001 -4.175006e+001 1.223940e-001 -4.173660e+001 -3.963304e+001 -7.216347e+001
7546632300 -3.622139e+001 1.428566e+002 1.250008e-001 -3.625938e+001 1.207742e-001 -3.623878e+001 -3.585116e+001 -2.867946e+001
7607380950 -3.478895e+001 1.463310e+002 1.222547e-001 -3.075986e+001 1.304996e-001 -3.074113e+001 -3.524208e+001 -2.593243e+001
7668129600 -3.563071e+001 1.343825e+002 1.307239e-001 -2.527626e+001 1.271457e-001 -2.525282e+001 -3.368267e+001 2.137892e+000
7728878250 -3.225971e+001 1.281399e+002 1.273196e-001 -1.976889e+001 1.305269e-001 -1.973608e+001 -3.202787e+001 5.056516e+000
7789626900 -3.400391e+001 1.255187e+002 1.282219e-001 -1.427998e+001 1.300430e-001 -1.425771e+001 -3.086996e+001 1.760556e+001
7850375550 -3.170048e+001 1.274708e+002 1.267096e-001 -8.800141e+000 1.223715e-001 -8.764146e+000 -3.025616e+001 3.238757e+001
7911124200 -3.097364e+001 1.291901e+002 1.242495e-001 -3.311573e+000 1.293404e-001 -3.290840e+000 -2.952524e+001 3.118414e+001
7971872850 -3.191817e+001 1.342790e+002 1.285947e-001 2.180100e+000 1.287735e-001 2.197561e+000 -2.976972e+001 4.540358e+001
8032621500 -3.084061e+001 1.384767e+002 1.272057e-001 7.668322e+000 1.228154e-001 7.688327e+000 -2.908082e+001 4.757332e+001
8093370150 -3.190077e+001 1.513881e+002 1.253718e-001 1.315285e+001 1.300161e-001 1.316106e+001 -3.011464e+001 6.053387e+001
8154118800 -3.195661e+001 1.465823e+002 1.271479e-001 1.868147e+001 1.210006e-001 1.870270e+001 -3.071134e+001 6.187813e+001
8214867450 -3.355210e+001 1.719918e+002 1.224683e-001 2.412975e+001 1.274992e-001 2.413382e+001 -3.085799e+001 7.356046e+001
8275616100 -3.511828e+001 1.765998e+002 1.274779e-001 2.960411e+001 1.271931e-001 2.964971e+001 -3.383778e+001 8.303777e+001
8336364750 -3.629836e+001 -1.706456e+002 1.263043e-001 3.513120e+001 1.257610e-001 3.513965e+001 -3.419372e+001 9.851038e+001
8397113400 -3.766386e+001 -1.429177e+002 1.328315e-001 4.061345e+001 1.302807e-001 4.066764e+001 -3.861245e+001 1.142618e+002
8457862050 -4.074835e+001 -1.115119e+002 1.266851e-001 4.611432e+001 1.303566e-001 4.615126e+001 -3.973622e+001 1.339501e+002
8518610700 -3.881938e+001 -1.089089e+002 1.333353e-001 5.164456e+001 1.357553e-001 5.169260e+001 -3.995255e+001 1.756868e+002
8579359350 -3.973401e+001 -5.324086e+001 1.301561e-001 5.713762e+001 1.321143e-001 5.714554e+001 -4.377951e+001 -1.565969e+002
8640108000 -3.869707e+001 -5.774709e+001 1.278858e-001 6.263682e+001 1.302066e-001 6.267445e+001 -3.784009e+001 -1.309005e+002
8700856650 -3.917238e+001 -3.150581e+001 1.325155e-001 6.810673e+001 1.263745e-001 6.814485e+001 -4.044513e+001 -1.167043e+002
8761605300 -3.810870e+001 -1.974631e+001 1.273283e-001 7.364218e+001 1.250504e-001 7.367220e+001 -3.604451e+001 -1.024653e+002
8822353950 -3.862761e+001 -8.823606e+000 1.250398e-001 7.912137e+001 1.274834e-001 7.917881e+001 -3.674209e+001 -9.056158e+001
8883102600 -3.883024e+001 -4.416225e+000 1.314113e-001 8.461510e+001 1.255619e-001 8.465717e+001 -3.768166e+001 -9.032236e+001
8943851250 -4.227722e+001 3.232386e+001 1.250831e-001 9.018223e+001 1.334816e-001 9.017716e+001 -3.675411e+001 -7.317115e+001
9004599900 -3.889140e+001 1.525084e+001 1.261229e-001 9.563924e+001 1.192554e-001 9.569171e+001 -3.940498e+001 -8.915061e+001
9065348550 -4.684683e+001 7.671867e+001 1.186878e-001 1.011583e+002 1.239426e-001 1.011671e+002 -4.124512e+001 -5.226793e+001
9126097200 -4.751366e+001 7.280533e+001 1.263956e-001 1.066381e+002 1.270677e-001 1.066744e+002 -4.263335e+001 -1.135635e+002
9186845850 -4.833907e+001 8.109829e+001 1.281634e-001 1.121587e+002 1.286069e-001 1.121712e+002 -5.378393e+001 -1.371158e+002
9247594500 -5.062870e+001 -1.781340e+002 1.271856e-001 1.176287e+002 1.298231e-001 1.176824e+002 -4.628762e+001 1.764963e+002
9308343150 -4.441585e+001 -1.549657e+002 1.297612e-001 1.232095e+002 1.292387e-001 1.232210e+002 -4.113113e+001 1.691716e+002
9369091800 -5.134161e+001 1.568678e+002 1.255709e-001 1.286723e+002 1.243324e-001 1.287205e+002 -3.513209e+001 1.484612e+002
9429840450 -3.927839e+001 -9.812468e+001 1.285895e-001 1.341835e+002 1.289616e-001 1.341854e+002 -3.737033e+001 1.612034e+002
9490589100 -4.473169e+001 -1.246354e+002 1.219676e-001 1.396423e+002 1.257760e-001 1.396948e+002 -3.315054e+001 1.595849e+002
9551337750 -4.055229e+001 -7.578374e+001 1.307878e-001 1.451768e+002 1.301845e-001 1.451872e+002 -3.360757e+001 1.589373e+002
9612086400 -4.018579e+001 -4.066394e+001 1.298764e-001 1.507185e+002 1.275144e-001 1.507194e+002 -3.341898e+001 1.590919e+002
9672835050 -3.990189e+001 -5.330244e+001 1.258134e-001 1.562051e+002 1.262816e-001 1.562232e+002 -3.297050e+001 1.669773e+002
9733583700 -4.000802e+001 -2.315926e+001 1.324534e-001 1.617088e+002 1.305711e-001 1.617206e+002 -3.385355e+001 1.546532e+002
9794332350 -3.651137e+001 9.089150e+000 1.277096e-001 1.671813e+002 1.317036e-001 1.671785e+002 -3.478181e+001 1.641758e+002
9855081000 -4.086302e+001 -1.121479e+001 1.302764e-001 1.726732e+002 1.262767e-001 1.726678e+002 -3.527337e+001 1.567961e+002
9915829650 -3.622618e+001 2.287580e+001 1.293897e-001 1.782206e+002 1.312035e-001 1.781898e+002 -3.827788e+001 1.443270e+002
9976578300 -3.984925e+001 5.085975e+001 1.289435e-001 -1.762803e+002 1.285931e-001 -1.762904e+002 -3.892410e+001 1.440402e+002
10037326950 -3.834229e+001 3.728193e+001 1.276974e-001 -1.707832e+002 1.326642e-001 -1.708171e+002 -3.825677e+001 1.165662e+002
10098075600 -4.189744e+001 7.409342e+001 1.311819e-001 -1.653315e+002 1.375820e-001 -1.653285e+002 -4.080330e+001 9.795358e+001
10158824250 -3.955125e+001 1.126591e+002 1.281826e-001 -1.597803e+002 1.297112e-001 -1.598287e+002 -3.740475e+001 7.924951e+001
10219572900 -4.732577e+001 1.067149e+002 1.251640e-001 -1.543047e+002 1.280783e-001 -1.543066e+002 -3.460167e+001 7.387215e+001
10280321550 -3.771096e+001 1.667398e+002 1.268304e-001 -1.487659e+002 1.251501e-001 -1.488098e+002 -3.427708e+001 5.536309e+001
10341070200 -3.859578e+001 -1.628810e+002 1.204687e-001 -1.432561e+002 1.261077e-001 -1.432764e+002 -3.181365e+001 6.789797e+001
10401818850 -3.557331e+001 -1.528652e+002 1.270797e-001 -1.378016e+002 1.267167e-001 -1.377754e+002 -3.043956e+001 5.510891e+001
10462567500 -3.205911e+001 -1.228411e+002 1.209109e-001 -1.322745e+002 1.242643e-001 -1.322593e+002 -3.076231e+001 6.204164e+001
10523316150 -3.153105e+001 -1.260063e+002 1.208185e-001 -1.267714e+002 1.249667e-001 -1.267249e+002 -3.014303e+001 5.846020e+001
10584064800 -3.075985e+001 -1.039641e+002 1.189820e-001 -1.212539e+002 1.243472e-001 -1.212157e+002 -2.895909e+001 5.603838e+001
10644813450 -2.813466e+001 -9.282521e+001 1.217369e-001 -1.156940e+002 1.278431e-001 -1.157022e+002 -3.018941e+001 5.097586e+001
10705562100 -2.926032e+001 -9.096567e+001 1.153846e-001 -1.102843e+002 1.194322e-001 -1.102702e+002 -2.880615e+001 5.683415e+001
