CITIFILE A.01.01
!Agilent Technologies,N5230C,MY48100320,A.08.04.10
!Agilent N5230C: A.08.04.10
!Date: Friday, July 29, 2016 03:07:20
NAME CH1_DATA
VAR Freq MAG 201
DATA S11 RI
DATA S21 RI
DATA S12 RI
DATA S22 RI
VAR_LIST_BEGIN
1350270000
1411018650
1471767300
1532515950
1593264600
1654013250
1714761900
1775510550
1836259200
1897007850
1957756500
2018505150
2079253800
2140002450
2200751100
2261499750
2322248400
2382997050
2443745700
2504494350
2565243000
2625991650
2686740300
2747488950
2808237600
2868986250
2929734900
2990483550
3051232200
3111980850
3172729500
3233478150
3294226800
3354975450
3415724100
3476472750
3537221400
3597970050
3658718700
3719467350
3780216000
3840964650
3901713300
3962461950
4023210600
4083959250
4144707900
4205456550
4266205200
4326953850
4387702500
4448451150
4509199800
4569948450
4630697100
4691445750
4752194400
4812943050
4873691700
4934440350
4995189000
5055937650
5116686300
5177434950
5238183600
5298932250
5359680900
5420429550
5481178200
5541926850
5602675500
5663424150
5724172800
5784921450
5845670100
5906418750
5967167400
6027916050
6088664700
6149413350
6210162000
6270910650
6331659300
6392407950
6453156600
6513905250
6574653900
6635402550
6696151200
6756899850
6817648500
6878397150
6939145800
6999894450
7060643100
7121391750
7182140400
7242889050
7303637700
7364386350
7425135000
7485883650
7546632300
7607380950
7668129600
7728878250
7789626900
7850375550
7911124200
7971872850
8032621500
8093370150
8154118800
8214867450
8275616100
8336364750
8397113400
8457862050
8518610700
8579359350
8640108000
8700856650
8761605300
8822353950
8883102600
8943851250
9004599900
9065348550
9126097200
9186845850
9247594500
9308343150
9369091800
9429840450
9490589100
9551337750
9612086400
9672835050
9733583700
9794332350
9855081000
9915829650
9976578300
10037326950
10098075600
10158824250
10219572900
10280321550
10341070200
10401818850
10462567500
10523316150
10584064800
10644813450
10705562100
10766310750
10827059400
10887808050
10948556700
11009305350
11070054000
11130802650
11191551300
11252299950
11313048600
11373797250
11434545900
11495294550
11556043200
11616791850
11677540500
11738289150
11799037800
11859786450
11920535100
11981283750
12042032400
12102781050
12163529700
12224278350
12285027000
12345775650
12406524300
12467272950
12528021600
12588770250
12649518900
12710267550
12771016200
12831764850
12892513500
12953262150
13014010800
13074759450
13135508100
13196256750
13257005400
13317754050
13378502700
13439251350
13500000000
VAR_LIST_END
BEGIN
-0.31277093,-0.0083315289
-0.31655416,-0.085454307
-0.30105871,-0.1624289
-0.26893911,-0.2357302
-0.21884839,-0.30380058
-0.15413393,-0.35677347
-0.075819463,-0.39507058
0.008999398,-0.41560709
0.10119002,-0.41316062
0.19040972,-0.3907395
0.27610126,-0.34669515
0.35137665,-0.2821418
0.41205731,-0.19960108
0.45325741,-0.10246658
0.47322765,0.0051258905
0.46761388,0.11713755
0.43519118,0.22666334
0.37895772,0.32924166
0.29720575,0.41693023
0.19703551,0.48341992
0.083778694,0.52579898
-0.037267528,0.54095483
-0.16020979,0.52654362
-0.27534324,0.48444903
-0.37828475,0.41647658
-0.46515265,0.3259654
-0.52840173,0.2170752
-0.56549311,0.095698722
-0.57669449,-0.033957817
-0.55704337,-0.16504486
-0.50733525,-0.28971645
-0.43012336,-0.40332484
-0.32633311,-0.49689415
-0.20278189,-0.56395394
-0.066800803,-0.60084182
0.075194061,-0.60528874
0.2133273,-0.57595026
0.33872113,-0.51560515
0.44843236,-0.43042856
0.53468263,-0.31918627
0.59204751,-0.1923759
0.62009829,-0.058187731
0.6177097,0.082625762
0.58245385,0.21882552
0.51847941,0.34501407
0.42609122,0.45425993
0.30914301,0.54300243
0.17402424,0.60166234
0.028217385,0.62857425
-0.12213189,0.62213224
-0.26762676,0.57811606
-0.39559194,0.50194061
-0.50533164,0.3993499
-0.58476186,0.27483267
-0.63540828,0.13555762
-0.65259212,-0.012457356
-0.6345998,-0.15873441
-0.58516711,-0.29904196
-0.50293499,-0.42450944
-0.39604375,-0.52767378
-0.26590353,-0.6067642
-0.11943629,-0.65361702
0.033187844,-0.66690421
0.19001345,-0.6454854
0.33702329,-0.58782876
0.46670875,-0.4998354
0.57394922,-0.38185567
0.65195072,-0.24251771
0.69440085,-0.09226501
0.70200258,0.069338255
0.67229432,0.22326018
0.60782886,0.36779723
0.51094174,0.49115598
0.39050728,0.59387249
0.2486822,0.6622721
0.093944006,0.7009514
-0.066533387,0.70210952
-0.2261641,0.66889262
-0.37504888,0.5959776
-0.50635177,0.49316737
-0.60997397,0.36004966
-0.68173933,0.20367318
-0.71455622,0.034323845
-0.70531434,-0.13566184
-0.65604448,-0.30021715
-0.56890333,-0.44589949
-0.4516466,-0.56659496
-0.30888832,-0.65481061
-0.15215822,-0.70657635
0.011966742,-0.72073972
0.1757843,-0.69504476
0.32696334,-0.63329643
0.46167669,-0.53866243
0.56987172,-0.41338384
0.64863187,-0.26676291
0.69018412,-0.10461998
0.693048,0.062222965
0.65758604,0.22651179
0.58448112,0.37822789
0.4762207,0.50602007
0.34432709,0.60625184
0.19212867,0.67006564
0.032902177,0.69479614
-0.1280497,0.68676841
-0.27482507,0.63719827
-0.40760523,0.56034458
-0.52029932,0.45614275
-0.60219526,0.32881704
-0.65608162,0.1897238
-0.68146068,0.037628233
-0.66457975,-0.11174485
-0.62201238,-0.25779715
-0.54297614,-0.39206278
-0.43739459,-0.50207466
-0.30875915,-0.58852035
-0.16363694,-0.6428526
-0.011741513,-0.66158992
0.14222062,-0.64582556
0.28563243,-0.59387398
0.41076952,-0.51370031
0.5153563,-0.40497288
0.5888713,-0.2783905
0.63288444,-0.1414929
0.64477313,0.0040713944
0.62357414,0.14428803
0.57420433,0.27478793
0.49509329,0.3941524
0.39336213,0.49060416
0.27345744,0.56297594
0.1398762,0.60525191
0.0012178889,0.62035835
-0.13631567,0.59984136
-0.26546729,0.55197781
-0.38296822,0.47607636
-0.47552904,0.37356877
-0.54441553,0.25412321
-0.58353305,0.12266427
-0.58928609,-0.012325983
-0.56482935,-0.1466995
-0.51013982,-0.27091864
-0.42866379,-0.37406862
-0.32479748,-0.46153602
-0.20440948,-0.51671249
-0.078870371,-0.5472129
0.055670533,-0.54350579
0.17776047,-0.51190341
0.28962022,-0.45483932
0.38816819,-0.37044793
0.45793781,-0.26797071
0.50524521,-0.15602928
0.52239615,-0.029445572
0.51105475,0.089092448
0.47082266,0.20239496
0.40405515,0.3039608
0.31920028,0.38443777
0.21382727,0.44034901
0.10182576,0.47012964
-0.012355566,0.47362664
-0.12473062,0.44510758
-0.22572403,0.39637884
-0.3117142,0.32616138
-0.37483326,0.2345771
-0.41769817,0.13616887
-0.43302247,0.030603001
-0.41959953,-0.070338808
-0.38838705,-0.1674218
-0.33223304,-0.24820124
-0.26022542,-0.30933544
-0.17740729,-0.35865453
-0.086779684,-0.3751688
-0.0002594589,-0.37423161
0.089183405,-0.35413614
0.16080484,-0.31033072
0.22252075,-0.25533569
0.27144489,-0.18817383
0.29705748,-0.11630297
0.30951986,-0.037840828
0.30162197,0.036859728
0.27771634,0.10316651
0.23820584,0.16475211
0.18638773,0.20954256
0.13225146,0.23932077
0.065256335,0.25386471
0.0074364706,0.24986717
-0.044458669,0.23365925
-0.095376119,0.20242266
-0.12782183,0.165738
-0.15269478,0.12099688
-0.16120121,0.070681855
-0.16696157,0.030709457
-0.14708221,-0.017460912
-0.12721747,-0.053038087
-0.10136527,-0.079822987
-0.059575811,-0.10149418
-0.028312562,-0.10938945
0.0096672541,-0.11488103
0.046021149,-0.095697843
0.071348645,-0.0848106
0.092458837,-0.059120428
0.1054529,-0.030015264
0.10700608,-0.007520162
END
BEGIN
-0.21071893,0.88308293
-0.28398603,0.8568759
-0.35410619,0.82385772
-0.41992319,0.78470594
-0.48123583,0.73922569
-0.53837925,0.69086856
-0.58871323,0.63797975
-0.63501197,0.58222967
-0.67583597,0.52354282
-0.71365911,0.46330878
-0.74519092,0.40026563
-0.77241611,0.33479971
-0.79586864,0.2671254
-0.812482,0.19833311
-0.82318467,0.12674065
-0.82664591,0.053545598
-0.82453638,-0.019429065
-0.81487226,-0.092278183
-0.79670066,-0.16297726
-0.7734201,-0.23257153
-0.74318588,-0.29687709
-0.70882994,-0.35831738
-0.66880351,-0.41602033
-0.62504917,-0.46871927
-0.57778543,-0.51649517
-0.52718842,-0.56084847
-0.47579753,-0.60203063
-0.41882601,-0.6368497
-0.36074576,-0.66877985
-0.29976955,-0.69708055
-0.23609842,-0.71957058
-0.16989839,-0.73642266
-0.10098779,-0.74733907
-0.031631988,-0.75104642
0.037581179,-0.74852169
0.10642778,-0.73820418
0.17388915,-0.72140545
0.2372413,-0.69966716
0.29908371,-0.67228281
0.35626712,-0.6389811
0.40969133,-0.60193211
0.4595381,-0.56066936
0.50621265,-0.51706922
0.54971278,-0.47084185
0.58837217,-0.41903636
0.62337601,-0.365776
0.65281433,-0.3070296
0.67833549,-0.24706665
0.69886571,-0.18357672
0.71129948,-0.11788734
0.71801192,-0.051071234
0.71792018,0.015811341
0.70940977,0.080725715
0.69666439,0.14401065
0.67913127,0.20637685
0.6528306,0.2641761
0.62573552,0.32072502
0.59015059,0.37170401
0.55305523,0.41973609
0.51246077,0.46640167
0.46799561,0.50810117
0.42039591,0.54549783
0.36842546,0.5800758
0.3142229,0.60769343
0.25816566,0.63300431
0.19747457,0.65089208
0.13891202,0.66406947
0.07545083,0.67032802
0.01511912,0.67126161
-0.045277439,0.66553277
-0.10516188,0.6556524
-0.16142806,0.64008081
-0.21811813,0.62029356
-0.27105349,0.59686148
-0.32255149,0.56987321
-0.37102112,0.54029459
-0.41945556,0.50341284
-0.46381259,0.46576849
-0.50665581,0.42129999
-0.5433293,0.37379372
-0.57898962,0.32188487
-0.60922289,0.26676401
-0.6326322,0.20672156
-0.65056229,0.14603345
-0.66183394,0.081659883
-0.66556042,0.020697286
-0.66517758,-0.044277061
-0.6572631,-0.1044198
-0.64548129,-0.16490586
-0.62733167,-0.22333424
-0.60480696,-0.27988696
-0.57899112,-0.33380458
-0.54728186,-0.38701224
-0.51227444,-0.4370105
-0.47188747,-0.48536411
-0.4271045,-0.52811289
-0.37791842,-0.569139
-0.32367644,-0.60343474
-0.26589245,-0.63254273
-0.20491418,-0.65523851
-0.14243741,-0.67113197
-0.07997565,-0.68027878
-0.017296607,-0.68477571
0.043546446,-0.68094248
0.10293379,-0.67450118
0.16243632,-0.66264641
0.21626386,-0.64491671
0.27235517,-0.6262607
0.32517818,-0.60051358
0.37448007,-0.57341158
0.42628753,-0.53971493
0.47312877,-0.50369608
0.51557708,-0.46236587
0.5595277,-0.41546422
0.59667808,-0.36479878
0.62838733,-0.31226781
0.65718067,-0.25026846
0.6769889,-0.19104619
0.69207752,-0.12809464
0.69875079,-0.063249201
0.700876,-0.00085717317
0.69653946,0.061348051
0.68590295,0.12408338
0.67144102,0.18157931
0.65180045,0.24021459
0.62642288,0.29438594
0.60076499,0.34708098
0.56615716,0.39880884
0.53126484,0.44674835
0.49133226,0.49222979
0.44531223,0.53407133
0.39751381,0.57346445
0.3470563,0.60784268
0.28832132,0.63589162
0.23196298,0.66183007
0.17013887,0.67965919
0.10851321,0.69057822
0.042657297,0.69980264
-0.017808354,0.69934702
-0.081814535,0.69481319
-0.14498851,0.68572134
-0.20456716,0.67107952
-0.26195917,0.65085447
-0.32089421,0.62710005
-0.37139556,0.59692019
-0.42338243,0.56243497
-0.4721736,0.5206753
-0.51697761,0.47778454
-0.56131393,0.42749733
-0.60109127,0.37534648
-0.63665718,0.31970981
-0.66747981,0.2594136
-0.69371766,0.19872345
-0.71530765,0.13607191
-0.72916228,0.070648566
-0.7398147,0.0063502337
-0.74237394,-0.060551308
-0.73857909,-0.12678379
-0.73084259,-0.19189012
-0.7151323,-0.25776267
-0.69469678,-0.31981182
-0.66818541,-0.38180324
-0.6346634,-0.44046906
-0.59790176,-0.49555585
-0.55633056,-0.54818916
-0.50748527,-0.59513605
-0.45956942,-0.64044213
-0.40360013,-0.68025583
-0.3462016,-0.71333945
-0.28494653,-0.74501252
-0.22243644,-0.76822633
-0.15695032,-0.78560036
-0.090924695,-0.80050647
-0.022069825,-0.80670613
0.042838145,-0.80657178
0.11460876,-0.80312312
0.17771909,-0.7912069
0.24525961,-0.77581614
0.30892563,-0.7529822
0.37116647,-0.72538674
0.43050086,-0.69368166
0.48703218,-0.65629321
0.54044944,-0.61473268
0.59075469,-0.5687564
0.63527584,-0.51920444
0.67711729,-0.46547571
0.71375847,-0.40859279
0.74638039,-0.34786099
0.77331936,-0.28574118
0.79588699,-0.22004139
0.81035239,-0.15278174
0.82094175,-0.08484076
0.82486629,-0.015185804
0.82263309,0.053421106
0.81542552,0.12241919
0.80234867,0.18961363
0.78088647,0.25720391
0.75648773,0.32017258
0.72631031,0.38147593
0.68941426,0.4403815
0.65048188,0.49481437
END
BEGIN
-0.21079889,0.88346726
-0.28402665,0.85668403
-0.35436043,0.82403046
-0.42026952,0.78525877
-0.48212197,0.74044502
-0.53863275,0.69123769
-0.58968359,0.63880038
-0.63559192,0.58268225
-0.67677945,0.52397084
-0.71402299,0.46364325
-0.74626422,0.40089428
-0.77213156,0.3346515
-0.79523629,0.26678538
-0.81217211,0.19820237
-0.82331997,0.1266731
-0.82701021,0.05342431
-0.82506651,-0.019547578
-0.81416321,-0.092372485
-0.79754883,-0.16339868
-0.77364939,-0.23252723
-0.74429548,-0.29742193
-0.70835018,-0.35819149
-0.66855019,-0.41583031
-0.62497956,-0.46884915
-0.57790226,-0.51664358
-0.52646095,-0.56030601
-0.47585598,-0.60201144
-0.41896781,-0.63715023
-0.36116993,-0.66953927
-0.29996943,-0.69697177
-0.23604326,-0.71986747
-0.17032482,-0.73797452
-0.10110173,-0.74773139
-0.031875763,-0.751652
0.037723444,-0.74818051
0.10608299,-0.73759872
0.17414923,-0.72108239
0.23745382,-0.70088696
0.29910251,-0.67187428
0.35635355,-0.63947308
0.410597,-0.6030336
0.46011966,-0.56195277
0.5064643,-0.51742071
0.54896307,-0.47009701
0.58796144,-0.41879216
0.62224275,-0.36512524
0.65221989,-0.30657786
0.67718846,-0.2465255
0.69909579,-0.18353209
0.71054816,-0.11774211
0.71834493,-0.051112898
0.71782196,0.015670652
0.71009701,0.080757968
0.69782257,0.14434807
0.67831546,0.20587589
0.65252554,0.26377699
0.6250627,0.3202132
0.59070152,0.37212881
0.5545162,0.42019945
0.51194018,0.46603224
0.46788555,0.50700146
0.42027667,0.54567564
0.36879221,0.58025539
0.31453875,0.60866344
0.25809485,0.63228428
0.19720256,0.65048474
0.13903207,0.66412157
0.075570203,0.6709373
0.015351909,0.6701811
-0.045426663,0.66672152
-0.10477427,0.65628481
-0.16185068,0.6411466
-0.21757136,0.62011611
-0.27149862,0.59699166
-0.32295558,0.57162732
-0.37198922,0.54102278
-0.41850063,0.50336534
-0.46416026,0.46547443
-0.50637645,0.42181835
-0.54443628,0.37438366
-0.5794493,0.32261428
-0.60939443,0.2663492
-0.63258356,0.20702349
-0.65084839,0.14599009
-0.66193753,0.081976727
-0.66570914,0.020681862
-0.66518998,-0.043873351
-0.6573205,-0.10467356
-0.64547527,-0.16418755
-0.6272741,-0.22378303
-0.60533655,-0.27945107
-0.57888436,-0.33396715
-0.54797429,-0.38668931
-0.51193476,-0.43706399
-0.47244737,-0.48521468
-0.42721814,-0.52842999
-0.37849742,-0.5692718
-0.32352278,-0.60367793
-0.26640233,-0.63235039
-0.20497669,-0.65596282
-0.14321443,-0.67074466
-0.080053732,-0.68064404
-0.017825238,-0.68429744
0.044059623,-0.68183976
0.10217455,-0.67426556
0.16311504,-0.66310221
0.21578518,-0.64533287
0.27274194,-0.6265797
0.32494026,-0.60120744
0.37498972,-0.57335037
0.42582583,-0.53972387
0.47395942,-0.50430435
0.51482737,-0.46259752
0.56030715,-0.41607779
0.59650511,-0.36500144
0.62904423,-0.31226861
0.6569382,-0.25038609
0.67782289,-0.19082269
0.69211179,-0.12858126
0.69928455,-0.063556008
0.70098257,-0.0013599864
0.69670504,0.061367407
0.68570787,0.12369439
0.67169136,0.18164428
0.65132302,0.23979293
0.62759328,0.29448175
0.60029894,0.34659612
0.56693769,0.39878815
0.53136182,0.44661945
0.4915275,0.49239314
0.44569382,0.53429353
0.39783269,0.57338822
0.34707502,0.60761845
0.2887705,0.63582039
0.23200741,0.66230661
0.1703902,0.67997926
0.10878918,0.69051516
0.042888958,0.70016176
-0.017599618,0.69928825
-0.081534907,0.69520968
-0.14464779,0.68602073
-0.20436624,0.67163754
-0.26211515,0.65121907
-0.32063901,0.6279189
-0.3716352,0.59736121
-0.4233464,0.56300628
-0.47255126,0.52099925
-0.51683331,0.47828549
-0.5614481,0.42810428
-0.60097843,0.37559801
-0.63705438,0.32018068
-0.66793734,0.25952876
-0.69438887,0.19853225
-0.71575409,0.13701527
-0.72973448,0.070528336
-0.73950136,0.0067257527
-0.74289286,-0.061076369
-0.73868746,-0.12628756
-0.73133546,-0.19281156
-0.71548188,-0.25722393
-0.69477665,-0.3206082
-0.66896755,-0.3812077
-0.63575858,-0.44090617
-0.59842676,-0.49565452
-0.55696666,-0.54905134
-0.5079748,-0.59520751
-0.45987728,-0.64053863
-0.40369311,-0.68027759
-0.34622946,-0.71365207
-0.28464934,-0.74552077
-0.2221632,-0.76866573
-0.15704134,-0.78547722
-0.090712354,-0.80070573
-0.022712715,-0.80725837
0.043675546,-0.80738819
0.11437609,-0.80379313
0.17823431,-0.79114413
0.24449252,-0.77641827
0.30961818,-0.75328833
0.37139654,-0.72621071
0.43086955,-0.69455725
0.48746553,-0.65637976
0.54044867,-0.61567485
0.59071434,-0.56933355
0.63545752,-0.51896501
0.67788243,-0.46549851
0.71391058,-0.40789276
0.74717253,-0.34784985
0.77330422,-0.28556406
0.79631543,-0.22013369
0.81057614,-0.15237142
0.82101053,-0.084591657
0.82497054,-0.014980013
0.82248449,0.05313981
0.81602502,0.12178469
0.80227023,0.19054535
0.78089261,0.25749308
0.75700212,0.32057238
0.72610474,0.38072988
0.69003153,0.44050357
0.6505627,0.49469092
END
BEGIN
-0.30645478,-0.045850657
-0.32255167,-0.025820281
-0.33875474,-0.0079795811
-0.35419407,0.010600516
-0.36895177,0.029967221
-0.38141009,0.049053483
-0.39384928,0.068430714
-0.40088609,0.087620132
-0.40795037,0.10868733
-0.41031885,0.13020363
-0.41070569,0.15169388
-0.40826184,0.17478025
-0.40379164,0.19979632
-0.39734942,0.22384433
-0.38837004,0.25007874
-0.37788859,0.27696005
-0.36733752,0.30386034
-0.35520443,0.33064294
-0.34170821,0.35818186
-0.32826743,0.38467547
-0.31394067,0.40907684
-0.29802057,0.43282655
-0.28117082,0.45541808
-0.26412439,0.47474995
-0.24497628,0.49143556
-0.22453754,0.50708181
-0.20398755,0.52153093
-0.18093343,0.53134882
-0.15664499,0.54225528
-0.13142374,0.55076522
-0.10532014,0.55780786
-0.077903457,0.5638693
-0.048632029,0.57069522
-0.020379145,0.57535326
0.0087298267,0.57814366
0.037981354,0.58118981
0.06690789,0.58318651
0.092928559,0.58520406
0.12017076,0.58406734
0.14718731,0.58193064
0.1728662,0.57857597
0.19709764,0.57335401
0.22358437,0.56413758
0.24838072,0.55696422
0.27269596,0.54388392
0.29861668,0.53119463
0.32494584,0.51599622
0.35098532,0.50107509
0.37527773,0.48102751
0.402578,0.46321794
0.42806989,0.44296893
0.45320261,0.42345789
0.4770591,0.40099746
0.50090772,0.38048229
0.52269799,0.35794792
0.54389781,0.33483911
0.56366736,0.31009868
0.58090824,0.28387228
0.59782523,0.25847551
0.61255592,0.23094113
0.62480462,0.20086271
0.63880533,0.17206654
0.64738226,0.14025089
0.65670818,0.10627005
0.6661756,0.074761771
0.66930288,0.040690817
0.67556924,0.0062892181
0.67948967,-0.025985252
0.67987287,-0.057598501
0.68091673,-0.092336394
0.68092501,-0.12212707
0.67506188,-0.15416212
0.67140764,-0.18281572
0.66170931,-0.21196491
0.65373939,-0.241548
0.64242464,-0.26898223
0.62774807,-0.29505807
0.61166692,-0.32150549
0.59664172,-0.34806329
0.57584953,-0.37186512
0.55611676,-0.39864853
0.53644121,-0.42230815
0.51258111,-0.44571289
0.48976928,-0.46873233
0.46672496,-0.4918603
0.44252932,-0.51144785
0.4164688,-0.53124511
0.39158231,-0.55010653
0.36614889,-0.56572139
0.33931163,-0.57963997
0.31075701,-0.59370768
0.28492486,-0.6048454
0.25527978,-0.61196119
0.22508253,-0.62037736
0.19497691,-0.62614566
0.16337416,-0.63035727
0.13068891,-0.63394445
0.099248134,-0.6376344
0.066771723,-0.63906133
0.033980552,-0.64230442
0.0035648278,-0.6413148
-0.030413356,-0.64174223
-0.05980042,-0.64120275
-0.089810908,-0.63519114
-0.11986513,-0.63236785
-0.14811583,-0.62677354
-0.17295037,-0.61781514
-0.20260438,-0.60845375
-0.22674812,-0.59948248
-0.25055405,-0.58408064
-0.27630684,-0.57086205
-0.29999182,-0.55388945
-0.3224546,-0.53770715
-0.34506452,-0.51754034
-0.36775142,-0.49741778
-0.38876793,-0.47760016
-0.41001391,-0.45521423
-0.43173829,-0.43306607
-0.45145294,-0.41220886
-0.47024536,-0.38919386
-0.48802474,-0.36631942
-0.50499296,-0.34402788
-0.5195235,-0.32071361
-0.53421474,-0.29713961
-0.54502529,-0.27394491
-0.55600941,-0.24931696
-0.56351036,-0.22565907
-0.56915987,-0.19983073
-0.57379341,-0.1731762
-0.57776022,-0.14913164
-0.57615441,-0.12180503
-0.57681102,-0.093388796
-0.57407862,-0.069648303
-0.56937981,-0.040714104
-0.56424195,-0.013465984
-0.55944204,0.012615609
-0.55158168,0.037954953
-0.5429582,0.064598471
-0.53579795,0.086310364
-0.52597016,0.11114351
-0.51811498,0.13229631
-0.50872654,0.15451618
-0.50015795,0.17877172
-0.48578256,0.20090465
-0.47327808,0.22456527
-0.45488948,0.24466358
-0.43602559,0.26363796
-0.41859078,0.28066355
-0.39755678,0.29545552
-0.37814635,0.31051445
-0.35894445,0.32674053
-0.33775887,0.33916864
-0.31598821,0.35321146
