!Agilent Technologies,N5230C,MY48100320,A.08.04.10
!Agilent N5230C: A.08.04.10
!Date: Thursday, August 04, 2016 04:11:31
!Correction: S11(Full 2 Port(1,2)) 
!S21(Full 2 Port(1,2)) 
!S12(Full 2 Port(1,2)) 
!S22(Full 2 Port(1,2)) 
!S2P File: Measurements: S11, S21, S12, S22:
# Hz S  dB   R 50
1350270000 -2.994092e+001 -1.653705e+001 -8.734026e-002 -9.556975e+001 -8.977968e-002 -9.556691e+001 -3.085671e+001 8.718547e+000
1411018650 -3.002563e+001 -2.254016e+001 -8.891754e-002 -9.988480e+001 -9.084741e-002 -9.987917e+001 -3.072076e+001 1.073795e+001
1471767300 -2.948977e+001 -3.038283e+001 -8.878691e-002 -1.041641e+002 -9.387311e-002 -1.041623e+002 -3.005554e+001 9.000673e+000
1532515950 -2.881684e+001 -3.668882e+001 -1.047467e-001 -1.084991e+002 -1.057530e-001 -1.084988e+002 -2.907400e+001 6.833476e+000
1593264600 -2.884654e+001 -4.355987e+001 -1.043887e-001 -1.127639e+002 -1.051339e-001 -1.127587e+002 -2.904938e+001 7.038235e+000
1654013250 -2.872084e+001 -4.922446e+001 -1.041424e-001 -1.170790e+002 -1.096822e-001 -1.170598e+002 -2.838354e+001 5.635756e+000
1714761900 -2.847898e+001 -5.631535e+001 -1.049373e-001 -1.213667e+002 -1.014665e-001 -1.213584e+002 -2.832574e+001 1.272368e+000
1775510550 -2.853378e+001 -5.902832e+001 -1.099335e-001 -1.256855e+002 -1.060216e-001 -1.256687e+002 -2.783040e+001 3.945297e-001
1836259200 -2.844867e+001 -6.787180e+001 -1.037888e-001 -1.299659e+002 -1.089863e-001 -1.299497e+002 -2.793883e+001 -3.992693e+000
1897007850 -2.871880e+001 -7.010015e+001 -1.151684e-001 -1.342772e+002 -1.110514e-001 -1.342554e+002 -2.761871e+001 -6.328282e+000
1957756500 -2.868415e+001 -7.653082e+001 -1.089356e-001 -1.385644e+002 -1.100034e-001 -1.385462e+002 -2.792067e+001 -1.190615e+001
2018505150 -2.953284e+001 -7.875275e+001 -1.122991e-001 -1.428651e+002 -1.107941e-001 -1.428455e+002 -2.805232e+001 -1.466202e+001
2079253800 -2.972509e+001 -8.386571e+001 -1.062646e-001 -1.471572e+002 -1.101358e-001 -1.471468e+002 -2.855681e+001 -1.859823e+001
2140002450 -3.048912e+001 -8.770287e+001 -1.031030e-001 -1.514485e+002 -1.102993e-001 -1.514297e+002 -2.898258e+001 -2.424457e+001
2200751100 -3.141006e+001 -8.814921e+001 -9.333052e-002 -1.557511e+002 -9.901174e-002 -1.557278e+002 -2.964262e+001 -3.055052e+001
2261499750 -3.287048e+001 -8.796013e+001 -1.120906e-001 -1.600381e+002 -1.085826e-001 -1.600264e+002 -3.064537e+001 -3.455437e+001
2322248400 -3.366649e+001 -9.372085e+001 -1.050523e-001 -1.643516e+002 -1.132694e-001 -1.643310e+002 -3.206916e+001 -4.217589e+001
2382997050 -3.643941e+001 -7.978545e+001 -1.026538e-001 -1.686385e+002 -1.086947e-001 -1.686135e+002 -3.315775e+001 -4.805830e+001
2443745700 -3.785749e+001 -7.844240e+001 -1.054069e-001 -1.729331e+002 -1.067555e-001 -1.729250e+002 -3.544124e+001 -6.140240e+001
2504494350 -4.061589e+001 -5.841217e+001 -1.061661e-001 -1.772240e+002 -1.051411e-001 -1.772144e+002 -3.859783e+001 -6.955918e+001
2565243000 -4.022881e+001 -3.277912e+001 -1.039207e-001 1.784677e+002 -1.067751e-001 1.784871e+002 -4.060632e+001 -9.958810e+001
2625991650 -3.850614e+001 -1.063120e+001 -1.022859e-001 1.741873e+002 -1.105130e-001 1.742024e+002 -4.375182e+001 -1.353366e+002
2686740300 -3.612100e+001 -2.493415e-002 -1.007818e-001 1.698865e+002 -1.036251e-001 1.699067e+002 -4.228704e+001 1.795111e+002
2747488950 -3.336558e+001 8.960379e+000 -1.034029e-001 1.655964e+002 -1.078926e-001 1.656228e+002 -3.844203e+001 1.501804e+002
2808237600 -3.218478e+001 7.451706e+000 -1.076860e-001 1.612980e+002 -1.110782e-001 1.613172e+002 -3.579124e+001 1.413383e+002
2868986250 -3.004432e+001 9.156590e+000 -1.067047e-001 1.570180e+002 -1.196498e-001 1.570343e+002 -3.355207e+001 1.251502e+002
2929734900 -2.926770e+001 7.320273e+000 -1.034562e-001 1.527104e+002 -1.080500e-001 1.527330e+002 -3.174332e+001 1.193338e+002
2990483550 -2.810687e+001 6.747017e+000 -1.238109e-001 1.484478e+002 -1.215299e-001 1.484555e+002 -3.089465e+001 1.085109e+002
3051232200 -2.750186e+001 3.722058e+000 -1.125705e-001 1.441451e+002 -1.188005e-001 1.441661e+002 -2.992963e+001 1.021666e+002
3111980850 -2.679320e+001 3.537582e+000 -1.200761e-001 1.398644e+002 -1.173023e-001 1.398853e+002 -2.890014e+001 9.369297e+001
3172729500 -2.678426e+001 3.838743e-001 -1.095598e-001 1.355318e+002 -1.331420e-001 1.355653e+002 -2.856577e+001 8.615419e+001
3233478150 -2.601373e+001 -5.353575e-002 -1.134556e-001 1.313064e+002 -1.287828e-001 1.313191e+002 -2.813963e+001 7.910777e+001
3294226800 -2.605553e+001 -3.315835e+000 -1.135501e-001 1.270055e+002 -1.197053e-001 1.270371e+002 -2.771745e+001 7.134512e+001
3354975450 -2.591595e+001 -3.777981e+000 -1.200330e-001 1.227360e+002 -1.150938e-001 1.227462e+002 -2.785948e+001 6.281546e+001
3415724100 -2.644121e+001 -6.152778e+000 -1.092891e-001 1.184349e+002 -1.206395e-001 1.184679e+002 -2.768436e+001 5.401857e+001
3476472750 -2.666715e+001 -7.466334e+000 -1.182049e-001 1.141695e+002 -1.245427e-001 1.141749e+002 -2.780351e+001 4.460768e+001
3537221400 -2.765464e+001 -1.038697e+001 -1.140528e-001 1.098633e+002 -1.169173e-001 1.098647e+002 -2.826085e+001 3.693705e+001
3597970050 -2.796991e+001 -6.838734e+000 -1.146591e-001 1.055725e+002 -1.146319e-001 1.055835e+002 -2.868520e+001 2.599354e+001
3658718700 -2.923948e+001 -1.160107e+001 -1.128960e-001 1.012625e+002 -1.140324e-001 1.013072e+002 -2.908393e+001 1.422621e+001
3719467350 -2.984808e+001 -6.064713e+000 -1.182380e-001 9.699539e+001 -1.229429e-001 9.699353e+001 -2.945307e+001 2.297590e+000
3780216000 -3.140931e+001 -1.826393e+000 -1.088660e-001 9.267356e+001 -1.156250e-001 9.270470e+001 -3.027493e+001 -1.262694e+001
3840964650 -3.314983e+001 2.691983e+000 -1.033938e-001 8.838533e+001 -1.130010e-001 8.839615e+001 -3.039046e+001 -3.060878e+001
3901713300 -3.430703e+001 1.619477e+001 -1.092313e-001 8.407207e+001 -1.132868e-001 8.410612e+001 -3.068851e+001 -4.469160e+001
3962461950 -3.450827e+001 3.081242e+001 -1.176987e-001 7.976583e+001 -1.213061e-001 7.980637e+001 -3.035226e+001 -6.259843e+001
4023210600 -3.522022e+001 4.351204e+001 -1.063742e-001 7.546674e+001 -1.222352e-001 7.550681e+001 -2.986286e+001 -7.785551e+001
4083959250 -3.294929e+001 5.885129e+001 -1.171219e-001 7.119125e+001 -1.098095e-001 7.120989e+001 -2.930921e+001 -9.067467e+001
4144707900 -3.282022e+001 6.941270e+001 -1.146018e-001 6.687582e+001 -1.146463e-001 6.690008e+001 -2.846204e+001 -1.056142e+002
4205456550 -3.101464e+001 7.073809e+001 -1.024215e-001 6.255536e+001 -1.077360e-001 6.258205e+001 -2.800744e+001 -1.141697e+002
4266205200 -3.008000e+001 7.661197e+001 -1.109056e-001 5.828604e+001 -1.205566e-001 5.833582e+001 -2.738740e+001 -1.266749e+002
4326953850 -2.905555e+001 7.614407e+001 -1.188174e-001 5.399625e+001 -1.240981e-001 5.403134e+001 -2.706876e+001 -1.351639e+002
4387702500 -2.852508e+001 7.667332e+001 -1.169632e-001 4.973555e+001 -1.263155e-001 4.976296e+001 -2.677187e+001 -1.451017e+002
4448451150 -2.780301e+001 7.603886e+001 -1.319795e-001 4.544138e+001 -1.254740e-001 4.546517e+001 -2.642546e+001 -1.535338e+002
4509199800 -2.776745e+001 7.871739e+001 -1.125808e-001 4.115411e+001 -1.257207e-001 4.117225e+001 -2.632953e+001 -1.633616e+002
4569948450 -2.715258e+001 7.321034e+001 -1.220180e-001 3.688817e+001 -1.249435e-001 3.692826e+001 -2.656696e+001 -1.699480e+002
4630697100 -2.751779e+001 7.573058e+001 -1.109407e-001 3.262221e+001 -1.347342e-001 3.265347e+001 -2.671996e+001 1.790447e+002
4691445750 -2.766709e+001 7.376064e+001 -1.368095e-001 2.835150e+001 -1.262331e-001 2.835720e+001 -2.737076e+001 1.711145e+002
4752194400 -2.818061e+001 7.355022e+001 -1.191200e-001 2.405273e+001 -1.246985e-001 2.408389e+001 -2.779112e+001 1.608905e+002
4812943050 -2.872960e+001 7.224065e+001 -1.226227e-001 1.976033e+001 -1.346379e-001 1.978841e+001 -2.874644e+001 1.521853e+002
4873691700 -3.051674e+001 7.544362e+001 -1.134769e-001 1.547557e+001 -1.326777e-001 1.551029e+001 -2.994809e+001 1.375736e+002
4934440350 -3.121471e+001 7.316341e+001 -1.188437e-001 1.119935e+001 -1.196599e-001 1.123119e+001 -3.134155e+001 1.283069e+002
4995189000 -3.313717e+001 8.066315e+001 -1.214865e-001 6.911676e+000 -1.299820e-001 6.918324e+000 -3.230597e+001 1.087487e+002
5055937650 -3.538844e+001 8.143278e+001 -1.199711e-001 2.617877e+000 -1.215611e-001 2.634678e+000 -3.358035e+001 8.575840e+001
5116686300 -3.586653e+001 9.758824e+001 -1.208245e-001 -1.683689e+000 -1.227187e-001 -1.668621e+000 -3.297418e+001 6.997334e+001
5177434950 -3.777279e+001 1.133717e+002 -1.242531e-001 -5.995613e+000 -1.309860e-001 -5.960354e+000 -3.282659e+001 3.931535e+001
5238183600 -3.680617e+001 1.416079e+002 -1.257261e-001 -1.029785e+001 -1.362151e-001 -1.026439e+001 -3.116836e+001 2.945512e+001
5298932250 -3.537295e+001 1.390845e+002 -1.207018e-001 -1.468858e+001 -1.286285e-001 -1.464821e+001 -3.048355e+001 1.102527e+001
5359680900 -3.319742e+001 1.598640e+002 -1.150324e-001 -1.898244e+001 -1.325925e-001 -1.896051e+001 -2.881971e+001 1.084357e-001
5420429550 -3.227890e+001 1.570079e+002 -1.299738e-001 -2.326652e+001 -1.334811e-001 -2.323358e+001 -2.740065e+001 -9.326077e+000
5481178200 -3.058402e+001 1.615684e+002 -1.243902e-001 -2.756436e+001 -1.371218e-001 -2.756725e+001 -2.709917e+001 -1.895248e+001
5541926850 -2.999306e+001 1.645927e+002 -1.349553e-001 -3.188470e+001 -1.370784e-001 -3.185723e+001 -2.606700e+001 -2.881205e+001
5602675500 -2.923833e+001 1.597260e+002 -1.342224e-001 -3.617844e+001 -1.443703e-001 -3.613340e+001 -2.567225e+001 -3.361183e+001
5663424150 -2.881886e+001 1.620024e+002 -1.342697e-001 -4.047533e+001 -1.310298e-001 -4.043767e+001 -2.518635e+001 -4.330203e+001
5724172800 -2.867673e+001 1.600085e+002 -1.365977e-001 -4.472460e+001 -1.360540e-001 -4.469684e+001 -2.516517e+001 -4.590231e+001
5784921450 -2.917413e+001 1.563246e+002 -1.397447e-001 -4.901102e+001 -1.397326e-001 -4.898496e+001 -2.487287e+001 -5.550120e+001
5845670100 -2.874421e+001 1.570629e+002 -1.320379e-001 -5.330171e+001 -1.350996e-001 -5.328803e+001 -2.525721e+001 -5.813546e+001
5906418750 -2.978128e+001 1.542960e+002 -1.294773e-001 -5.761224e+001 -1.290532e-001 -5.758289e+001 -2.550465e+001 -6.650943e+001
5967167400 -3.042043e+001 1.522107e+002 -1.451436e-001 -6.190331e+001 -1.478290e-001 -6.187448e+001 -2.606614e+001 -7.155764e+001
6027916050 -3.127324e+001 1.486796e+002 -1.440944e-001 -6.618504e+001 -1.436090e-001 -6.614248e+001 -2.642312e+001 -7.482431e+001
6088664700 -3.290327e+001 1.468277e+002 -1.413766e-001 -7.047417e+001 -1.432096e-001 -7.042968e+001 -2.755132e+001 -8.018665e+001
6149413350 -3.452894e+001 1.480389e+002 -1.260242e-001 -7.475113e+001 -1.433573e-001 -7.469221e+001 -2.826673e+001 -8.807273e+001
6210162000 -3.580441e+001 1.474207e+002 -1.326064e-001 -7.903609e+001 -1.309197e-001 -7.900948e+001 -2.999127e+001 -8.787686e+001
6270910650 -4.049468e+001 1.627556e+002 -1.231172e-001 -8.331758e+001 -1.272147e-001 -8.326263e+001 -3.120530e+001 -9.981889e+001
6331659300 -4.226855e+001 1.505807e+002 -1.244720e-001 -8.762280e+001 -1.350769e-001 -8.758998e+001 -3.431981e+001 -1.033484e+002
6392407950 -4.552313e+001 -1.289159e+002 -1.286093e-001 -9.193837e+001 -1.319349e-001 -9.187561e+001 -3.550220e+001 -1.018282e+002
6453156600 -4.463495e+001 -9.070309e+001 -1.260215e-001 -9.620862e+001 -1.298670e-001 -9.617199e+001 -4.319657e+001 -1.100152e+002
6513905250 -4.039605e+001 -8.463169e+001 -1.245603e-001 -1.005155e+002 -1.365427e-001 -1.004486e+002 -4.739044e+001 -1.063302e+002
6574653900 -3.595917e+001 -8.398233e+001 -1.287444e-001 -1.048170e+002 -1.357270e-001 -1.047962e+002 -4.559888e+001 2.891611e+001
6635402550 -3.480965e+001 -8.314123e+001 -1.267088e-001 -1.091386e+002 -1.340343e-001 -1.090654e+002 -4.307408e+001 5.707067e+001
6696151200 -3.407317e+001 -8.411977e+001 -1.295756e-001 -1.134154e+002 -1.373429e-001 -1.133774e+002 -3.776474e+001 4.052362e+001
6756899850 -3.147605e+001 -9.196658e+001 -1.302539e-001 -1.177176e+002 -1.342411e-001 -1.176752e+002 -3.595681e+001 4.469166e+001
6817648500 -3.250074e+001 -8.943678e+001 -1.347295e-001 -1.220079e+002 -1.405897e-001 -1.219824e+002 -3.346434e+001 4.248349e+001
6878397150 -3.068073e+001 -9.791339e+001 -1.337673e-001 -1.263268e+002 -1.417766e-001 -1.262706e+002 -3.296544e+001 3.585535e+001
6939145800 -3.118139e+001 -9.938698e+001 -1.392061e-001 -1.305990e+002 -1.398042e-001 -1.305632e+002 -3.117183e+001 3.503939e+001
6999894450 -3.063327e+001 -1.043211e+002 -1.322320e-001 -1.349112e+002 -1.401415e-001 -1.348369e+002 -3.205447e+001 3.294371e+001
7060643100 -3.103865e+001 -1.107912e+002 -1.370621e-001 -1.391968e+002 -1.389996e-001 -1.391524e+002 -3.070859e+001 2.919804e+001
7121391750 -3.112868e+001 -1.138565e+002 -1.396033e-001 -1.435231e+002 -1.401721e-001 -1.434387e+002 -3.130636e+001 3.070580e+001
7182140400 -3.208700e+001 -1.192203e+002 -1.355334e-001 -1.477897e+002 -1.460491e-001 -1.477471e+002 -3.080386e+001 2.713375e+001
7242889050 -3.203299e+001 -1.281536e+002 -1.417615e-001 -1.521100e+002 -1.424747e-001 -1.520259e+002 -3.088770e+001 2.402816e+001
7303637700 -3.404636e+001 -1.262572e+002 -1.355723e-001 -1.563883e+002 -1.422178e-001 -1.563329e+002 -3.178498e+001 2.277402e+001
7364386350 -3.401481e+001 -1.433623e+002 -1.310839e-001 -1.606456e+002 -1.406612e-001 -1.605790e+002 -3.183870e+001 2.385405e+001
7425135000 -3.709795e+001 -1.521023e+002 -1.405608e-001 -1.649345e+002 -1.383062e-001 -1.648951e+002 -3.201421e+001 1.935624e+001
7485883650 -3.753133e+001 -1.600574e+002 -1.379878e-001 -1.692908e+002 -1.502414e-001 -1.691969e+002 -3.384211e+001 3.130627e+001
7546632300 -3.845969e+001 1.601726e+002 -1.400080e-001 -1.735518e+002 -1.423459e-001 -1.734868e+002 -3.251879e+001 2.264119e+001
7607380950 -4.071039e+001 1.553159e+002 -1.385186e-001 -1.778629e+002 -1.365315e-001 -1.777815e+002 -3.439057e+001 3.120891e+001
7668129600 -3.967197e+001 1.149227e+002 -1.315510e-001 1.778324e+002 -1.436578e-001 1.778940e+002 -3.507719e+001 4.059211e+001
7728878250 -3.615210e+001 1.112055e+002 -1.381177e-001 1.735513e+002 -1.365697e-001 1.736343e+002 -3.401606e+001 3.428879e+001
7789626900 -3.751819e+001 7.868739e+001 -1.371062e-001 1.692565e+002 -1.387977e-001 1.693241e+002 -3.440847e+001 4.684919e+001
7850375550 -3.519827e+001 8.210104e+001 -1.406202e-001 1.649399e+002 -1.478671e-001 1.650270e+002 -3.432759e+001 5.851348e+001
7911124200 -3.365907e+001 6.900452e+001 -1.449971e-001 1.606401e+002 -1.422440e-001 1.607105e+002 -3.445952e+001 4.092659e+001
7971872850 -3.434653e+001 5.720894e+001 -1.396670e-001 1.563491e+002 -1.415694e-001 1.564151e+002 -3.317910e+001 6.023735e+001
8032621500 -3.253845e+001 5.358470e+001 -1.402535e-001 1.520580e+002 -1.481612e-001 1.521091e+002 -3.409339e+001 5.638988e+001
8093370150 -3.290562e+001 5.211038e+001 -1.439045e-001 1.477566e+002 -1.433420e-001 1.478204e+002 -3.334266e+001 5.191978e+001
8154118800 -3.200614e+001 3.352835e+001 -1.443264e-001 1.434926e+002 -1.504205e-001 1.435643e+002 -3.301037e+001 5.490410e+001
8214867450 -3.224479e+001 4.150631e+001 -1.454208e-001 1.391630e+002 -1.487127e-001 1.392036e+002 -3.296143e+001 5.537685e+001
8275616100 -3.211906e+001 2.849968e+001 -1.472431e-001 1.348567e+002 -1.501163e-001 1.349185e+002 -3.388169e+001 4.573119e+001
8336364750 -3.245255e+001 2.392434e+001 -1.494172e-001 1.305676e+002 -1.513539e-001 1.306225e+002 -3.309875e+001 4.804235e+001
8397113400 -3.294240e+001 2.399219e+001 -1.456954e-001 1.262759e+002 -1.535369e-001 1.263611e+002 -3.392938e+001 3.825695e+001
8457862050 -3.408533e+001 2.038172e+001 -1.503761e-001 1.219715e+002 -1.529032e-001 1.220430e+002 -3.407270e+001 3.239336e+001
8518610700 -3.380630e+001 9.406985e+000 -1.421037e-001 1.177047e+002 -1.551618e-001 1.177835e+002 -3.551066e+001 2.576865e+001
8579359350 -3.738364e+001 2.257033e+001 -1.508109e-001 1.133800e+002 -1.520371e-001 1.134552e+002 -3.481997e+001 1.664684e+001
8640108000 -3.669992e+001 4.583450e+000 -1.493648e-001 1.090989e+002 -1.557418e-001 1.091953e+002 -3.769201e+001 1.465904e+000
8700856650 -4.067524e+001 5.088294e+000 -1.526285e-001 1.047973e+002 -1.595412e-001 1.048572e+002 -3.743074e+001 4.111400e+000
8761605300 -4.327597e+001 1.794452e+001 -1.536550e-001 1.004896e+002 -1.591281e-001 1.005952e+002 -3.693188e+001 -2.502646e+001
8822353950 -4.625916e+001 1.643585e+001 -1.564933e-001 9.620387e+001 -1.592981e-001 9.628513e+001 -3.946719e+001 -3.289496e+001
8883102600 -5.138850e+001 -3.984285e+000 -1.526979e-001 9.190722e+001 -1.611697e-001 9.199781e+001 -3.960225e+001 -5.014258e+001
8943851250 -4.653449e+001 1.164363e+002 -1.573110e-001 8.767312e+001 -1.551455e-001 8.772274e+001 -3.754627e+001 -5.242308e+001
9004599900 -5.049375e+001 1.591146e+001 -1.566382e-001 8.333221e+001 -1.669925e-001 8.344598e+001 -3.928114e+001 -8.525307e+001
9065348550 -4.333096e+001 1.203539e+002 -1.638548e-001 7.906710e+001 -1.636833e-001 7.910159e+001 -3.783245e+001 -6.937019e+001
9126097200 -4.271894e+001 1.060130e+002 -1.588466e-001 7.473247e+001 -1.608511e-001 7.483215e+001 -3.596070e+001 -9.576243e+001
9186845850 -4.280933e+001 7.867404e+001 -1.572451e-001 7.048514e+001 -1.637892e-001 7.052811e+001 -3.739719e+001 -1.068686e+002
9247594500 -4.034579e+001 9.538660e+001 -1.612796e-001 6.616486e+001 -1.619020e-001 6.626053e+001 -3.456918e+001 -1.007219e+002
9308343150 -3.830171e+001 7.776622e+001 -1.603768e-001 6.192812e+001 -1.586156e-001 6.199007e+001 -3.554015e+001 -1.082789e+002
9369091800 -4.013215e+001 4.478563e+001 -1.590795e-001 5.761261e+001 -1.679110e-001 5.770422e+001 -3.462996e+001 -1.256459e+002
9429840450 -3.571321e+001 7.668340e+001 -1.667199e-001 5.328666e+001 -1.636746e-001 5.335858e+001 -3.358062e+001 -1.070529e+002
9490589100 -3.625107e+001 4.129044e+001 -1.626144e-001 4.896279e+001 -1.682749e-001 4.908080e+001 -3.322994e+001 -1.281888e+002
9551337750 -3.432536e+001 4.582124e+001 -1.623663e-001 4.471467e+001 -1.704316e-001 4.476939e+001 -3.319474e+001 -1.296685e+002
9612086400 -3.486708e+001 4.839606e+001 -1.621256e-001 4.041302e+001 -1.698422e-001 4.051546e+001 -3.230333e+001 -1.259125e+002
9672835050 -3.296419e+001 3.210307e+001 -1.655898e-001 3.617243e+001 -1.688916e-001 3.620156e+001 -3.331219e+001 -1.359417e+002
9733583700 -3.309484e+001 2.891307e+001 -1.625556e-001 3.185223e+001 -1.692145e-001 3.193475e+001 -3.246547e+001 -1.475990e+002
9794332350 -3.271391e+001 3.856680e+001 -1.650784e-001 2.753408e+001 -1.686547e-001 2.756644e+001 -3.242496e+001 -1.382416e+002
9855081000 -3.196989e+001 1.444158e+001 -1.651915e-001 2.322972e+001 -1.724686e-001 2.330459e+001 -3.223201e+001 -1.609966e+002
9915829650 -3.078587e+001 2.321755e+001 -1.652966e-001 1.896502e+001 -1.701495e-001 1.898617e+001 -3.274036e+001 -1.570971e+002
9976578300 -3.196807e+001 1.784020e+001 -1.697819e-001 1.466535e+001 -1.710735e-001 1.472108e+001 -3.207017e+001 -1.664397e+002
10037326950 -2.967619e+001 1.202960e+001 -1.708285e-001 1.038111e+001 -1.731359e-001 1.038842e+001 -3.183529e+001 -1.796724e+002
10098075600 -3.005206e+001 1.174441e+001 -1.677318e-001 6.020666e+000 -1.687369e-001 6.079021e+000 -3.159206e+001 1.744497e+002
10158824250 -2.978187e+001 1.684830e+001 -1.701929e-001 1.760548e+000 -1.761414e-001 1.777624e+000 -3.176698e+001 1.638441e+002
10219572900 -2.897748e+001 5.496503e+000 -1.770460e-001 -2.524633e+000 -1.792237e-001 -2.484178e+000 -3.035363e+001 1.456666e+002
10280321550 -2.836083e+001 1.564217e+001 -1.756444e-001 -6.810529e+000 -1.771777e-001 -6.828827e+000 -3.184710e+001 1.450428e+002
10341070200 -2.869940e+001 1.002551e+001 -1.818850e-001 -1.111691e+001 -1.850353e-001 -1.104925e+001 -2.974183e+001 1.267079e+002
10401818850 -2.765521e+001 1.122753e+001 -1.810611e-001 -1.539082e+001 -1.829486e-001 -1.535016e+001 -3.020854e+001 1.164810e+002
10462567500 -2.819227e+001 1.745495e+001 -1.815149e-001 -1.972671e+001 -1.813254e-001 -1.963780e+001 -3.002751e+001 1.056986e+002
10523316150 -2.697278e+001 1.214267e+001 -1.837398e-001 -2.399824e+001 -1.901218e-001 -2.389301e+001 -2.854176e+001 9.649042e+001
10584064800 -2.747687e+001 1.424623e+001 -1.902660e-001 -2.823260e+001 -1.883825e-001 -2.815065e+001 -2.796470e+001 8.442632e+001
