!Agilent Technologies,N5230C,MY48100320,A.08.04.10
!Agilent N5230C: A.08.04.10
!Date: Tuesday, August 23, 2016 04:03:27
!Correction: S11(Full 2 Port(1,2)) 
!S21(Full 2 Port(1,2)) 
!S12(Full 2 Port(1,2)) 
!S22(Full 2 Port(1,2)) 
!S2P File: Measurements: S11, S21, S12, S22:
# Hz S  dB   R 50
1350270000 -3.030075e+001 -1.699585e+001 -8.589549e-002 -9.571436e+001 -9.865063e-002 -9.571221e+001 -3.144514e+001 9.557610e+000
1411018650 -3.015706e+001 -2.395489e+001 -8.868166e-002 -1.000448e+002 -9.959834e-002 -1.000165e+002 -3.092202e+001 1.138938e+001
1471767300 -2.945196e+001 -3.267057e+001 -8.838134e-002 -1.043265e+002 -1.029875e-001 -1.043225e+002 -3.007084e+001 1.011830e+001
1532515950 -2.876744e+001 -3.788799e+001 -1.066509e-001 -1.086666e+002 -1.144746e-001 -1.086545e+002 -2.910345e+001 7.306377e+000
1593264600 -2.865461e+001 -4.503672e+001 -1.023014e-001 -1.129472e+002 -1.083910e-001 -1.129343e+002 -2.896062e+001 6.304814e+000
1654013250 -2.840629e+001 -5.085032e+001 -1.032297e-001 -1.172627e+002 -1.175476e-001 -1.172445e+002 -2.812510e+001 4.451093e+000
1714761900 -2.813103e+001 -5.691293e+001 -1.031619e-001 -1.215547e+002 -1.102970e-001 -1.215410e+002 -2.801542e+001 1.064039e-001
1775510550 -2.818135e+001 -5.942478e+001 -1.076528e-001 -1.258860e+002 -1.107231e-001 -1.258624e+002 -2.761660e+001 -1.432266e+000
1836259200 -2.808763e+001 -6.767785e+001 -1.128449e-001 -1.301663e+002 -1.194220e-001 -1.301517e+002 -2.766931e+001 -6.736252e+000
1897007850 -2.834977e+001 -6.895953e+001 -1.159080e-001 -1.344875e+002 -1.166104e-001 -1.344626e+002 -2.736032e+001 -9.210501e+000
1957756500 -2.834531e+001 -7.477373e+001 -1.094086e-001 -1.387802e+002 -1.199707e-001 -1.387528e+002 -2.775397e+001 -1.469490e+001
2018505150 -2.914305e+001 -7.601619e+001 -1.142517e-001 -1.430942e+002 -1.198414e-001 -1.430736e+002 -2.800878e+001 -1.848393e+001
2079253800 -2.932901e+001 -7.959888e+001 -1.120044e-001 -1.473880e+002 -1.191579e-001 -1.473828e+002 -2.844255e+001 -2.320143e+001
2140002450 -2.996428e+001 -8.238904e+001 -1.055385e-001 -1.516902e+002 -1.205694e-001 -1.516773e+002 -2.891426e+001 -2.858985e+001
2200751100 -3.075517e+001 -8.122318e+001 -1.031329e-001 -1.560003e+002 -1.073935e-001 -1.559830e+002 -2.978225e+001 -3.649848e+001
2261499750 -3.203537e+001 -7.778968e+001 -1.186131e-001 -1.602991e+002 -1.175812e-001 -1.602800e+002 -3.089682e+001 -4.230402e+001
2322248400 -3.261373e+001 -8.076804e+001 -1.123440e-001 -1.646054e+002 -1.207148e-001 -1.645842e+002 -3.228732e+001 -5.172371e+001
2382997050 -3.422931e+001 -6.551348e+001 -1.083238e-001 -1.688999e+002 -1.175691e-001 -1.688855e+002 -3.375478e+001 -6.034701e+001
2443745700 -3.511748e+001 -6.020737e+001 -1.067952e-001 -1.732010e+002 -1.236357e-001 -1.731943e+002 -3.589873e+001 -8.071090e+001
2504494350 -3.618457e+001 -4.341793e+001 -1.071258e-001 -1.775045e+002 -1.225177e-001 -1.774788e+002 -3.878296e+001 -9.791952e+001
2565243000 -3.563185e+001 -2.941947e+001 -1.067302e-001 1.781926e+002 -1.219933e-001 1.781965e+002 -3.947359e+001 -1.321674e+002
2625991650 -3.434293e+001 -1.296045e+001 -1.102154e-001 1.738927e+002 -1.179952e-001 1.738995e+002 -3.927731e+001 -1.700261e+002
2686740300 -3.276220e+001 -4.765787e+000 -1.089106e-001 1.695944e+002 -1.200660e-001 1.696087e+002 -3.707069e+001 1.649863e+002
2747488950 -3.092975e+001 3.572526e+000 -1.148610e-001 1.653013e+002 -1.213927e-001 1.653120e+002 -3.480296e+001 1.447472e+002
2808237600 -2.998981e+001 3.160509e+000 -1.133734e-001 1.609895e+002 -1.273073e-001 1.610084e+002 -3.299235e+001 1.367141e+002
2868986250 -2.832522e+001 5.878462e+000 -1.154698e-001 1.567167e+002 -1.351345e-001 1.567241e+002 -3.132782e+001 1.233350e+002
2929734900 -2.766652e+001 5.271558e+000 -1.134336e-001 1.523951e+002 -1.296502e-001 1.524228e+002 -3.013365e+001 1.156148e+002
2990483550 -2.669520e+001 5.351149e+000 -1.315858e-001 1.481316e+002 -1.368752e-001 1.481441e+002 -2.935098e+001 1.044067e+002
3051232200 -2.619674e+001 3.381978e+000 -1.237422e-001 1.438295e+002 -1.309270e-001 1.438452e+002 -2.859615e+001 9.764149e+001
3111980850 -2.560540e+001 3.984780e+000 -1.258311e-001 1.395448e+002 -1.363646e-001 1.395602e+002 -2.793077e+001 8.828465e+001
3172729500 -2.571928e+001 1.527470e+000 -1.252263e-001 1.352162e+002 -1.379309e-001 1.352342e+002 -2.766224e+001 7.977212e+001
3233478150 -2.522118e+001 1.146183e+000 -1.252536e-001 1.309871e+002 -1.387138e-001 1.309990e+002 -2.741814e+001 7.252646e+001
3294226800 -2.535050e+001 -1.368550e+000 -1.156546e-001 1.266789e+002 -1.348140e-001 1.267037e+002 -2.726771e+001 6.457552e+001
3354975450 -2.530840e+001 -1.751733e+000 -1.410805e-001 1.223961e+002 -1.460854e-001 1.224096e+002 -2.739206e+001 5.522010e+001
3415724100 -2.599436e+001 -4.099750e+000 -1.230109e-001 1.180976e+002 -1.422647e-001 1.181294e+002 -2.726196e+001 4.695458e+001
3476472750 -2.628656e+001 -4.350059e+000 -1.338385e-001 1.138191e+002 -1.357200e-001 1.138342e+002 -2.751132e+001 3.719228e+001
3537221400 -2.736684e+001 -6.315999e+000 -1.286346e-001 1.095072e+002 -1.411722e-001 1.095283e+002 -2.806499e+001 2.796223e+001
3597970050 -2.794854e+001 -2.677698e+000 -1.221949e-001 1.052023e+002 -1.314854e-001 1.052254e+002 -2.855297e+001 1.723546e+001
3658718700 -2.936276e+001 -4.959613e+000 -1.249310e-001 1.008999e+002 -1.307096e-001 1.009443e+002 -2.910651e+001 4.622422e+000
3719467350 -2.986989e+001 1.268116e+000 -1.224926e-001 9.661308e+001 -1.328473e-001 9.663570e+001 -2.936822e+001 -8.676046e+000
3780216000 -3.168426e+001 7.122203e+000 -1.213138e-001 9.229334e+001 -1.363326e-001 9.233343e+001 -3.010777e+001 -2.360583e+001
3840964650 -3.315914e+001 1.564207e+001 -1.190933e-001 8.799235e+001 -1.311024e-001 8.802220e+001 -3.015563e+001 -4.173153e+001
3901713300 -3.370959e+001 2.936613e+001 -1.270695e-001 8.368027e+001 -1.317454e-001 8.372881e+001 -3.024938e+001 -5.656946e+001
3962461950 -3.386469e+001 4.492167e+001 -1.276108e-001 7.937850e+001 -1.311948e-001 7.941548e+001 -2.976202e+001 -7.322819e+001
4023210600 -3.395175e+001 5.888131e+001 -1.113484e-001 7.507410e+001 -1.501638e-001 7.511353e+001 -2.926679e+001 -8.866061e+001
4083959250 -3.197570e+001 6.756942e+001 -1.338302e-001 7.078194e+001 -1.414017e-001 7.081707e+001 -2.887491e+001 -1.004171e+002
4144707900 -3.213426e+001 7.963376e+001 -1.188512e-001 6.647241e+001 -1.384977e-001 6.650658e+001 -2.818392e+001 -1.136912e+002
4205456550 -3.046844e+001 8.118037e+001 -1.304266e-001 6.213938e+001 -1.342849e-001 6.219186e+001 -2.790322e+001 -1.233347e+002
4266205200 -2.970743e+001 8.612281e+001 -1.261003e-001 5.788547e+001 -1.415844e-001 5.792567e+001 -2.736421e+001 -1.350587e+002
4326953850 -2.929195e+001 8.663748e+001 -1.462644e-001 5.358012e+001 -1.511769e-001 5.362762e+001 -2.741301e+001 -1.427734e+002
4387702500 -2.869987e+001 8.650558e+001 -1.255205e-001 4.930169e+001 -1.442780e-001 4.935585e+001 -2.718801e+001 -1.525859e+002
4448451150 -2.805162e+001 8.411856e+001 -1.343298e-001 4.500251e+001 -1.384073e-001 4.505120e+001 -2.684293e+001 -1.592975e+002
4509199800 -2.838772e+001 8.752773e+001 -1.302765e-001 4.071383e+001 -1.489246e-001 4.074484e+001 -2.699857e+001 -1.681416e+002
4569948450 -2.799760e+001 8.014921e+001 -1.249026e-001 3.644805e+001 -1.463594e-001 3.649187e+001 -2.741073e+001 -1.741581e+002
4630697100 -2.836333e+001 8.108766e+001 -1.250384e-001 3.216664e+001 -1.568165e-001 3.220436e+001 -2.755426e+001 1.772773e+002
4691445750 -2.888480e+001 7.801570e+001 -1.364573e-001 2.786895e+001 -1.457650e-001 2.790142e+001 -2.849658e+001 1.705057e+002
4752194400 -2.970272e+001 7.696085e+001 -1.326514e-001 2.357377e+001 -1.475871e-001 2.361881e+001 -2.906671e+001 1.611149e+002
4812943050 -3.057712e+001 7.373738e+001 -1.409081e-001 1.925747e+001 -1.521990e-001 1.930767e+001 -3.024286e+001 1.553448e+002
4873691700 -3.309332e+001 7.783572e+001 -1.294508e-001 1.497555e+001 -1.642912e-001 1.501432e+001 -3.208184e+001 1.408795e+002
4934440350 -3.424027e+001 7.492497e+001 -1.378435e-001 1.068483e+001 -1.506089e-001 1.073242e+001 -3.354911e+001 1.305204e+002
4995189000 -3.723706e+001 8.675416e+001 -1.365774e-001 6.386966e+000 -1.574781e-001 6.403082e+000 -3.501216e+001 1.115480e+002
5055937650 -4.173746e+001 9.199497e+001 -1.331153e-001 2.091775e+000 -1.535531e-001 2.129834e+000 -3.703731e+001 8.064910e+001
5116686300 -4.107510e+001 1.226864e+002 -1.397896e-001 -2.222220e+000 -1.528292e-001 -2.186136e+000 -3.547972e+001 6.492154e+001
5177434950 -4.163164e+001 1.612146e+002 -1.376328e-001 -6.538832e+000 -1.565243e-001 -6.484078e+000 -3.542861e+001 3.032570e+001
5238183600 -3.753296e+001 -1.742198e+002 -1.480665e-001 -1.084253e+001 -1.561691e-001 -1.080445e+001 -3.374421e+001 1.941841e+001
5298932250 -3.735867e+001 1.767656e+002 -1.384857e-001 -1.523522e+001 -1.589330e-001 -1.517594e+001 -3.250874e+001 3.292411e+000
5359680900 -3.367721e+001 -1.716783e+002 -1.306016e-001 -1.953593e+001 -1.584546e-001 -1.950068e+001 -3.118217e+001 -5.197389e+000
5420429550 -3.321477e+001 -1.746091e+002 -1.460734e-001 -2.383134e+001 -1.625945e-001 -2.377892e+001 -2.957919e+001 -1.586176e+001
5481178200 -3.173853e+001 -1.741882e+002 -1.348905e-001 -2.814413e+001 -1.651806e-001 -2.810946e+001 -2.920354e+001 -2.410308e+001
5541926850 -3.126683e+001 -1.721756e+002 -1.458591e-001 -3.246511e+001 -1.537441e-001 -3.241424e+001 -2.833206e+001 -3.161217e+001
5602675500 -3.089391e+001 -1.796034e+002 -1.516560e-001 -3.676483e+001 -1.638638e-001 -3.671758e+001 -2.791925e+001 -3.630082e+001
5663424150 -3.058106e+001 -1.783328e+002 -1.495281e-001 -4.106951e+001 -1.690012e-001 -4.102052e+001 -2.706567e+001 -4.460064e+001
5724172800 -3.085536e+001 1.789631e+002 -1.594876e-001 -4.532513e+001 -1.728934e-001 -4.528333e+001 -2.732472e+001 -4.384509e+001
5784921450 -3.195893e+001 1.745546e+002 -1.613173e-001 -4.962736e+001 -1.697757e-001 -4.958199e+001 -2.697470e+001 -5.370559e+001
5845670100 -3.168877e+001 1.737162e+002 -1.611181e-001 -5.392780e+001 -1.635545e-001 -5.390783e+001 -2.716195e+001 -5.372723e+001
5906418750 -3.318711e+001 1.726323e+002 -1.439953e-001 -5.825798e+001 -1.538845e-001 -5.820801e+001 -2.744030e+001 -6.006309e+001
5967167400 -3.424423e+001 1.694038e+002 -1.558734e-001 -6.255966e+001 -1.543429e-001 -6.251451e+001 -2.796944e+001 -6.402807e+001
6027916050 -3.629036e+001 1.651909e+002 -1.691057e-001 -6.686447e+001 -1.693017e-001 -6.679689e+001 -2.808541e+001 -6.564437e+001
6088664700 -3.902292e+001 1.690762e+002 -1.679171e-001 -7.113971e+001 -1.697137e-001 -7.109490e+001 -2.914496e+001 -6.769172e+001
6149413350 -4.187669e+001 1.705303e+002 -1.522549e-001 -7.544356e+001 -1.728803e-001 -7.537457e+001 -2.974389e+001 -7.497735e+001
6210162000 -4.600684e+001 1.728470e+002 -1.646672e-001 -7.973775e+001 -1.669938e-001 -7.969569e+001 -3.102775e+001 -7.004579e+001
6270910650 -4.572383e+001 -1.003022e+002 -1.475253e-001 -8.402393e+001 -1.577183e-001 -8.394536e+001 -3.230763e+001 -7.912971e+001
6331659300 -5.114072e+001 -5.563823e+001 -1.503380e-001 -8.833696e+001 -1.666035e-001 -8.829182e+001 -3.460887e+001 -7.461658e+001
6392407950 -3.978823e+001 -5.799551e+001 -1.562981e-001 -9.266762e+001 -1.633697e-001 -9.259012e+001 -3.452879e+001 -7.201151e+001
6453156600 -3.757352e+001 -5.418257e+001 -1.533256e-001 -9.695930e+001 -1.630056e-001 -9.689935e+001 -3.929543e+001 -6.076278e+001
6513905250 -3.682447e+001 -5.528895e+001 -1.523263e-001 -1.012558e+002 -1.713167e-001 -1.011840e+002 -3.944019e+001 -6.533451e+001
6574653900 -3.440637e+001 -5.899126e+001 -1.593663e-001 -1.055857e+002 -1.709426e-001 -1.055384e+002 -3.981607e+001 -2.858786e+001
6635402550 -3.360868e+001 -6.300966e+001 -1.557388e-001 -1.099181e+002 -1.695322e-001 -1.098129e+002 -4.433900e+001 -1.202826e+001
6696151200 -3.379467e+001 -6.553324e+001 -1.598087e-001 -1.141944e+002 -1.721755e-001 -1.141340e+002 -4.094382e+001 4.461312e+000
6756899850 -3.241195e+001 -7.558829e+001 -1.593569e-001 -1.185113e+002 -1.698882e-001 -1.184370e+002 -4.056773e+001 2.050383e+001
6817648500 -3.327740e+001 -7.372755e+001 -1.655906e-001 -1.228186e+002 -1.770269e-001 -1.227679e+002 -3.709781e+001 3.516748e+001
6878397150 -3.234034e+001 -8.842474e+001 -1.633327e-001 -1.271405e+002 -1.791297e-001 -1.270741e+002 -3.702929e+001 3.548725e+001
6939145800 -3.374712e+001 -8.882060e+001 -1.688067e-001 -1.314344e+002 -1.772803e-001 -1.313773e+002 -3.438111e+001 3.919287e+001
6999894450 -3.312199e+001 -9.879100e+001 -1.635352e-001 -1.357607e+002 -1.776947e-001 -1.356714e+002 -3.518307e+001 4.268709e+001
7060643100 -3.399392e+001 -1.099303e+002 -1.675360e-001 -1.400616e+002 -1.763434e-001 -1.400012e+002 -3.300688e+001 4.018427e+001
7121391750 -3.475187e+001 -1.173887e+002 -1.713051e-001 -1.443939e+002 -1.797700e-001 -1.442942e+002 -3.316248e+001 4.557621e+001
7182140400 -3.542094e+001 -1.294614e+002 -1.691042e-001 -1.486792e+002 -1.863223e-001 -1.486159e+002 -3.194146e+001 4.169984e+001
7242889050 -3.498397e+001 -1.449463e+002 -1.757798e-001 -1.530226e+002 -1.834779e-001 -1.529172e+002 -3.158780e+001 3.914752e+001
7303637700 -3.760135e+001 -1.533161e+002 -1.710778e-001 -1.573138e+002 -1.845016e-001 -1.572351e+002 -3.182593e+001 3.821696e+001
7364386350 -3.473352e+001 -1.708131e+002 -1.682019e-001 -1.615951e+002 -1.845998e-001 -1.614945e+002 -3.120157e+001 3.608511e+001
7425135000 -3.616032e+001 1.733630e+002 -1.790191e-001 -1.658907e+002 -1.837457e-001 -1.658357e+002 -3.066208e+001 2.792166e+001
7485883650 -3.542125e+001 1.657504e+002 -1.788055e-001 -1.702595e+002 -1.976306e-001 -1.701502e+002 -3.155574e+001 3.597842e+001
7546632300 -3.359884e+001 1.477002e+002 -1.835390e-001 -1.745412e+002 -1.929542e-001 -1.744543e+002 -3.050988e+001 2.408905e+001
7607380950 -3.438053e+001 1.473856e+002 -1.826976e-001 -1.788817e+002 -1.876569e-001 -1.787600e+002 -3.162420e+001 2.222589e+001
7668129600 -3.400965e+001 1.308346e+002 -1.774512e-001 1.768077e+002 -1.978093e-001 1.768993e+002 -3.223424e+001 2.347108e+001
7728878250 -3.208768e+001 1.311927e+002 -1.860864e-001 1.725190e+002 -1.923296e-001 1.726120e+002 -3.219833e+001 1.628883e+001
7789626900 -3.457785e+001 1.205761e+002 -1.882216e-001 1.681914e+002 -1.972118e-001 1.682765e+002 -3.374359e+001 1.466476e+001
7850375550 -3.312314e+001 1.174966e+002 -1.905416e-001 1.638515e+002 -2.039319e-001 1.639526e+002 -3.525204e+001 2.087922e+001
7911124200 -3.356070e+001 1.107453e+002 -1.978089e-001 1.595169e+002 -2.012496e-001 1.596230e+002 -3.593309e+001 5.134439e+000
7971872850 -3.571770e+001 1.077481e+002 -1.952351e-001 1.552016e+002 -2.032603e-001 1.552929e+002 -4.000208e+001 2.849499e+001
8032621500 -3.526308e+001 9.660281e+001 -1.982723e-001 1.509020e+002 -2.132209e-001 1.509758e+002 -4.234706e+001 1.575307e+001
8093370150 -3.690193e+001 1.063224e+002 -2.023479e-001 1.465615e+002 -2.102778e-001 1.466520e+002 -4.327988e+001 5.132289e+001
8154118800 -4.078425e+001 7.282821e+001 -2.075971e-001 1.422785e+002 -2.198673e-001 1.423733e+002 -4.399045e+001 1.022189e+002
8214867450 -4.077555e+001 9.205421e+001 -2.133725e-001 1.379144e+002 -2.238589e-001 1.379858e+002 -4.120829e+001 1.115756e+002
8275616100 -5.348343e+001 7.013071e+001 -2.174554e-001 1.335959e+002 -2.290491e-001 1.336768e+002 -3.866708e+001 1.183784e+002
8336364750 -5.328941e+001 -3.627330e+001 -2.257468e-001 1.292879e+002 -2.336570e-001 1.293729e+002 -3.494045e+001 1.213806e+002
8397113400 -4.986778e+001 -8.724966e+001 -2.235619e-001 1.249779e+002 -2.403932e-001 1.250967e+002 -3.563467e+001 1.168457e+002
8457862050 -4.104042e+001 -1.140977e+002 -2.347177e-001 1.206473e+002 -2.436398e-001 1.207570e+002 -3.321111e+001 1.066857e+002
8518610700 -3.833667e+001 -9.526868e+001 -2.291940e-001 1.163823e+002 -2.478412e-001 1.164942e+002 -3.257956e+001 1.104436e+002
8579359350 -3.722763e+001 -1.250239e+002 -2.450772e-001 1.120396e+002 -2.537701e-001 1.121502e+002 -3.272895e+001 9.386329e+001
8640108000 -3.412988e+001 -1.143379e+002 -2.471276e-001 1.077548e+002 -2.608449e-001 1.078668e+002 -3.202662e+001 9.255130e+001
8700856650 -3.315898e+001 -1.221394e+002 -2.555787e-001 1.034478e+002 -2.693923e-001 1.035227e+002 -3.084623e+001 8.636320e+001
8761605300 -3.316643e+001 -1.285457e+002 -2.615175e-001 9.913925e+001 -2.751971e-001 9.925478e+001 -3.277809e+001 6.802296e+001
8822353950 -3.170200e+001 -1.304611e+002 -2.733306e-001 9.484039e+001 -2.863472e-001 9.494974e+001 -3.133393e+001 6.215475e+001
8883102600 -3.148619e+001 -1.291463e+002 -2.751145e-001 9.054396e+001 -2.917901e-001 9.066813e+001 -3.206359e+001 5.433348e+001
8943851250 -3.186195e+001 -1.429194e+002 -2.866662e-001 8.632409e+001 -2.911239e-001 8.640926e+001 -3.184453e+001 2.855614e+001
9004599900 -3.163970e+001 -1.310190e+002 -2.946363e-001 8.202276e+001 -3.109573e-001 8.215803e+001 -3.266455e+001 2.339179e+001
9065348550 -3.220098e+001 -1.452051e+002 -3.040524e-001 7.775893e+001 -3.114530e-001 7.782559e+001 -3.165193e+001 7.910306e+000
9126097200 -3.347896e+001 -1.467836e+002 -3.034224e-001 7.346033e+001 -3.101134e-001 7.357767e+001 -3.260246e+001 -1.968499e+001
9186845850 -3.408113e+001 -1.437792e+002 -3.063265e-001 6.922039e+001 -3.192030e-001 6.929432e+001 -3.260027e+001 -2.065320e+001
9247594500 -3.525161e+001 -1.521146e+002 -3.130491e-001 6.489848e+001 -3.187678e-001 6.502391e+001 -3.171284e+001 -4.304208e+001
9308343150 -3.927932e+001 -1.618968e+002 -3.133971e-001 6.066990e+001 -3.186310e-001 6.075822e+001 -3.113422e+001 -5.307484e+001
9369091800 -3.958257e+001 -1.359205e+002 -3.158113e-001 5.635735e+001 -3.315715e-001 5.647372e+001 -3.162948e+001 -6.350639e+001
9429840450 -4.172324e+001 1.609816e+002 -3.262320e-001 5.202515e+001 -3.312729e-001 5.210665e+001 -2.993281e+001 -6.843642e+001
9490589100 -6.299767e+001 -3.502292e+000 -3.268133e-001 4.769085e+001 -3.390574e-001 4.781680e+001 -2.969918e+001 -8.627377e+001
9551337750 -4.609312e+001 6.929236e+001 -3.312220e-001 4.342395e+001 -3.465022e-001 4.352003e+001 -2.920436e+001 -8.643033e+001
9612086400 -4.410486e+001 6.200558e+001 -3.386490e-001 3.910744e+001 -3.528615e-001 3.923486e+001 -2.851525e+001 -9.399364e+001
9672835050 -3.739696e+001 3.479228e+001 -3.513056e-001 3.485050e+001 -3.620217e-001 3.490939e+001 -2.833353e+001 -1.026838e+002
9733583700 -3.690614e+001 4.225339e+001 -3.548594e-001 3.052278e+001 -3.712746e-001 3.064294e+001 -2.801742e+001 -1.120832e+002
9794332350 -3.423544e+001 5.138343e+001 -3.674530e-001 2.622692e+001 -3.777463e-001 2.628021e+001 -2.752974e+001 -1.145806e+002
9855081000 -3.303580e+001 3.122047e+001 -3.805214e-001 2.192836e+001 -3.950163e-001 2.203434e+001 -2.737725e+001 -1.317519e+002
9915829650 -3.074968e+001 4.441572e+001 -3.913712e-001 1.768613e+001 -4.034939e-001 1.773827e+001 -2.710305e+001 -1.318061e+002
9976578300 -3.096620e+001 4.350841e+001 -4.068524e-001 1.343695e+001 -4.168590e-001 1.349863e+001 -2.700098e+001 -1.441629e+002
10037326950 -2.870684e+001 3.799112e+001 -4.218845e-001 9.200239e+000 -4.314625e-001 9.254160e+000 -2.674111e+001 -1.563319e+002
10098075600 -2.823164e+001 4.548281e+001 -4.278079e-001 4.909361e+000 -4.360605e-001 5.013644e+000 -2.658368e+001 -1.636971e+002
10158824250 -2.682890e+001 4.740175e+001 -4.394414e-001 7.623367e-001 -4.544473e-001 7.944959e-001 -2.682049e+001 -1.756310e+002
10219572900 -2.644094e+001 4.235938e+001 -4.547718e-001 -3.437866e+000 -4.657061e-001 -3.349601e+000 -2.619862e+001 1.674626e+002
10280321550 -2.491720e+001 4.998545e+001 -4.550082e-001 -7.631351e+000 -4.658791e-001 -7.610777e+000 -2.684874e+001 1.633101e+002
10341070200 -2.462704e+001 4.704612e+001 -4.654198e-001 -1.181613e+001 -4.760021e-001 -1.170296e+001 -2.587092e+001 1.437985e+002
10401818850 -2.368691e+001 4.577905e+001 -4.636756e-001 -1.597574e+001 -4.717458e-001 -1.591427e+001 -2.599805e+001 1.335210e+002
10462567500 -2.337934e+001 5.221547e+001 -4.574401e-001 -2.021910e+001 -4.644862e-001 -2.008048e+001 -2.611517e+001 1.217322e+002
10523316150 -2.269201e+001 4.529585e+001 -4.528550e-001 -2.436081e+001 -4.693768e-001 -2.426334e+001 -2.530965e+001 1.086303e+002
