!Agilent Technologies,N5230C,MY48100320,A.08.04.10
!Agilent N5230C: A.08.04.10
!Date: Tuesday, August 23, 2016 04:07:18
!Correction: S11(Full 2 Port(1,2)) 
!S21(Full 2 Port(1,2)) 
!S12(Full 2 Port(1,2)) 
!S22(Full 2 Port(1,2)) 
!S2P File: Measurements: S11, S21, S12, S22:
# Hz S  dB   R 50
1350270000 -4.141824e+000 6.747944e+001 -5.249398e+000 -1.450827e+002 -5.259675e+000 -1.450985e+002 -4.179274e+000 1.567040e+002
1411018650 -4.065737e+000 6.039906e+001 -5.418568e+000 -1.505293e+002 -5.433571e+000 -1.505468e+002 -4.093985e+000 1.537839e+002
1471767300 -3.994530e+000 5.330719e+001 -5.587062e+000 -1.559423e+002 -5.603872e+000 -1.559537e+002 -4.012890e+000 1.510003e+002
1532515950 -3.932236e+000 4.607806e+001 -5.755547e+000 -1.614325e+002 -5.772593e+000 -1.614391e+002 -3.943063e+000 1.482794e+002
1593264600 -3.866486e+000 3.922951e+001 -5.930568e+000 -1.666546e+002 -5.941434e+000 -1.666582e+002 -3.870632e+000 1.455826e+002
1654013250 -3.810958e+000 3.212006e+001 -6.098763e+000 -1.720060e+002 -6.117782e+000 -1.719989e+002 -3.804040e+000 1.429130e+002
1714761900 -3.740357e+000 2.517090e+001 -6.273418e+000 -1.772415e+002 -6.275216e+000 -1.772591e+002 -3.727294e+000 1.402665e+002
1775510550 -3.677544e+000 1.825349e+001 -6.442209e+000 1.774941e+002 -6.451874e+000 1.775018e+002 -3.664944e+000 1.376098e+002
1836259200 -3.631711e+000 1.152186e+001 -6.622795e+000 1.723069e+002 -6.632118e+000 1.722911e+002 -3.603201e+000 1.349491e+002
1897007850 -3.580810e+000 4.645967e+000 -6.796268e+000 1.671082e+002 -6.808586e+000 1.671183e+002 -3.547358e+000 1.323918e+002
1957756500 -3.516725e+000 -1.922835e+000 -6.972958e+000 1.620322e+002 -6.976543e+000 1.620258e+002 -3.484416e+000 1.297764e+002
2018505150 -3.472135e+000 -8.486238e+000 -7.139586e+000 1.569726e+002 -7.152437e+000 1.569902e+002 -3.429720e+000 1.272306e+002
2079253800 -3.417027e+000 -1.494454e+001 -7.307855e+000 1.519540e+002 -7.320616e+000 1.519361e+002 -3.387559e+000 1.246652e+002
2140002450 -3.375045e+000 -2.132811e+001 -7.472933e+000 1.469507e+002 -7.490126e+000 1.469617e+002 -3.330158e+000 1.221120e+002
2200751100 -3.323908e+000 -2.756261e+001 -7.629959e+000 1.420779e+002 -7.647181e+000 1.420608e+002 -3.285595e+000 1.195868e+002
2261499750 -3.303446e+000 -3.368892e+001 -7.805598e+000 1.372252e+002 -7.816792e+000 1.372375e+002 -3.261556e+000 1.170460e+002
2322248400 -3.275943e+000 -3.984195e+001 -7.951562e+000 1.323469e+002 -7.959100e+000 1.323356e+002 -3.217567e+000 1.145290e+002
2382997050 -3.235904e+000 -4.582086e+001 -8.097707e+000 1.275857e+002 -8.110179e+000 1.276038e+002 -3.193384e+000 1.120373e+002
2443745700 -3.230611e+000 -5.167691e+001 -8.244905e+000 1.228244e+002 -8.249691e+000 1.227928e+002 -3.174360e+000 1.095140e+002
2504494350 -3.215906e+000 -5.758093e+001 -8.362696e+000 1.180631e+002 -8.379438e+000 1.180995e+002 -3.155983e+000 1.070498e+002
2565243000 -3.204662e+000 -6.343245e+001 -8.492746e+000 1.133508e+002 -8.511717e+000 1.133206e+002 -3.156699e+000 1.045674e+002
2625991650 -3.204682e+000 -6.923099e+001 -8.599713e+000 1.086268e+002 -8.613352e+000 1.086490e+002 -3.132530e+000 1.020975e+002
2686740300 -3.215561e+000 -7.512271e+001 -8.703428e+000 1.039250e+002 -8.716310e+000 1.038909e+002 -3.132874e+000 9.973417e+001
2747488950 -3.227728e+000 -8.100225e+001 -8.812110e+000 9.919637e+001 -8.819735e+000 9.922472e+001 -3.137193e+000 9.730057e+001
2808237600 -3.253366e+000 -8.692427e+001 -8.905584e+000 9.445286e+001 -8.918888e+000 9.443848e+001 -3.139480e+000 9.489236e+001
2868986250 -3.273205e+000 -9.289030e+001 -8.983200e+000 8.974113e+001 -8.999316e+000 8.976458e+001 -3.149228e+000 9.260699e+001
2929734900 -3.300605e+000 -9.898915e+001 -9.060836e+000 8.492915e+001 -9.069415e+000 8.492043e+001 -3.160289e+000 9.025161e+001
2990483550 -3.348662e+000 -1.051859e+002 -9.147287e+000 8.016984e+001 -9.152677e+000 8.017924e+001 -3.186096e+000 8.795798e+001
3051232200 -3.373008e+000 -1.114737e+002 -9.201763e+000 7.531935e+001 -9.212132e+000 7.530515e+001 -3.197633e+000 8.570584e+001
3111980850 -3.415852e+000 -1.178288e+002 -9.272495e+000 7.044801e+001 -9.279054e+000 7.046553e+001 -3.221458e+000 8.343878e+001
3172729500 -3.456722e+000 -1.243887e+002 -9.321238e+000 6.551547e+001 -9.337276e+000 6.552760e+001 -3.241436e+000 8.117760e+001
3233478150 -3.467185e+000 -1.309094e+002 -9.379404e+000 6.066161e+001 -9.394194e+000 6.067772e+001 -3.254275e+000 7.902290e+001
3294226800 -3.500015e+000 -1.375304e+002 -9.437117e+000 5.569025e+001 -9.450657e+000 5.569812e+001 -3.286325e+000 7.683081e+001
3354975450 -3.538147e+000 -1.443565e+002 -9.516216e+000 5.073079e+001 -9.528741e+000 5.075461e+001 -3.327605e+000 7.463652e+001
3415724100 -3.550973e+000 -1.512266e+002 -9.560461e+000 4.571576e+001 -9.572130e+000 4.573079e+001 -3.336769e+000 7.252605e+001
3476472750 -3.571316e+000 -1.580485e+002 -9.637392e+000 4.074968e+001 -9.622115e+000 4.073949e+001 -3.350255e+000 7.040606e+001
3537221400 -3.566468e+000 -1.649939e+002 -9.698178e+000 3.575275e+001 -9.689869e+000 3.574417e+001 -3.373058e+000 6.826147e+001
3597970050 -3.550501e+000 -1.718907e+002 -9.765709e+000 3.070840e+001 -9.767163e+000 3.069290e+001 -3.398510e+000 6.613264e+001
3658718700 -3.536299e+000 -1.786721e+002 -9.836194e+000 2.569720e+001 -9.849007e+000 2.573787e+001 -3.439571e+000 6.405795e+001
3719467350 -3.518544e+000 1.745908e+002 -9.915697e+000 2.070370e+001 -9.917258e+000 2.070628e+001 -3.459143e+000 6.181484e+001
3780216000 -3.489915e+000 1.678710e+002 -9.981599e+000 1.571926e+001 -9.994102e+000 1.572952e+001 -3.463467e+000 5.975863e+001
3840964650 -3.466954e+000 1.613193e+002 -1.006871e+001 1.085397e+001 -1.007440e+001 1.087930e+001 -3.488678e+000 5.763101e+001
3901713300 -3.433346e+000 1.549648e+002 -1.014530e+001 5.881833e+000 -1.016012e+001 5.903545e+000 -3.524153e+000 5.532741e+001
3962461950 -3.420760e+000 1.486484e+002 -1.023861e+001 1.072665e+000 -1.023608e+001 1.081555e+000 -3.522916e+000 5.323570e+001
4023210600 -3.390022e+000 1.425259e+002 -1.031813e+001 -3.787264e+000 -1.032642e+001 -3.754105e+000 -3.560271e+000 5.097328e+001
4083959250 -3.354259e+000 1.365933e+002 -1.038446e+001 -8.508609e+000 -1.038112e+001 -8.517526e+000 -3.564728e+000 4.866911e+001
4144707900 -3.329782e+000 1.307316e+002 -1.047119e+001 -1.325847e+001 -1.048462e+001 -1.326736e+001 -3.599274e+000 4.651499e+001
4205456550 -3.316067e+000 1.249848e+002 -1.053541e+001 -1.797652e+001 -1.054709e+001 -1.794929e+001 -3.630212e+000 4.416500e+001
4266205200 -3.302458e+000 1.194125e+002 -1.060063e+001 -2.261666e+001 -1.061376e+001 -2.261894e+001 -3.646719e+000 4.189455e+001
4326953850 -3.316621e+000 1.138721e+002 -1.068242e+001 -2.728596e+001 -1.068353e+001 -2.725615e+001 -3.660983e+000 3.963012e+001
4387702500 -3.311363e+000 1.083258e+002 -1.071774e+001 -3.191109e+001 -1.072647e+001 -3.186314e+001 -3.678916e+000 3.738912e+001
4448451150 -3.319887e+000 1.027193e+002 -1.078018e+001 -3.653247e+001 -1.078723e+001 -3.650005e+001 -3.704859e+000 3.508884e+001
4509199800 -3.319945e+000 9.729401e+001 -1.083042e+001 -4.118513e+001 -1.085333e+001 -4.117156e+001 -3.723864e+000 3.282284e+001
4569948450 -3.355781e+000 9.182470e+001 -1.087313e+001 -4.574139e+001 -1.088427e+001 -4.571573e+001 -3.751794e+000 3.054464e+001
4630697100 -3.368582e+000 8.628770e+001 -1.090277e+001 -5.040891e+001 -1.093909e+001 -5.039101e+001 -3.772511e+000 2.816814e+001
4691445750 -3.403591e+000 8.085120e+001 -1.096776e+001 -5.503024e+001 -1.097175e+001 -5.501688e+001 -3.773807e+000 2.583812e+001
4752194400 -3.451643e+000 7.535963e+001 -1.098078e+001 -5.964973e+001 -1.099066e+001 -5.962424e+001 -3.783663e+000 2.354571e+001
4812943050 -3.514504e+000 6.962843e+001 -1.102816e+001 -6.435867e+001 -1.101419e+001 -6.433166e+001 -3.786992e+000 2.114027e+001
4873691700 -3.548164e+000 6.401855e+001 -1.103826e+001 -6.907834e+001 -1.106771e+001 -6.906468e+001 -3.803210e+000 1.874958e+001
4934440350 -3.617507e+000 5.810401e+001 -1.107856e+001 -7.372887e+001 -1.107272e+001 -7.371092e+001 -3.801725e+000 1.656216e+001
4995189000 -3.671646e+000 5.212336e+001 -1.109942e+001 -7.851760e+001 -1.111240e+001 -7.852262e+001 -3.815667e+000 1.418200e+001
5055937650 -3.721671e+000 4.609560e+001 -1.112286e+001 -8.327222e+001 -1.112164e+001 -8.323239e+001 -3.793747e+000 1.186765e+001
5116686300 -3.778509e+000 3.987481e+001 -1.115588e+001 -8.798013e+001 -1.115453e+001 -8.794489e+001 -3.798090e+000 9.717284e+000
5177434950 -3.808153e+000 3.363611e+001 -1.117930e+001 -9.287035e+001 -1.118354e+001 -9.281704e+001 -3.811380e+000 7.395865e+000
5238183600 -3.863000e+000 2.731520e+001 -1.121126e+001 -9.769208e+001 -1.121860e+001 -9.765420e+001 -3.786185e+000 5.063767e+000
5298932250 -3.895304e+000 2.070391e+001 -1.123872e+001 -1.025083e+002 -1.125541e+001 -1.024476e+002 -3.795229e+000 2.949895e+000
5359680900 -3.921965e+000 1.435649e+001 -1.125729e+001 -1.074532e+002 -1.128189e+001 -1.074389e+002 -3.787651e+000 6.404055e-001
5420429550 -3.959629e+000 7.864322e+000 -1.130302e+001 -1.121513e+002 -1.131417e+001 -1.121045e+002 -3.785977e+000 -1.516720e+000
5481178200 -3.963561e+000 1.084896e+000 -1.132629e+001 -1.171290e+002 -1.135201e+001 -1.171154e+002 -3.788708e+000 -3.700962e+000
5541926850 -3.963514e+000 -5.400279e+000 -1.136044e+001 -1.220253e+002 -1.136505e+001 -1.219772e+002 -3.767335e+000 -5.890454e+000
5602675500 -3.989606e+000 -1.204738e+001 -1.141852e+001 -1.268364e+002 -1.141910e+001 -1.267907e+002 -3.771374e+000 -7.966668e+000
5663424150 -3.965452e+000 -1.870675e+001 -1.145221e+001 -1.317875e+002 -1.144597e+001 -1.317489e+002 -3.772377e+000 -1.016776e+001
5724172800 -3.958014e+000 -2.511647e+001 -1.148971e+001 -1.365296e+002 -1.149232e+001 -1.365194e+002 -3.764559e+000 -1.221063e+001
5784921450 -3.948043e+000 -3.171036e+001 -1.155590e+001 -1.414589e+002 -1.155388e+001 -1.414065e+002 -3.794840e+000 -1.425086e+001
5845670100 -3.910872e+000 -3.803416e+001 -1.156603e+001 -1.463264e+002 -1.156859e+001 -1.463105e+002 -3.779280e+000 -1.640414e+001
5906418750 -3.889680e+000 -4.441876e+001 -1.160712e+001 -1.511678e+002 -1.160909e+001 -1.511098e+002 -3.788194e+000 -1.841149e+001
5967167400 -3.881196e+000 -5.079702e+001 -1.165472e+001 -1.559921e+002 -1.166402e+001 -1.559658e+002 -3.807848e+000 -2.041949e+001
6027916050 -3.852886e+000 -5.689023e+001 -1.169299e+001 -1.607702e+002 -1.169978e+001 -1.607183e+002 -3.832814e+000 -2.245218e+001
6088664700 -3.856677e+000 -6.300164e+001 -1.173480e+001 -1.655373e+002 -1.173116e+001 -1.655075e+002 -3.842634e+000 -2.445046e+001
6149413350 -3.841231e+000 -6.922663e+001 -1.175619e+001 -1.704340e+002 -1.177682e+001 -1.703800e+002 -3.866342e+000 -2.648721e+001
6210162000 -3.839593e+000 -7.514621e+001 -1.179882e+001 -1.751932e+002 -1.179909e+001 -1.751629e+002 -3.889794e+000 -2.854639e+001
6270910650 -3.844661e+000 -8.109727e+001 -1.181827e+001 -1.799326e+002 -1.182494e+001 -1.798640e+002 -3.915869e+000 -3.046687e+001
6331659300 -3.864611e+000 -8.702305e+001 -1.185328e+001 1.752113e+002 -1.186840e+001 1.752143e+002 -3.949812e+000 -3.255272e+001
6392407950 -3.867626e+000 -9.278416e+001 -1.186189e+001 1.705403e+002 -1.186989e+001 1.705847e+002 -3.978618e+000 -3.450723e+001
6453156600 -3.919082e+000 -9.869418e+001 -1.189914e+001 1.657932e+002 -1.190912e+001 1.657964e+002 -4.015864e+000 -3.648103e+001
6513905250 -3.931961e+000 -1.045934e+002 -1.189312e+001 1.608896e+002 -1.190943e+001 1.609685e+002 -4.057330e+000 -3.850515e+001
6574653900 -3.979991e+000 -1.103196e+002 -1.191944e+001 1.563216e+002 -1.192468e+001 1.563496e+002 -4.096368e+000 -4.045837e+001
6635402550 -4.032966e+000 -1.163127e+002 -1.192303e+001 1.514099e+002 -1.193291e+001 1.515009e+002 -4.146513e+000 -4.243417e+001
6696151200 -4.073333e+000 -1.222074e+002 -1.191288e+001 1.466283e+002 -1.192948e+001 1.466634e+002 -4.188068e+000 -4.438037e+001
6756899850 -4.124281e+000 -1.280925e+002 -1.192631e+001 1.419263e+002 -1.193458e+001 1.419826e+002 -4.240895e+000 -4.635631e+001
6817648500 -4.187369e+000 -1.341044e+002 -1.193043e+001 1.370645e+002 -1.194130e+001 1.371067e+002 -4.287416e+000 -4.830689e+001
6878397150 -4.230493e+000 -1.400125e+002 -1.190815e+001 1.323251e+002 -1.192103e+001 1.323843e+002 -4.338867e+000 -5.019127e+001
6939145800 -4.295795e+000 -1.460495e+002 -1.192693e+001 1.275174e+002 -1.193295e+001 1.275418e+002 -4.406151e+000 -5.222737e+001
6999894450 -4.338453e+000 -1.521059e+002 -1.189625e+001 1.226931e+002 -1.190811e+001 1.227531e+002 -4.454922e+000 -5.409460e+001
7060643100 -4.398899e+000 -1.581187e+002 -1.189670e+001 1.179110e+002 -1.190557e+001 1.179222e+002 -4.504975e+000 -5.592470e+001
7121391750 -4.434904e+000 -1.642178e+002 -1.189095e+001 1.130431e+002 -1.189791e+001 1.131005e+002 -4.577414e+000 -5.795148e+001
7182140400 -4.471577e+000 -1.702058e+002 -1.186521e+001 1.082728e+002 -1.187888e+001 1.083182e+002 -4.622457e+000 -5.986702e+001
7242889050 -4.506661e+000 -1.761297e+002 -1.186226e+001 1.034807e+002 -1.186597e+001 1.035397e+002 -4.675975e+000 -6.176210e+001
7303637700 -4.538496e+000 1.777943e+002 -1.184266e+001 9.859731e+001 -1.185357e+001 9.861241e+001 -4.737720e+000 -6.372982e+001
7364386350 -4.556213e+000 1.719239e+002 -1.180815e+001 9.385358e+001 -1.182401e+001 9.393246e+001 -4.771656e+000 -6.558117e+001
7425135000 -4.587322e+000 1.660109e+002 -1.180974e+001 8.902528e+001 -1.181557e+001 8.905821e+001 -4.825343e+000 -6.739733e+001
7485883650 -4.602246e+000 1.600359e+002 -1.176845e+001 8.411388e+001 -1.178348e+001 8.418121e+001 -4.882864e+000 -6.937966e+001
7546632300 -4.609697e+000 1.542927e+002 -1.173944e+001 7.941302e+001 -1.174721e+001 7.946430e+001 -4.922099e+000 -7.120922e+001
7607380950 -4.620032e+000 1.485241e+002 -1.173083e+001 7.442176e+001 -1.173555e+001 7.449378e+001 -4.969404e+000 -7.312910e+001
7668129600 -4.637422e+000 1.426837e+002 -1.167674e+001 6.951854e+001 -1.169752e+001 6.956660e+001 -5.006960e+000 -7.501008e+001
7728878250 -4.651127e+000 1.369977e+002 -1.165415e+001 6.476081e+001 -1.166005e+001 6.481500e+001 -5.049603e+000 -7.684566e+001
7789626900 -4.674250e+000 1.312230e+002 -1.164180e+001 5.958763e+001 -1.164840e+001 5.960658e+001 -5.086744e+000 -7.882351e+001
7850375550 -4.696846e+000 1.254901e+002 -1.158120e+001 5.472643e+001 -1.159355e+001 5.476295e+001 -5.101976e+000 -8.069272e+001
7911124200 -4.730333e+000 1.196983e+002 -1.157047e+001 4.974802e+001 -1.157388e+001 4.979532e+001 -5.143738e+000 -8.258647e+001
7971872850 -4.755537e+000 1.139280e+002 -1.153995e+001 4.448724e+001 -1.154832e+001 4.453807e+001 -5.159560e+000 -8.459984e+001
8032621500 -4.806041e+000 1.081897e+002 -1.150253e+001 3.965732e+001 -1.151195e+001 3.971400e+001 -5.187841e+000 -8.639375e+001
8093370150 -4.860594e+000 1.023280e+002 -1.148426e+001 3.449309e+001 -1.148740e+001 3.454751e+001 -5.209895e+000 -8.837665e+001
8154118800 -4.908380e+000 9.642826e+001 -1.145328e+001 2.920507e+001 -1.145948e+001 2.928091e+001 -5.209133e+000 -9.030180e+001
8214867450 -4.976346e+000 9.062265e+001 -1.142467e+001 2.432786e+001 -1.143121e+001 2.436622e+001 -5.242025e+000 -9.212638e+001
8275616100 -5.052653e+000 8.455072e+001 -1.141526e+001 1.901881e+001 -1.142424e+001 1.908034e+001 -5.265307e+000 -9.423177e+001
8336364750 -5.107797e+000 7.843257e+001 -1.138842e+001 1.374284e+001 -1.139306e+001 1.381369e+001 -5.232724e+000 -9.621072e+001
8397113400 -5.189093e+000 7.244217e+001 -1.139173e+001 8.718136e+000 -1.140171e+001 8.807101e+000 -5.272354e+000 -9.801563e+001
8457862050 -5.261649e+000 6.623105e+001 -1.137980e+001 3.362281e+000 -1.138630e+001 3.389090e+000 -5.272981e+000 -1.001877e+002
8518610700 -5.322465e+000 5.998080e+001 -1.136976e+001 -1.851683e+000 -1.138696e+001 -1.783161e+000 -5.256345e+000 -1.021041e+002
8579359350 -5.388296e+000 5.388848e+001 -1.139153e+001 -6.964101e+000 -1.139790e+001 -6.911542e+000 -5.279822e+000 -1.039515e+002
8640108000 -5.453838e+000 4.759368e+001 -1.138475e+001 -1.237270e+001 -1.139777e+001 -1.227204e+001 -5.297361e+000 -1.061407e+002
8700856650 -5.495756e+000 4.124041e+001 -1.139341e+001 -1.759189e+001 -1.140474e+001 -1.756253e+001 -5.267041e+000 -1.082178e+002
8761605300 -5.541599e+000 3.509313e+001 -1.142800e+001 -2.275303e+001 -1.143534e+001 -2.268692e+001 -5.279187e+000 -1.099594e+002
8822353950 -5.567913e+000 2.883174e+001 -1.142178e+001 -2.808299e+001 -1.143355e+001 -2.803488e+001 -5.291682e+000 -1.120380e+002
8883102600 -5.584798e+000 2.262910e+001 -1.145531e+001 -3.324531e+001 -1.147018e+001 -3.318036e+001 -5.286728e+000 -1.140747e+002
8943851250 -5.582723e+000 1.654750e+001 -1.148724e+001 -3.844270e+001 -1.149259e+001 -3.840969e+001 -5.278140e+000 -1.159191e+002
9004599900 -5.578577e+000 1.058976e+001 -1.149189e+001 -4.365854e+001 -1.150786e+001 -4.356352e+001 -5.303532e+000 -1.177794e+002
9065348550 -5.550292e+000 4.669047e+000 -1.153431e+001 -4.875668e+001 -1.153848e+001 -4.875011e+001 -5.300827e+000 -1.197787e+002
9126097200 -5.522701e+000 -9.312226e-001 -1.155499e+001 -5.392506e+001 -1.156464e+001 -5.383477e+001 -5.292977e+000 -1.215508e+002
9186845850 -5.497708e+000 -6.551316e+000 -1.155838e+001 -5.893576e+001 -1.157011e+001 -5.889523e+001 -5.305856e+000 -1.232451e+002
9247594500 -5.461776e+000 -1.205346e+001 -1.161502e+001 -6.404463e+001 -1.162255e+001 -6.395054e+001 -5.325086e+000 -1.251551e+002
9308343150 -5.403385e+000 -1.736476e+001 -1.160605e+001 -6.904766e+001 -1.161003e+001 -6.900524e+001 -5.304410e+000 -1.267911e+002
9369091800 -5.378607e+000 -2.258251e+001 -1.161770e+001 -7.404944e+001 -1.163101e+001 -7.396994e+001 -5.338062e+000 -1.284576e+002
9429840450 -5.334735e+000 -2.778822e+001 -1.165723e+001 -7.919070e+001 -1.166249e+001 -7.916239e+001 -5.351663e+000 -1.304722e+002
9490589100 -5.271892e+000 -3.260842e+001 -1.163089e+001 -8.409037e+001 -1.164305e+001 -8.398646e+001 -5.327828e+000 -1.320450e+002
9551337750 -5.253145e+000 -3.752869e+001 -1.163085e+001 -8.912446e+001 -1.164552e+001 -8.903654e+001 -5.357500e+000 -1.336049e+002
9612086400 -5.219567e+000 -4.256380e+001 -1.163282e+001 -9.430135e+001 -1.164203e+001 -9.419852e+001 -5.367707e+000 -1.355040e+002
9672835050 -5.169620e+000 -4.734081e+001 -1.159855e+001 -9.917909e+001 -1.160380e+001 -9.916368e+001 -5.359151e+000 -1.371620e+002
9733583700 -5.166627e+000 -5.218728e+001 -1.157597e+001 -1.043823e+002 -1.158992e+001 -1.043008e+002 -5.367180e+000 -1.388831e+002
9794332350 -5.150520e+000 -5.724536e+001 -1.156292e+001 -1.096188e+002 -1.156786e+001 -1.095715e+002 -5.370591e+000 -1.407379e+002
9855081000 -5.129281e+000 -6.209434e+001 -1.152492e+001 -1.146216e+002 -1.153524e+001 -1.145194e+002 -5.370007e+000 -1.424347e+002
9915829650 -5.160527e+000 -6.712373e+001 -1.150628e+001 -1.199338e+002 -1.151036e+001 -1.198892e+002 -5.368447e+000 -1.442124e+002
9976578300 -5.184878e+000 -7.242583e+001 -1.148038e+001 -1.252319e+002 -1.148776e+001 -1.251227e+002 -5.372424e+000 -1.459488e+002
10037326950 -5.204038e+000 -7.748096e+001 -1.145104e+001 -1.302730e+002 -1.145661e+001 -1.302206e+002 -5.377491e+000 -1.477531e+002
10098075600 -5.278702e+000 -8.290269e+001 -1.142170e+001 -1.357057e+002 -1.142583e+001 -1.355900e+002 -5.359529e+000 -1.495455e+002
10158824250 -5.342857e+000 -8.863699e+001 -1.139848e+001 -1.410270e+002 -1.140011e+001 -1.409463e+002 -5.366513e+000 -1.512624e+002
10219572900 -5.411642e+000 -9.437551e+001 -1.138454e+001 -1.462964e+002 -1.138590e+001 -1.461825e+002 -5.376339e+000 -1.531175e+002
10280321550 -5.500815e+000 -1.004457e+002 -1.135602e+001 -1.518372e+002 -1.136029e+001 -1.517906e+002 -5.352320e+000 -1.550482e+002
10341070200 -5.597778e+000 -1.065921e+002 -1.135931e+001 -1.571997e+002 -1.136731e+001 -1.570835e+002 -5.373651e+000 -1.567137e+002
10401818850 -5.691476e+000 -1.130817e+002 -1.135965e+001 -1.625887e+002 -1.136589e+001 -1.625206e+002 -5.358105e+000 -1.586853e+002
10462567500 -5.755565e+000 -1.198557e+002 -1.134908e+001 -1.680969e+002 -1.135073e+001 -1.679979e+002 -5.335036e+000 -1.604093e+002
10523316150 -5.823920e+000 -1.264382e+002 -1.137322e+001 -1.734864e+002 -1.138589e+001 -1.733929e+002 -5.351832e+000 -1.622557e+002
