!Agilent Technologies,N5230C,MY48100320,A.08.04.10
!Agilent N5230C: A.08.04.10
!Date: Thursday, August 04, 2016 04:14:55
!Correction: S11(Full 2 Port(1,2)) 
!S21(Full 2 Port(1,2)) 
!S12(Full 2 Port(1,2)) 
!S22(Full 2 Port(1,2)) 
!S2P File: Measurements: S11, S21, S12, S22:
# Hz S  dB   R 50
1350270000 -4.255629e+000 1.521142e+002 -2.347203e+000 -1.421594e+002 -2.348895e+000 -1.421611e+002 -4.224214e+000 1.014191e+002
1411018650 -4.230240e+000 1.479902e+002 -2.359457e+000 -1.475825e+002 -2.361590e+000 -1.475752e+002 -4.196663e+000 9.477387e+001
1471767300 -4.223665e+000 1.439945e+002 -2.353892e+000 -1.529897e+002 -2.359744e+000 -1.529853e+002 -4.206656e+000 8.816633e+001
1532515950 -4.259271e+000 1.399939e+002 -2.344357e+000 -1.585050e+002 -2.337726e+000 -1.585052e+002 -4.260114e+000 8.140883e+001
1593264600 -4.299342e+000 1.359295e+002 -2.310946e+000 -1.638704e+002 -2.314960e+000 -1.638764e+002 -4.291365e+000 7.489438e+001
1654013250 -4.363550e+000 1.318148e+002 -2.259985e+000 -1.693294e+002 -2.266179e+000 -1.693280e+002 -4.382173e+000 6.830949e+001
1714761900 -4.462207e+000 1.276113e+002 -2.212514e+000 -1.748346e+002 -2.204909e+000 -1.748411e+002 -4.484385e+000 6.173083e+001
1775510550 -4.569338e+000 1.233514e+002 -2.132999e+000 1.795898e+002 -2.140463e+000 1.795940e+002 -4.627100e+000 5.502985e+001
1836259200 -4.709328e+000 1.190186e+002 -2.061799e+000 1.739931e+002 -2.071227e+000 1.739997e+002 -4.790220e+000 4.848323e+001
1897007850 -4.902368e+000 1.146999e+002 -1.972836e+000 1.682928e+002 -1.966691e+000 1.683010e+002 -5.012587e+000 4.170641e+001
1957756500 -5.106253e+000 1.101419e+002 -1.865776e+000 1.625545e+002 -1.876324e+000 1.625748e+002 -5.253294e+000 3.502195e+001
2018505150 -5.366323e+000 1.056250e+002 -1.765192e+000 1.566721e+002 -1.758492e+000 1.566819e+002 -5.539292e+000 2.814054e+001
2079253800 -5.666404e+000 1.010307e+002 -1.641811e+000 1.507628e+002 -1.643118e+000 1.507836e+002 -5.883801e+000 2.122369e+001
2140002450 -6.027106e+000 9.634011e+001 -1.523312e+000 1.446797e+002 -1.528030e+000 1.446866e+002 -6.299089e+000 1.411936e+001
2200751100 -6.438325e+000 9.163039e+001 -1.384201e+000 1.384806e+002 -1.386682e+000 1.385028e+002 -6.742358e+000 6.884779e+000
2261499750 -6.951051e+000 8.700048e+001 -1.276790e+000 1.321713e+002 -1.268201e+000 1.321763e+002 -7.291751e+000 -5.260410e-001
2322248400 -7.515728e+000 8.234838e+001 -1.138834e+000 1.257481e+002 -1.141222e+000 1.257619e+002 -7.937767e+000 -8.198425e+000
2382997050 -8.230337e+000 7.787945e+001 -1.023638e+000 1.191588e+002 -1.021954e+000 1.191668e+002 -8.700204e+000 -1.626427e+001
2443745700 -8.984514e+000 7.363748e+001 -9.041859e-001 1.124783e+002 -9.099150e-001 1.124921e+002 -9.585938e+000 -2.440775e+001
2504494350 -9.934215e+000 6.991293e+001 -8.057052e-001 1.056531e+002 -8.077853e-001 1.056643e+002 -1.066281e+001 -3.346016e+001
2565243000 -1.103198e+001 6.691750e+001 -7.043090e-001 9.871786e+001 -7.100759e-001 9.873112e+001 -1.195100e+001 -4.291401e+001
2625991650 -1.229814e+001 6.491349e+001 -6.326885e-001 9.167832e+001 -6.379126e-001 9.169494e+001 -1.351478e+001 -5.368171e+001
2686740300 -1.377224e+001 6.512259e+001 -5.633329e-001 8.458806e+001 -5.654793e-001 8.460236e+001 -1.550079e+001 -6.634711e+001
2747488950 -1.550464e+001 6.832681e+001 -5.249302e-001 7.739780e+001 -5.285648e-001 7.741262e+001 -1.793783e+001 -8.283678e+001
2808237600 -1.704498e+001 7.571030e+001 -4.947470e-001 7.016841e+001 -5.030571e-001 7.018324e+001 -2.100965e+001 -1.069334e+002
2868986250 -1.818394e+001 8.967078e+001 -5.019643e-001 6.292693e+001 -5.112242e-001 6.293737e+001 -2.320631e+001 -1.470880e+002
2929734900 -1.802608e+001 1.048866e+002 -5.068662e-001 5.564839e+001 -5.152298e-001 5.567671e+001 -2.216387e+001 1.675875e+002
2990483550 -1.682181e+001 1.177977e+002 -5.627460e-001 4.846096e+001 -5.596261e-001 4.846777e+001 -1.915319e+001 1.377463e+002
3051232200 -1.522196e+001 1.244342e+002 -6.103942e-001 4.123387e+001 -6.171747e-001 4.125714e+001 -1.654965e+001 1.184245e+002
3111980850 -1.365779e+001 1.274245e+002 -6.805963e-001 3.411503e+001 -6.862707e-001 3.413650e+001 -1.446436e+001 1.046314e+002
3172729500 -1.229550e+001 1.270781e+002 -7.660077e-001 2.700332e+001 -7.768005e-001 2.703307e+001 -1.275726e+001 9.279110e+001
3233478150 -1.103930e+001 1.258820e+002 -8.584561e-001 2.010311e+001 -8.647122e-001 2.012087e+001 -1.142568e+001 8.237000e+001
3294226800 -1.005336e+001 1.229711e+002 -9.826386e-001 1.321683e+001 -9.847246e-001 1.324248e+001 -1.031410e+001 7.280692e+001
3354975450 -9.157131e+000 1.198341e+002 -1.101561e+000 6.511762e+000 -1.100362e+000 6.519927e+000 -9.396819e+000 6.367044e+001
3415724100 -8.433489e+000 1.162127e+002 -1.229208e+000 -2.347951e-001 -1.242356e+000 -2.147476e-001 -8.614844e+000 5.512492e+001
3476472750 -7.815434e+000 1.125699e+002 -1.362766e+000 -6.692049e+000 -1.349380e+000 -6.695068e+000 -7.944520e+000 4.654106e+001
3537221400 -7.274166e+000 1.087078e+002 -1.483548e+000 -1.314567e+001 -1.485757e+000 -1.313851e+001 -7.379548e+000 3.817837e+001
3597970050 -6.766982e+000 1.050729e+002 -1.599963e+000 -1.945704e+001 -1.613764e+000 -1.944954e+001 -6.918529e+000 2.996992e+001
3658718700 -6.401474e+000 1.011277e+002 -1.731797e+000 -2.569754e+001 -1.742779e+000 -2.566659e+001 -6.486786e+000 2.197540e+001
3719467350 -6.057925e+000 9.745394e+001 -1.855581e+000 -3.179264e+001 -1.852788e+000 -3.177909e+001 -6.142519e+000 1.397719e+001
3780216000 -5.765867e+000 9.379789e+001 -1.968830e+000 -3.786075e+001 -1.973861e+000 -3.784732e+001 -5.822572e+000 6.041099e+000
3840964650 -5.528440e+000 9.015684e+001 -2.059939e+000 -4.370559e+001 -2.064348e+000 -4.369281e+001 -5.548913e+000 -1.840980e+000
3901713300 -5.309919e+000 8.673405e+001 -2.173766e+000 -4.968126e+001 -2.179675e+000 -4.965223e+001 -5.341454e+000 -9.598677e+000
3962461950 -5.139499e+000 8.326772e+001 -2.249682e+000 -5.541930e+001 -2.252427e+000 -5.539606e+001 -5.138092e+000 -1.739429e+001
4023210600 -4.993298e+000 7.977337e+001 -2.347166e+000 -6.116420e+001 -2.347720e+000 -6.115103e+001 -4.981442e+000 -2.502342e+001
4083959250 -4.867128e+000 7.659741e+001 -2.400144e+000 -6.684663e+001 -2.395036e+000 -6.682813e+001 -4.856532e+000 -3.267670e+001
4144707900 -4.766258e+000 7.324784e+001 -2.455524e+000 -7.246717e+001 -2.463721e+000 -7.246495e+001 -4.734574e+000 -4.024058e+001
4205456550 -4.692903e+000 6.993677e+001 -2.494664e+000 -7.805844e+001 -2.491888e+000 -7.803648e+001 -4.671024e+000 -4.782047e+001
4266205200 -4.638492e+000 6.676781e+001 -2.534132e+000 -8.361256e+001 -2.537045e+000 -8.360062e+001 -4.617102e+000 -5.516656e+001
4326953850 -4.617164e+000 6.352336e+001 -2.553353e+000 -8.910933e+001 -2.553548e+000 -8.908128e+001 -4.603705e+000 -6.259443e+001
4387702500 -4.600990e+000 6.023006e+001 -2.552719e+000 -9.458918e+001 -2.563525e+000 -9.459578e+001 -4.605969e+000 -6.993796e+001
4448451150 -4.630280e+000 5.690934e+001 -2.541315e+000 -1.001003e+002 -2.536774e+000 -1.000775e+002 -4.612347e+000 -7.716079e+001
4509199800 -4.673940e+000 5.346247e+001 -2.518246e+000 -1.055901e+002 -2.530950e+000 -1.055854e+002 -4.678924e+000 -8.440650e+001
4569948450 -4.750730e+000 5.015840e+001 -2.489269e+000 -1.110808e+002 -2.487080e+000 -1.110545e+002 -4.777670e+000 -9.171470e+001
4630697100 -4.842703e+000 4.664418e+001 -2.427919e+000 -1.166814e+002 -2.446437e+000 -1.166552e+002 -4.883335e+000 -9.881028e+001
4691445750 -4.983410e+000 4.308315e+001 -2.366128e+000 -1.221791e+002 -2.366260e+000 -1.221643e+002 -5.049242e+000 -1.059751e+002
4752194400 -5.151728e+000 3.954126e+001 -2.289004e+000 -1.278544e+002 -2.294933e+000 -1.278345e+002 -5.243281e+000 -1.132615e+002
4812943050 -5.386549e+000 3.579142e+001 -2.210403e+000 -1.336216e+002 -2.205144e+000 -1.335893e+002 -5.462340e+000 -1.203185e+002
4873691700 -5.643791e+000 3.181436e+001 -2.086234e+000 -1.393203e+002 -2.099866e+000 -1.393066e+002 -5.775672e+000 -1.275072e+002
4934440350 -5.958635e+000 2.793498e+001 -1.983538e+000 -1.452775e+002 -1.981488e+000 -1.452448e+002 -6.128381e+000 -1.348105e+002
4995189000 -6.346570e+000 2.377823e+001 -1.872463e+000 -1.513187e+002 -1.876463e+000 -1.513361e+002 -6.545588e+000 -1.420451e+002
5055937650 -6.757945e+000 1.963888e+001 -1.729174e+000 -1.573843e+002 -1.749550e+000 -1.573372e+002 -7.085771e+000 -1.496402e+002
5116686300 -7.295696e+000 1.566354e+001 -1.616877e+000 -1.636960e+002 -1.615995e+000 -1.636909e+002 -7.635540e+000 -1.574140e+002
5177434950 -7.891908e+000 1.154867e+001 -1.471221e+000 -1.700916e+002 -1.476315e+000 -1.700341e+002 -8.378173e+000 -1.650864e+002
5238183600 -8.636694e+000 7.560521e+000 -1.364625e+000 -1.765550e+002 -1.364322e+000 -1.765439e+002 -9.226258e+000 -1.736788e+002
5298932250 -9.471785e+000 4.403301e+000 -1.226806e+000 1.766320e+002 -1.239441e+000 1.766746e+002 -1.025170e+001 1.777220e+002
5359680900 -1.049325e+001 9.274102e-001 -1.114328e+000 1.698810e+002 -1.130022e+000 1.698748e+002 -1.152354e+001 1.685191e+002
5420429550 -1.162892e+001 -7.975794e-001 -1.028767e+000 1.629950e+002 -1.023860e+000 1.630488e+002 -1.311935e+001 1.581522e+002
5481178200 -1.300876e+001 -1.924959e+000 -9.395641e-001 1.559454e+002 -9.531294e-001 1.559394e+002 -1.501217e+001 1.472649e+002
5541926850 -1.450033e+001 -1.037884e+000 -8.730409e-001 1.488296e+002 -8.860664e-001 1.488674e+002 -1.762069e+001 1.334508e+002
5602675500 -1.608512e+001 4.339711e+000 -8.462690e-001 1.416747e+002 -8.516647e-001 1.416911e+002 -2.082091e+001 1.126538e+002
5663424150 -1.752254e+001 1.326116e+001 -8.191028e-001 1.344728e+002 -8.303583e-001 1.345205e+002 -2.476030e+001 7.713595e+001
5724172800 -1.815083e+001 2.667650e+001 -8.334457e-001 1.273409e+002 -8.289855e-001 1.273563e+002 -2.451535e+001 2.202982e+001
5784921450 -1.761627e+001 3.986985e+001 -8.577805e-001 1.201583e+002 -8.664531e-001 1.201945e+002 -2.131338e+001 -1.626165e+001
5845670100 -1.651808e+001 5.013966e+001 -8.905516e-001 1.130694e+002 -8.858559e-001 1.130794e+002 -1.811892e+001 -3.556079e+001
5906418750 -1.507132e+001 5.457315e+001 -9.363163e-001 1.059568e+002 -9.347841e-001 1.059723e+002 -1.581221e+001 -5.027555e+001
5967167400 -1.370889e+001 5.612547e+001 -1.023476e+000 9.897646e+001 -1.026568e+000 9.901297e+001 -1.400111e+001 -6.136433e+001
6027916050 -1.246985e+001 5.550934e+001 -1.102015e+000 9.210471e+001 -1.109847e+000 9.214536e+001 -1.253201e+001 -7.143200e+001
6088664700 -1.145158e+001 5.344591e+001 -1.195891e+000 8.522417e+001 -1.183672e+000 8.527683e+001 -1.138181e+001 -8.062632e+001
6149413350 -1.053917e+001 5.059641e+001 -1.278452e+000 7.852464e+001 -1.292222e+000 7.855373e+001 -1.040922e+001 -8.955634e+001
6210162000 -9.734973e+000 4.722766e+001 -1.383329e+000 7.185351e+001 -1.379584e+000 7.188876e+001 -9.605344e+000 -9.776306e+001
6270910650 -9.075254e+000 4.343512e+001 -1.472717e+000 6.522907e+001 -1.478232e+000 6.527194e+001 -8.907278e+000 -1.060336e+002
6331659300 -8.413500e+000 3.930347e+001 -1.587809e+000 5.882269e+001 -1.595659e+000 5.887016e+001 -8.313024e+000 -1.136968e+002
6392407950 -7.933478e+000 3.521889e+001 -1.698462e+000 5.234938e+001 -1.703632e+000 5.237490e+001 -7.748437e+000 -1.215731e+002
6453156600 -7.441249e+000 3.088151e+001 -1.797316e+000 4.600238e+001 -1.800259e+000 4.604759e+001 -7.331014e+000 -1.289287e+002
6513905250 -7.029647e+000 2.673461e+001 -1.921534e+000 3.981488e+001 -1.935037e+000 3.983486e+001 -6.916659e+000 -1.366495e+002
6574653900 -6.704082e+000 2.241365e+001 -2.008177e+000 3.353953e+001 -2.009621e+000 3.357741e+001 -6.553491e+000 -1.440537e+002
6635402550 -6.350938e+000 1.824800e+001 -2.117446e+000 2.741183e+001 -2.124782e+000 2.745273e+001 -6.245841e+000 -1.514235e+002
6696151200 -6.074066e+000 1.412266e+001 -2.224777e+000 2.142244e+001 -2.228445e+000 2.145983e+001 -5.968349e+000 -1.588241e+002
6756899850 -5.850644e+000 1.000684e+001 -2.299573e+000 1.536635e+001 -2.305384e+000 1.537633e+001 -5.711379e+000 -1.660813e+002
6817648500 -5.595831e+000 5.865854e+000 -2.399283e+000 9.491419e+000 -2.400145e+000 9.536220e+000 -5.515399e+000 -1.731400e+002
6878397150 -5.436167e+000 1.917027e+000 -2.479577e+000 3.587305e+000 -2.490341e+000 3.591132e+000 -5.314822e+000 1.796715e+002
6939145800 -5.267807e+000 -2.160936e+000 -2.538027e+000 -2.191571e+000 -2.535207e+000 -2.161624e+000 -5.169806e+000 1.725734e+002
6999894450 -5.131800e+000 -5.937558e+000 -2.617728e+000 -7.967417e+000 -2.628100e+000 -7.953808e+000 -5.005792e+000 1.655935e+002
7060643100 -5.036603e+000 -9.804245e+000 -2.659520e+000 -1.368266e+001 -2.658818e+000 -1.364385e+001 -4.913969e+000 1.584931e+002
7121391750 -4.940098e+000 -1.371137e+001 -2.702800e+000 -1.934313e+001 -2.708066e+000 -1.932613e+001 -4.812523e+000 1.517074e+002
7182140400 -4.875920e+000 -1.753069e+001 -2.748690e+000 -2.500699e+001 -2.755706e+000 -2.492965e+001 -4.745069e+000 1.449659e+002
7242889050 -4.865158e+000 -2.141936e+001 -2.757368e+000 -3.060112e+001 -2.760051e+000 -3.058881e+001 -4.706190e+000 1.382253e+002
7303637700 -4.838477e+000 -2.522811e+001 -2.772811e+000 -3.619397e+001 -2.775455e+000 -3.612274e+001 -4.685817e+000 1.314838e+002
7364386350 -4.850598e+000 -2.894956e+001 -2.782098e+000 -4.183978e+001 -2.794537e+000 -4.182827e+001 -4.698332e+000 1.249107e+002
7425135000 -4.910324e+000 -3.278337e+001 -2.752801e+000 -4.733214e+001 -2.745604e+000 -4.728145e+001 -4.746819e+000 1.181307e+002
7485883650 -4.973413e+000 -3.656718e+001 -2.726477e+000 -5.297702e+001 -2.740569e+000 -5.296637e+001 -4.794705e+000 1.115684e+002
7546632300 -5.061398e+000 -4.039211e+001 -2.707581e+000 -5.862393e+001 -2.706077e+000 -5.855262e+001 -4.914976e+000 1.050611e+002
7607380950 -5.231143e+000 -4.434044e+001 -2.620401e+000 -6.415418e+001 -2.620046e+000 -6.415270e+001 -5.031728e+000 9.838079e+001
7668129600 -5.385471e+000 -4.812021e+001 -2.569164e+000 -6.994830e+001 -2.574747e+000 -6.986579e+001 -5.210194e+000 9.171782e+001
7728878250 -5.589077e+000 -5.205526e+001 -2.494815e+000 -7.575429e+001 -2.496563e+000 -7.573533e+001 -5.449231e+000 8.518501e+001
7789626900 -5.886559e+000 -5.617368e+001 -2.377253e+000 -8.143604e+001 -2.373302e+000 -8.135044e+001 -5.699652e+000 7.822240e+001
7850375550 -6.156641e+000 -6.000909e+001 -2.291884e+000 -8.744669e+001 -2.301854e+000 -8.744845e+001 -6.041463e+000 7.162538e+001
7911124200 -6.533365e+000 -6.399874e+001 -2.177330e+000 -9.352295e+001 -2.173132e+000 -9.343664e+001 -6.455129e+000 6.459661e+001
7971872850 -7.018930e+000 -6.817302e+001 -2.043000e+000 -9.947686e+001 -2.045153e+000 -9.949578e+001 -6.877206e+000 5.738411e+001
8032621500 -7.475976e+000 -7.195205e+001 -1.943892e+000 -1.059778e+002 -1.947147e+000 -1.058886e+002 -7.451893e+000 5.061202e+001
8093370150 -8.091051e+000 -7.566853e+001 -1.809478e+000 -1.122518e+002 -1.810223e+000 -1.122643e+002 -8.152820e+000 4.297240e+001
8154118800 -8.835315e+000 -7.959941e+001 -1.690667e+000 -1.187446e+002 -1.690687e+000 -1.186385e+002 -8.883620e+000 3.524366e+001
8214867450 -9.569448e+000 -8.256139e+001 -1.591568e+000 -1.255240e+002 -1.593527e+000 -1.255433e+002 -9.842437e+000 2.809509e+001
8275616100 -1.056892e+001 -8.524264e+001 -1.479529e+000 -1.323229e+002 -1.478771e+000 -1.322051e+002 -1.105032e+001 2.000252e+001
8336364750 -1.170740e+001 -8.716660e+001 -1.392058e+000 -1.391099e+002 -1.395038e+000 -1.391165e+002 -1.242501e+001 1.119735e+001
8397113400 -1.290283e+001 -8.724848e+001 -1.315912e+000 -1.462579e+002 -1.321792e+000 -1.461621e+002 -1.427170e+001 3.436028e+000
8457862050 -1.434692e+001 -8.528580e+001 -1.255566e+000 -1.532453e+002 -1.257991e+000 -1.532330e+002 -1.677081e+001 -6.757957e+000
8518610700 -1.589894e+001 -8.062028e+001 -1.217620e+000 -1.604332e+002 -1.227870e+000 -1.603436e+002 -1.993699e+001 -1.786294e+001
8579359350 -1.687128e+001 -7.086236e+001 -1.200143e+000 -1.676016e+002 -1.201594e+000 -1.675472e+002 -2.594798e+001 -3.416037e+001
8640108000 -1.761166e+001 -5.799849e+001 -1.203989e+000 -1.748000e+002 -1.210283e+000 -1.747109e+002 -3.549205e+001 -1.131085e+002
8700856650 -1.708485e+001 -4.517013e+001 -1.231202e+000 1.780691e+002 -1.236576e+000 1.781112e+002 -2.567900e+001 1.707672e+002
8761605300 -1.592654e+001 -3.673306e+001 -1.273183e+000 1.709332e+002 -1.279494e+000 1.710055e+002 -2.024395e+001 1.501618e+002
8822353950 -1.464153e+001 -3.104165e+001 -1.340868e+000 1.637864e+002 -1.346118e+000 1.638730e+002 -1.696480e+001 1.405167e+002
8883102600 -1.333123e+001 -2.940819e+001 -1.414999e+000 1.568251e+002 -1.427894e+000 1.568658e+002 -1.470532e+001 1.306886e+002
8943851250 -1.208433e+001 -3.037510e+001 -1.529250e+000 1.497904e+002 -1.524716e+000 1.498542e+002 -1.285878e+001 1.215705e+002
9004599900 -1.110098e+001 -3.112672e+001 -1.640241e+000 1.428850e+002 -1.652339e+000 1.429490e+002 -1.160170e+001 1.134167e+002
9065348550 -1.019782e+001 -3.447128e+001 -1.773513e+000 1.361459e+002 -1.770313e+000 1.361985e+002 -1.044736e+001 1.047883e+002
9126097200 -9.442830e+000 -3.792784e+001 -1.925947e+000 1.294209e+002 -1.929068e+000 1.294589e+002 -9.572802e+000 9.620408e+001
9186845850 -8.823256e+000 -4.152216e+001 -2.104598e+000 1.228335e+002 -2.109908e+000 1.229034e+002 -8.894101e+000 8.798553e+001
9247594500 -8.383051e+000 -4.647319e+001 -2.329778e+000 1.168619e+002 -2.335052e+000 1.168747e+002 -8.352839e+000 7.852092e+001
9308343150 -8.198880e+000 -5.062589e+001 -2.553388e+000 1.114422e+002 -2.547322e+000 1.115293e+002 -8.191693e+000 7.005880e+001
9369091800 -8.003111e+000 -5.248287e+001 -2.558273e+000 1.067174e+002 -2.570107e+000 1.067481e+002 -8.256775e+000 6.471624e+001
9429840450 -7.633379e+000 -5.553660e+001 -2.495003e+000 1.009986e+002 -2.489388e+000 1.010785e+002 -7.798711e+000 6.060537e+001
9490589100 -7.255478e+000 -5.824003e+001 -2.462032e+000 9.443336e+001 -2.471480e+000 9.446491e+001 -7.248150e+000 5.466230e+001
9551337750 -6.959373e+000 -6.173184e+001 -2.500150e+000 8.807401e+001 -2.506757e+000 8.816364e+001 -6.773616e+000 4.764642e+001
9612086400 -6.708966e+000 -6.568173e+001 -2.581458e+000 8.201634e+001 -2.589483e+000 8.202850e+001 -6.403203e+000 4.024730e+001
9672835050 -6.488253e+000 -6.915355e+001 -2.642470e+000 7.558313e+001 -2.641377e+000 7.564041e+001 -6.152131e+000 3.303351e+001
9733583700 -6.325331e+000 -7.297958e+001 -2.699924e+000 6.980379e+001 -2.711226e+000 6.981728e+001 -5.941915e+000 2.590859e+001
9794332350 -6.210919e+000 -7.707158e+001 -2.782885e+000 6.388229e+001 -2.783243e+000 6.393710e+001 -5.775945e+000 1.865698e+001
9855081000 -6.100559e+000 -8.055594e+001 -2.806525e+000 5.779412e+001 -2.815342e+000 5.779829e+001 -5.687839e+000 1.154004e+001
9915829650 -6.071637e+000 -8.435218e+001 -2.853326e+000 5.205371e+001 -2.851438e+000 5.212258e+001 -5.586114e+000 4.459787e+000
9976578300 -6.047569e+000 -8.838132e+001 -2.898424e+000 4.623292e+001 -2.902655e+000 4.624623e+001 -5.550182e+000 -2.550663e+000
10037326950 -6.051537e+000 -9.178613e+001 -2.887158e+000 4.023571e+001 -2.885595e+000 4.029705e+001 -5.580098e+000 -9.708811e+000
10098075600 -6.130424e+000 -9.572171e+001 -2.902920e+000 3.449784e+001 -2.903377e+000 3.451215e+001 -5.604459e+000 -1.663308e+001
10158824250 -6.241996e+000 -9.979485e+001 -2.907132e+000 2.838370e+001 -2.907311e+000 2.844253e+001 -5.722073e+000 -2.358929e+001
10219572900 -6.390132e+000 -1.035190e+002 -2.870243e+000 2.231705e+001 -2.871508e+000 2.232824e+001 -5.892825e+000 -3.058479e+001
10280321550 -6.650290e+000 -1.076430e+002 -2.867353e+000 1.609117e+001 -2.863803e+000 1.614712e+001 -6.076409e+000 -3.733683e+001
10341070200 -6.973224e+000 -1.114281e+002 -2.889743e+000 9.438145e+000 -2.893212e+000 9.440970e+000 -6.430029e+000 -4.374026e+001
10401818850 -7.455649e+000 -1.144951e+002 -2.970737e+000 2.686347e+000 -2.970289e+000 2.767919e+000 -6.777549e+000 -4.908743e+001
10462567500 -7.884362e+000 -1.155654e+002 -3.274063e+000 -3.406561e+000 -3.275711e+000 -3.405446e+000 -6.879745e+000 -5.227424e+001
10523316150 -7.753049e+000 -1.160703e+002 -3.482199e+000 -7.239554e+000 -3.488697e+000 -7.146655e+000 -6.490272e+000 -5.816317e+001
