!Agilent Technologies,N5230C,MY48100320,A.08.04.10
!Agilent N5230C: A.08.04.10
!Date: Thursday, August 04, 2016 04:17:27
!Correction: S11(Full 2 Port(1,2)) 
!S21(Full 2 Port(1,2)) 
!S12(Full 2 Port(1,2)) 
!S22(Full 2 Port(1,2)) 
!S2P File: Measurements: S11, S21, S12, S22:
# Hz S  dB   R 50
1350270000 -1.071754e+001 -1.687505e+002 -4.905747e-001 -1.152520e+002 -4.929461e-001 -1.152578e+002 -1.058243e+001 1.181890e+002
1411018650 -1.042419e+001 -1.721950e+002 -5.200048e-001 -1.202768e+002 -5.205878e-001 -1.202694e+002 -1.026379e+001 1.114035e+002
1471767300 -1.014986e+001 -1.753465e+002 -5.465917e-001 -1.252415e+002 -5.519263e-001 -1.252376e+002 -1.001497e+001 1.046178e+002
1532515950 -9.934976e+000 -1.784225e+002 -5.785968e-001 -1.302519e+002 -5.806295e-001 -1.302458e+002 -9.801399e+000 9.769466e+001
1593264600 -9.691950e+000 1.781437e+002 -6.044483e-001 -1.351697e+002 -6.073651e-001 -1.351626e+002 -9.524225e+000 9.140224e+001
1654013250 -9.500551e+000 1.747298e+002 -6.398973e-001 -1.400863e+002 -6.326284e-001 -1.400769e+002 -9.337769e+000 8.474446e+001
1714761900 -9.299000e+000 1.712397e+002 -6.578515e-001 -1.450028e+002 -6.571802e-001 -1.450070e+002 -9.149326e+000 7.855226e+001
1775510550 -9.161473e+000 1.676670e+002 -6.867293e-001 -1.499381e+002 -6.792533e-001 -1.499279e+002 -8.970245e+000 7.210973e+001
1836259200 -8.952644e+000 1.640438e+002 -7.043561e-001 -1.548253e+002 -7.092906e-001 -1.548232e+002 -8.828016e+000 6.614314e+001
1897007850 -8.857875e+000 1.603955e+002 -7.260593e-001 -1.596996e+002 -7.251452e-001 -1.596822e+002 -8.708773e+000 5.979480e+001
1957756500 -8.721319e+000 1.566204e+002 -7.436532e-001 -1.645819e+002 -7.480821e-001 -1.645766e+002 -8.594873e+000 5.400439e+001
2018505150 -8.635209e+000 1.526678e+002 -7.665722e-001 -1.694767e+002 -7.647998e-001 -1.694599e+002 -8.504714e+000 4.803846e+001
2079253800 -8.528689e+000 1.488514e+002 -7.706195e-001 -1.743068e+002 -7.787812e-001 -1.742924e+002 -8.412099e+000 4.222921e+001
2140002450 -8.479209e+000 1.448855e+002 -7.856891e-001 -1.791737e+002 -7.959049e-001 -1.791571e+002 -8.369667e+000 3.638422e+001
2200751100 -8.435487e+000 1.408639e+002 -7.907010e-001 1.759545e+002 -7.923691e-001 1.759624e+002 -8.310854e+000 3.068107e+001
2261499750 -8.420550e+000 1.368003e+002 -8.151489e-001 1.711155e+002 -8.117701e-001 1.711311e+002 -8.287594e+000 2.498731e+001
2322248400 -8.367141e+000 1.328493e+002 -8.070813e-001 1.662660e+002 -8.238959e-001 1.662793e+002 -8.276994e+000 1.933528e+001
2382997050 -8.407051e+000 1.286045e+002 -8.091344e-001 1.614048e+002 -8.070177e-001 1.614170e+002 -8.268816e+000 1.358948e+001
2443745700 -8.362845e+000 1.244905e+002 -8.052438e-001 1.565131e+002 -8.144575e-001 1.565107e+002 -8.301263e+000 8.110847e+000
2504494350 -8.385258e+000 1.202822e+002 -8.027795e-001 1.516138e+002 -8.063704e-001 1.516263e+002 -8.311538e+000 2.408961e+000
2565243000 -8.422819e+000 1.161353e+002 -7.915909e-001 1.466854e+002 -7.991673e-001 1.466966e+002 -8.355520e+000 -3.189542e+000
2625991650 -8.445691e+000 1.119375e+002 -7.857777e-001 1.417294e+002 -7.928098e-001 1.417475e+002 -8.391966e+000 -8.884978e+000
2686740300 -8.500705e+000 1.077965e+002 -7.774017e-001 1.368311e+002 -7.751139e-001 1.368301e+002 -8.415395e+000 -1.465013e+001
2747488950 -8.582353e+000 1.035346e+002 -7.722832e-001 1.318625e+002 -7.734333e-001 1.318922e+002 -8.473862e+000 -2.032496e+001
2808237600 -8.623034e+000 9.961534e+001 -7.600876e-001 1.269005e+002 -7.676929e-001 1.269019e+002 -8.551185e+000 -2.617712e+001
2868986250 -8.712461e+000 9.537994e+001 -7.567554e-001 1.219228e+002 -7.622765e-001 1.219374e+002 -8.599618e+000 -3.204381e+001
2929734900 -8.755431e+000 9.151411e+001 -7.321894e-001 1.169360e+002 -7.429883e-001 1.169448e+002 -8.661962e+000 -3.802802e+001
2990483550 -8.866385e+000 8.771225e+001 -7.506896e-001 1.119583e+002 -7.450943e-001 1.119660e+002 -8.726176e+000 -4.421133e+001
3051232200 -8.932314e+000 8.400114e+001 -7.277974e-001 1.069581e+002 -7.349676e-001 1.069584e+002 -8.794918e+000 -5.041247e+001
3111980850 -9.016319e+000 8.015791e+001 -7.188772e-001 1.019449e+002 -7.222967e-001 1.019755e+002 -8.867010e+000 -5.666048e+001
3172729500 -9.083247e+000 7.685594e+001 -6.997823e-001 9.689606e+001 -7.176629e-001 9.690742e+001 -8.923409e+000 -6.311795e+001
3233478150 -9.200592e+000 7.308105e+001 -6.846592e-001 9.194633e+001 -6.900979e-001 9.197419e+001 -9.005255e+000 -6.944800e+001
3294226800 -9.303495e+000 6.978304e+001 -6.803631e-001 8.693562e+001 -6.854445e-001 8.694502e+001 -9.086007e+000 -7.600822e+001
3354975450 -9.421746e+000 6.645555e+001 -6.721545e-001 8.190771e+001 -6.663530e-001 8.193998e+001 -9.161166e+000 -8.284002e+001
3415724100 -9.535573e+000 6.349820e+001 -6.651516e-001 7.687943e+001 -6.730831e-001 7.687598e+001 -9.216895e+000 -8.941448e+001
3476472750 -9.676145e+000 6.034152e+001 -6.625778e-001 7.184682e+001 -6.518179e-001 7.187192e+001 -9.330240e+000 -9.632801e+001
3537221400 -9.811072e+000 5.761457e+001 -6.423658e-001 6.683862e+001 -6.474081e-001 6.681457e+001 -9.455009e+000 -1.032544e+002
3597970050 -9.962124e+000 5.431700e+001 -6.267728e-001 6.181231e+001 -6.231617e-001 6.183708e+001 -9.557034e+000 -1.101042e+002
3658718700 -1.015528e+001 5.179843e+001 -6.097640e-001 5.677348e+001 -6.227627e-001 5.678289e+001 -9.696076e+000 -1.170130e+002
3719467350 -1.035154e+001 4.843935e+001 -6.025310e-001 5.177605e+001 -5.993323e-001 5.179207e+001 -9.848492e+000 -1.239590e+002
3780216000 -1.052258e+001 4.571806e+001 -5.745801e-001 4.676052e+001 -5.765118e-001 4.676355e+001 -1.000254e+001 -1.309793e+002
3840964650 -1.074933e+001 4.311758e+001 -5.516241e-001 4.171691e+001 -5.615409e-001 4.174237e+001 -1.021586e+001 -1.380435e+002
3901713300 -1.101049e+001 3.981879e+001 -5.273506e-001 3.671243e+001 -5.458302e-001 3.672966e+001 -1.046493e+001 -1.448470e+002
3962461950 -1.130467e+001 3.670293e+001 -5.215030e-001 3.166585e+001 -5.154520e-001 3.170877e+001 -1.072219e+001 -1.519311e+002
4023210600 -1.167558e+001 3.400673e+001 -4.768145e-001 2.664767e+001 -4.954257e-001 2.665746e+001 -1.104283e+001 -1.586216e+002
4083959250 -1.202923e+001 3.033765e+001 -4.722896e-001 2.160607e+001 -4.538032e-001 2.163414e+001 -1.142784e+001 -1.655709e+002
4144707900 -1.251435e+001 2.774203e+001 -4.292817e-001 1.652970e+001 -4.356676e-001 1.653406e+001 -1.185414e+001 -1.726338e+002
4205456550 -1.305357e+001 2.389211e+001 -4.004203e-001 1.140563e+001 -4.009455e-001 1.145111e+001 -1.239509e+001 -1.789639e+002
4266205200 -1.365625e+001 2.070208e+001 -3.650445e-001 6.337370e+000 -3.802133e-001 6.353889e+000 -1.301674e+001 1.737862e+002
4326953850 -1.442962e+001 1.681494e+001 -3.461749e-001 1.198473e+000 -3.457420e-001 1.245014e+000 -1.369880e+001 1.670958e+002
4387702500 -1.529455e+001 1.325112e+001 -2.954645e-001 -3.927628e+000 -3.094732e-001 -3.920065e+000 -1.453897e+001 1.604180e+002
4448451150 -1.626206e+001 9.096574e+000 -2.871126e-001 -9.121073e+000 -2.781122e-001 -9.092408e+000 -1.547026e+001 1.531420e+002
4509199800 -1.747211e+001 6.436200e+000 -2.384517e-001 -1.434081e+001 -2.595331e-001 -1.434443e+001 -1.663157e+001 1.459085e+002
4569948450 -1.902990e+001 7.292588e-001 -2.391423e-001 -1.956117e+001 -2.315021e-001 -1.952982e+001 -1.798717e+001 1.395690e+002
4630697100 -2.086227e+001 -1.963321e+000 -1.999322e-001 -2.482643e+001 -2.251580e-001 -2.481236e+001 -1.984653e+001 1.313599e+002
4691445750 -2.343813e+001 -7.337214e+000 -1.974606e-001 -3.009873e+001 -1.883593e-001 -3.008469e+001 -2.202416e+001 1.240490e+002
4752194400 -2.727817e+001 -1.272954e+001 -1.710107e-001 -3.540066e+001 -1.738045e-001 -3.537474e+001 -2.515763e+001 1.147874e+002
4812943050 -3.332190e+001 -2.473149e+001 -1.780280e-001 -4.070892e+001 -1.742531e-001 -4.069307e+001 -2.983613e+001 1.025807e+002
4873691700 -4.675251e+001 -1.684459e+002 -1.598404e-001 -4.601134e+001 -1.853741e-001 -4.599339e+001 -4.094602e+001 6.245085e+001
4934440350 -3.134640e+001 1.696597e+002 -1.666736e-001 -5.132112e+001 -1.745788e-001 -5.129969e+001 -3.558755e+001 -5.471834e+001
4995189000 -2.643193e+001 1.585054e+002 -1.783590e-001 -5.662833e+001 -1.864535e-001 -5.661479e+001 -2.806583e+001 -7.239794e+001
5055937650 -2.309337e+001 1.542931e+002 -1.923612e-001 -6.191099e+001 -1.994604e-001 -6.189577e+001 -2.436497e+001 -8.460185e+001
5116686300 -2.113424e+001 1.482382e+002 -2.154811e-001 -6.719741e+001 -2.158977e-001 -6.716686e+001 -2.177610e+001 -9.013339e+001
5177434950 -1.931423e+001 1.434301e+002 -2.287672e-001 -7.243624e+001 -2.420499e-001 -7.242310e+001 -1.998233e+001 -9.938171e+001
5238183600 -1.796512e+001 1.381033e+002 -2.652587e-001 -7.768622e+001 -2.536640e-001 -7.766322e+001 -1.846819e+001 -1.048009e+002
5298932250 -1.707074e+001 1.348674e+002 -2.761770e-001 -8.298662e+001 -2.922290e-001 -8.296679e+001 -1.743058e+001 -1.128796e+002
5359680900 -1.603629e+001 1.295634e+002 -2.891632e-001 -8.814797e+001 -2.964767e-001 -8.812644e+001 -1.640675e+001 -1.191660e+002
5420429550 -1.545323e+001 1.261055e+002 -3.330754e-001 -9.332534e+001 -3.324673e-001 -9.330248e+001 -1.560893e+001 -1.265035e+002
5481178200 -1.484668e+001 1.217111e+002 -3.358252e-001 -9.846187e+001 -3.590940e-001 -9.842645e+001 -1.504344e+001 -1.334515e+002
5541926850 -1.430545e+001 1.178284e+002 -3.768082e-001 -1.035961e+002 -3.765345e-001 -1.035962e+002 -1.444751e+001 -1.404050e+002
5602675500 -1.402096e+001 1.138552e+002 -3.873162e-001 -1.087489e+002 -3.871397e-001 -1.087026e+002 -1.404525e+001 -1.468623e+002
5663424150 -1.364052e+001 1.099471e+002 -4.028162e-001 -1.137961e+002 -4.339621e-001 -1.137960e+002 -1.365991e+001 -1.547918e+002
5724172800 -1.339881e+001 1.060491e+002 -4.410867e-001 -1.189673e+002 -4.451900e-001 -1.189212e+002 -1.328848e+001 -1.605847e+002
5784921450 -1.320475e+001 1.025081e+002 -4.529958e-001 -1.240019e+002 -4.583043e-001 -1.240025e+002 -1.306618e+001 -1.684936e+002
5845670100 -1.291503e+001 9.839216e+001 -4.519648e-001 -1.291298e+002 -4.604679e-001 -1.290936e+002 -1.276309e+001 -1.752330e+002
5906418750 -1.273835e+001 9.532157e+001 -4.605664e-001 -1.342120e+002 -4.661880e-001 -1.342119e+002 -1.250849e+001 1.774927e+002
5967167400 -1.258203e+001 9.157060e+001 -4.924704e-001 -1.393559e+002 -4.946429e-001 -1.393060e+002 -1.236318e+001 1.705758e+002
6027916050 -1.243157e+001 8.789856e+001 -5.120823e-001 -1.444232e+002 -5.160120e-001 -1.444220e+002 -1.207663e+001 1.633031e+002
6088664700 -1.224143e+001 8.463193e+001 -5.258381e-001 -1.495524e+002 -5.136127e-001 -1.494970e+002 -1.189607e+001 1.566660e+002
6149413350 -1.207522e+001 8.093295e+001 -5.172784e-001 -1.546218e+002 -5.378010e-001 -1.546159e+002 -1.169374e+001 1.494184e+002
6210162000 -1.190946e+001 7.688695e+001 -5.550925e-001 -1.597408e+002 -5.419378e-001 -1.596904e+002 -1.147405e+001 1.431007e+002
6270910650 -1.168629e+001 7.369387e+001 -5.403190e-001 -1.647997e+002 -5.475194e-001 -1.647834e+002 -1.126493e+001 1.359503e+002
6331659300 -1.159101e+001 6.929526e+001 -5.579095e-001 -1.698818e+002 -5.659280e-001 -1.698319e+002 -1.108436e+001 1.298347e+002
6392407950 -1.131281e+001 6.575400e+001 -5.826158e-001 -1.749505e+002 -5.873934e-001 -1.749411e+002 -1.078178e+001 1.232506e+002
6453156600 -1.114124e+001 6.201571e+001 -5.910302e-001 1.799027e+002 -5.951667e-001 1.799593e+002 -1.065258e+001 1.170196e+002
6513905250 -1.094296e+001 5.796869e+001 -6.125857e-001 1.749155e+002 -6.273041e-001 1.749181e+002 -1.034640e+001 1.105638e+002
6574653900 -1.067502e+001 5.424693e+001 -6.392400e-001 1.697383e+002 -6.410522e-001 1.698151e+002 -1.015707e+001 1.048739e+002
6635402550 -1.047459e+001 5.023647e+001 -6.499593e-001 1.647380e+002 -6.615971e-001 1.647632e+002 -9.921056e+000 9.831508e+001
6696151200 -1.028376e+001 4.626406e+001 -6.811551e-001 1.597139e+002 -6.848266e-001 1.597940e+002 -9.684362e+000 9.266081e+001
6756899850 -9.990091e+000 4.253636e+001 -7.013499e-001 1.546910e+002 -7.084467e-001 1.546870e+002 -9.482020e+000 8.655157e+001
6817648500 -9.877975e+000 3.830025e+001 -7.257084e-001 1.496883e+002 -7.252366e-001 1.497363e+002 -9.312224e+000 8.077345e+001
6878397150 -9.605762e+000 3.460229e+001 -7.453115e-001 1.447484e+002 -7.590762e-001 1.447315e+002 -9.073631e+000 7.495791e+001
6939145800 -9.447131e+000 3.067493e+001 -7.726394e-001 1.397240e+002 -7.692093e-001 1.397964e+002 -8.949774e+000 6.916870e+001
6999894450 -9.252640e+000 2.687249e+001 -7.896720e-001 1.348642e+002 -8.009004e-001 1.348784e+002 -8.720178e+000 6.319783e+001
7060643100 -9.085275e+000 2.320214e+001 -8.175863e-001 1.298869e+002 -8.151312e-001 1.299698e+002 -8.606610e+000 5.738187e+001
7121391750 -8.955597e+000 1.949928e+001 -8.297533e-001 1.250535e+002 -8.362096e-001 1.250693e+002 -8.462258e+000 5.151740e+001
7182140400 -8.855424e+000 1.565566e+001 -8.508797e-001 1.201161e+002 -8.562005e-001 1.202142e+002 -8.370906e+000 4.590762e+001
7242889050 -8.731058e+000 1.214193e+001 -8.632222e-001 1.152659e+002 -8.683425e-001 1.152856e+002 -8.300759e+000 4.008364e+001
7303637700 -8.696157e+000 8.540100e+000 -8.771220e-001 1.104282e+002 -8.814947e-001 1.105069e+002 -8.203752e+000 3.409259e+001
7364386350 -8.562853e+000 4.716165e+000 -8.883823e-001 1.055846e+002 -9.021682e-001 1.055900e+002 -8.164252e+000 2.829851e+001
7425135000 -8.567698e+000 1.448809e+000 -9.050624e-001 1.006823e+002 -8.967879e-001 1.007816e+002 -8.160177e+000 2.236671e+001
7485883650 -8.526218e+000 -1.982118e+000 -8.943669e-001 9.594772e+001 -9.109799e-001 9.598658e+001 -8.104524e+000 1.612443e+001
7546632300 -8.530030e+000 -5.737699e+000 -9.139276e-001 9.104347e+001 -9.109645e-001 9.115789e+001 -8.170177e+000 1.055447e+001
7607380950 -8.558671e+000 -8.558123e+000 -8.982231e-001 8.623110e+001 -9.008673e-001 8.623180e+001 -8.178279e+000 4.195425e+000
7668129600 -8.633509e+000 -1.201213e+001 -8.983750e-001 8.139960e+001 -9.094593e-001 8.147796e+001 -8.203762e+000 -2.251344e+000
7728878250 -8.630038e+000 -1.548063e+001 -8.958113e-001 7.652875e+001 -9.008319e-001 7.653460e+001 -8.326312e+000 -8.208132e+000
7789626900 -8.807131e+000 -1.820480e+001 -8.860478e-001 7.156963e+001 -8.850569e-001 7.167580e+001 -8.392273e+000 -1.485019e+001
7850375550 -8.843711e+000 -2.174280e+001 -8.748238e-001 6.681444e+001 -8.845997e-001 6.681715e+001 -8.480269e+000 -2.158687e+001
7911124200 -8.960257e+000 -2.469264e+001 -8.681970e-001 6.179198e+001 -8.642558e-001 6.191256e+001 -8.643635e+000 -2.788026e+001
7971872850 -9.137977e+000 -2.736342e+001 -8.463556e-001 5.692846e+001 -8.519104e-001 5.691242e+001 -8.702674e+000 -3.476018e+001
8032621500 -9.256419e+000 -3.089001e+001 -8.412380e-001 5.195483e+001 -8.469571e-001 5.204699e+001 -8.928122e+000 -4.124907e+001
8093370150 -9.357489e+000 -3.366087e+001 -8.221890e-001 4.706242e+001 -8.256733e-001 4.704873e+001 -9.066795e+000 -4.843422e+001
8154118800 -9.640804e+000 -3.645357e+001 -8.152227e-001 4.198339e+001 -8.169381e-001 4.210805e+001 -9.203502e+000 -5.494373e+001
8214867450 -9.695088e+000 -4.010611e+001 -7.974123e-001 3.711057e+001 -8.026381e-001 3.710022e+001 -9.467156e+000 -6.185932e+001
8275616100 -9.896197e+000 -4.262164e+001 -7.865643e-001 3.196557e+001 -7.903771e-001 3.208533e+001 -9.680555e+000 -6.898946e+001
8336364750 -1.009758e+001 -4.560690e+001 -7.752359e-001 2.703711e+001 -7.794931e-001 2.705248e+001 -9.813648e+000 -7.596071e+001
8397113400 -1.021058e+001 -4.889649e+001 -7.665943e-001 2.201900e+001 -7.750971e-001 2.210641e+001 -1.018416e+001 -8.294013e+001
8457862050 -1.038055e+001 -5.180579e+001 -7.517274e-001 1.699757e+001 -7.574253e-001 1.700637e+001 -1.037198e+001 -9.040292e+001
8518610700 -1.064050e+001 -5.495680e+001 -7.447906e-001 1.190839e+001 -7.553019e-001 1.200935e+001 -1.062708e+001 -9.670142e+001
8579359350 -1.066706e+001 -5.852471e+001 -7.384214e-001 6.926913e+000 -7.418889e-001 6.959662e+000 -1.100264e+001 -1.043030e+002
8640108000 -1.097009e+001 -6.158861e+001 -7.299576e-001 1.816546e+000 -7.377247e-001 1.938643e+000 -1.128199e+001 -1.110759e+002
8700856650 -1.110987e+001 -6.511659e+001 -7.243474e-001 -3.138791e+000 -7.333838e-001 -3.119164e+000 -1.150276e+001 -1.180749e+002
8761605300 -1.124019e+001 -6.916603e+001 -7.257212e-001 -8.185370e+000 -7.289596e-001 -8.085373e+000 -1.200244e+001 -1.250738e+002
8822353950 -1.152020e+001 -7.296381e+001 -7.100292e-001 -1.320203e+001 -7.186599e-001 -1.315810e+001 -1.223649e+001 -1.317255e+002
8883102600 -1.174720e+001 -7.711371e+001 -7.049276e-001 -1.818608e+001 -7.141939e-001 -1.810682e+001 -1.262766e+001 -1.380551e+002
8943851250 -1.183934e+001 -8.162218e+001 -7.017531e-001 -2.320134e+001 -7.034482e-001 -2.315108e+001 -1.306621e+001 -1.456201e+002
9004599900 -1.236604e+001 -8.602478e+001 -6.830899e-001 -2.822557e+001 -6.949283e-001 -2.811329e+001 -1.344066e+001 -1.512166e+002
9065348550 -1.254696e+001 -9.089708e+001 -6.667312e-001 -3.315909e+001 -6.660597e-001 -3.313862e+001 -1.386389e+001 -1.584825e+002
9126097200 -1.295224e+001 -9.613626e+001 -6.452815e-001 -3.823875e+001 -6.466061e-001 -3.812040e+001 -1.452733e+001 -1.645754e+002
9186845850 -1.357012e+001 -1.016611e+002 -6.068198e-001 -4.321584e+001 -6.148486e-001 -4.319643e+001 -1.488103e+001 -1.703211e+002
9247594500 -1.405841e+001 -1.068572e+002 -5.807438e-001 -4.827691e+001 -5.826312e-001 -4.819289e+001 -1.567416e+001 -1.775259e+002
9308343150 -1.470212e+001 -1.131144e+002 -5.523497e-001 -5.338567e+001 -5.512810e-001 -5.335773e+001 -1.632272e+001 1.759262e+002
9369091800 -1.574927e+001 -1.186464e+002 -5.114768e-001 -5.858656e+001 -5.194725e-001 -5.847772e+001 -1.708505e+001 1.699404e+002
9429840450 -1.621285e+001 -1.238365e+002 -4.881794e-001 -6.377047e+001 -4.846216e-001 -6.372684e+001 -1.792403e+001 1.603206e+002
9490589100 -1.766780e+001 -1.305325e+002 -4.489332e-001 -6.907028e+001 -4.523011e-001 -6.894473e+001 -1.923561e+001 1.541758e+002
9551337750 -1.871404e+001 -1.371954e+002 -4.265845e-001 -7.426428e+001 -4.358421e-001 -7.423246e+001 -2.035263e+001 1.450416e+002
9612086400 -2.012464e+001 -1.428969e+002 -4.122908e-001 -7.954317e+001 -4.191230e-001 -7.946320e+001 -2.196274e+001 1.341902e+002
9672835050 -2.201257e+001 -1.541014e+002 -4.003333e-001 -8.482028e+001 -4.055268e-001 -8.480282e+001 -2.398384e+001 1.240583e+002
9733583700 -2.435164e+001 -1.643129e+002 -3.835733e-001 -9.012052e+001 -3.928503e-001 -9.004406e+001 -2.657815e+001 1.095991e+002
9794332350 -2.662885e+001 -1.755842e+002 -3.785242e-001 -9.539858e+001 -3.808917e-001 -9.536515e+001 -2.862172e+001 8.569542e+001
9855081000 -3.050784e+001 1.469110e+002 -3.705891e-001 -1.007335e+002 -3.781805e-001 -1.006637e+002 -3.348507e+001 4.857740e+001
9915829650 -3.089343e+001 1.128735e+002 -3.700443e-001 -1.059993e+002 -3.741003e-001 -1.059604e+002 -3.111453e+001 7.034026e+000
9976578300 -2.942908e+001 6.971373e+001 -3.721636e-001 -1.112985e+002 -3.766197e-001 -1.112603e+002 -2.845600e+001 -2.718598e+001
10037326950 -2.565751e+001 5.352079e+001 -3.824254e-001 -1.166089e+002 -3.848192e-001 -1.166060e+002 -2.558711e+001 -5.007227e+001
10098075600 -2.335867e+001 3.899639e+001 -3.853401e-001 -1.218948e+002 -3.872607e-001 -1.218627e+002 -2.322155e+001 -6.169627e+001
10158824250 -2.175469e+001 3.216387e+001 -4.039438e-001 -1.271500e+002 -4.082860e-001 -1.271441e+002 -2.162480e+001 -7.352723e+001
10219572900 -1.975645e+001 2.596380e+001 -4.244540e-001 -1.324201e+002 -4.272546e-001 -1.323757e+002 -1.994238e+001 -8.679401e+001
10280321550 -1.892183e+001 2.072998e+001 -4.294322e-001 -1.376575e+002 -4.312389e-001 -1.376524e+002 -1.896660e+001 -9.263927e+001
10341070200 -1.761801e+001 1.532534e+001 -4.560225e-001 -1.428781e+002 -4.583586e-001 -1.427970e+002 -1.781851e+001 -1.039157e+002
10401818850 -1.683989e+001 1.233643e+001 -4.752131e-001 -1.481433e+002 -4.786827e-001 -1.481083e+002 -1.702384e+001 -1.118507e+002
10462567500 -1.629981e+001 6.550387e+000 -4.885737e-001 -1.533584e+002 -4.889251e-001 -1.533044e+002 -1.632692e+001 -1.193478e+002
10523316150 -1.548822e+001 4.459738e+000 -5.222466e-001 -1.585300e+002 -5.320607e-001 -1.584720e+002 -1.556971e+001 -1.281824e+002
