!Agilent Technologies,N5230C,MY48100320,A.08.04.10
!Agilent N5230C: A.08.04.10
!Date: Thursday, August 04, 2016 04:19:41
!Correction: S11(Full 2 Port(1,2)) 
!S21(Full 2 Port(1,2)) 
!S12(Full 2 Port(1,2)) 
!S22(Full 2 Port(1,2)) 
!S2P File: Measurements: S11, S21, S12, S22:
# Hz S  dB   R 50
1350270000 -1.613760e+001 -1.531908e+002 -2.041496e-001 -1.060626e+002 -2.061583e-001 -1.060748e+002 -1.591176e+001 1.214846e+002
1411018650 -1.569180e+001 -1.562140e+002 -2.168218e-001 -1.108216e+002 -2.188563e-001 -1.108111e+002 -1.541657e+001 1.145811e+002
1471767300 -1.526456e+001 -1.587858e+002 -2.292104e-001 -1.155234e+002 -2.336174e-001 -1.155119e+002 -1.502301e+001 1.076540e+002
1532515950 -1.491531e+001 -1.612685e+002 -2.544684e-001 -1.202764e+002 -2.507380e-001 -1.202655e+002 -1.464940e+001 1.005821e+002
1593264600 -1.449475e+001 -1.643285e+002 -2.596412e-001 -1.249594e+002 -2.603099e-001 -1.249543e+002 -1.419612e+001 9.454016e+001
1654013250 -1.414444e+001 -1.675238e+002 -2.753158e-001 -1.296691e+002 -2.814737e-001 -1.296523e+002 -1.386218e+001 8.772013e+001
1714761900 -1.378306e+001 -1.707438e+002 -2.975808e-001 -1.343600e+002 -2.919123e-001 -1.343484e+002 -1.352215e+001 8.194157e+001
1775510550 -1.352181e+001 -1.741910e+002 -3.132472e-001 -1.390765e+002 -3.107268e-001 -1.390658e+002 -1.317651e+001 7.562453e+001
1836259200 -1.311821e+001 -1.775843e+002 -3.279424e-001 -1.437484e+002 -3.268829e-001 -1.437522e+002 -1.291589e+001 6.998472e+001
1897007850 -1.289912e+001 1.786916e+002 -3.460098e-001 -1.484452e+002 -3.413876e-001 -1.484143e+002 -1.262649e+001 6.375500e+001
1957756500 -1.258559e+001 1.751079e+002 -3.553097e-001 -1.531164e+002 -3.660366e-001 -1.530993e+002 -1.240087e+001 5.843439e+001
2018505150 -1.236701e+001 1.710175e+002 -3.715603e-001 -1.578109e+002 -3.733702e-001 -1.577904e+002 -1.216470e+001 5.271510e+001
2079253800 -1.211245e+001 1.672949e+002 -3.885946e-001 -1.624557e+002 -3.894227e-001 -1.624437e+002 -1.194648e+001 4.723101e+001
2140002450 -1.190895e+001 1.632328e+002 -3.931933e-001 -1.671341e+002 -4.064993e-001 -1.671119e+002 -1.176741e+001 4.171570e+001
2200751100 -1.173879e+001 1.592269e+002 -4.011697e-001 -1.718068e+002 -4.052849e-001 -1.717982e+002 -1.159877e+001 3.638589e+001
2261499750 -1.160175e+001 1.550298e+002 -4.328091e-001 -1.764781e+002 -4.271877e-001 -1.764539e+002 -1.144250e+001 3.102014e+001
2322248400 -1.140099e+001 1.511007e+002 -4.352388e-001 1.788575e+002 -4.457186e-001 1.788679e+002 -1.129932e+001 2.582691e+001
2382997050 -1.134187e+001 1.466206e+002 -4.450812e-001 1.741862e+002 -4.483272e-001 1.742036e+002 -1.114878e+001 2.042401e+001
2443745700 -1.115762e+001 1.427091e+002 -4.590081e-001 1.695066e+002 -4.693473e-001 1.695055e+002 -1.106935e+001 1.535591e+001
2504494350 -1.105372e+001 1.384338e+002 -4.728286e-001 1.648189e+002 -4.741931e-001 1.648338e+002 -1.091150e+001 1.005052e+001
2565243000 -1.095393e+001 1.343722e+002 -4.748854e-001 1.601279e+002 -4.813956e-001 1.601342e+002 -1.082015e+001 4.836751e+000
2625991650 -1.083609e+001 1.302678e+002 -4.942634e-001 1.554095e+002 -4.978729e-001 1.554244e+002 -1.070130e+001 -4.511667e-001
2686740300 -1.072962e+001 1.262450e+002 -4.995498e-001 1.507495e+002 -5.101311e-001 1.507438e+002 -1.057409e+001 -5.880730e+000
2747488950 -1.065501e+001 1.219732e+002 -5.156945e-001 1.460321e+002 -5.105882e-001 1.460677e+002 -1.044904e+001 -1.112467e+001
2808237600 -1.051443e+001 1.183427e+002 -5.217975e-001 1.413213e+002 -5.312413e-001 1.413335e+002 -1.036770e+001 -1.667908e+001
2868986250 -1.043553e+001 1.142142e+002 -5.457176e-001 1.366024e+002 -5.439973e-001 1.366300e+002 -1.023272e+001 -2.218052e+001
2929734900 -1.028804e+001 1.106234e+002 -5.403512e-001 1.318865e+002 -5.506781e-001 1.319082e+002 -1.012649e+001 -2.785716e+001
2990483550 -1.019774e+001 1.069391e+002 -5.721213e-001 1.271892e+002 -5.731595e-001 1.272090e+002 -9.982007e+000 -3.366803e+001
3051232200 -1.006433e+001 1.035333e+002 -5.813068e-001 1.224746e+002 -5.917749e-001 1.224678e+002 -9.856318e+000 -3.961517e+001
3111980850 -9.937428e+000 9.996003e+001 -6.011463e-001 1.177439e+002 -5.986291e-001 1.177758e+002 -9.717537e+000 -4.558187e+001
3172729500 -9.791684e+000 9.700954e+001 -6.130952e-001 1.129753e+002 -6.320497e-001 1.129835e+002 -9.559037e+000 -5.174602e+001
3233478150 -9.678462e+000 9.350302e+001 -6.365116e-001 1.083368e+002 -6.319542e-001 1.083687e+002 -9.416497e+000 -5.782096e+001
3294226800 -9.533849e+000 9.055362e+001 -6.404224e-001 1.036123e+002 -6.530963e-001 1.036266e+002 -9.262409e+000 -6.411449e+001
3354975450 -9.418571e+000 8.749120e+001 -6.724068e-001 9.891449e+001 -6.684174e-001 9.894030e+001 -9.099507e+000 -7.062216e+001
3415724100 -9.258820e+000 8.483453e+001 -6.873565e-001 9.416766e+001 -7.137820e-001 9.417171e+001 -8.907835e+000 -7.678569e+001
3476472750 -9.135564e+000 8.206371e+001 -7.266473e-001 8.947466e+001 -7.180344e-001 8.950381e+001 -8.749767e+000 -8.340665e+001
3537221400 -8.999679e+000 7.968662e+001 -7.476430e-001 8.479358e+001 -7.429276e-001 8.477477e+001 -8.588227e+000 -9.004544e+001
3597970050 -8.826455e+000 7.678711e+001 -7.644436e-001 8.013450e+001 -7.681238e-001 8.016475e+001 -8.421302e+000 -9.651521e+001
3658718700 -8.725996e+000 7.452104e+001 -7.967038e-001 7.545329e+001 -7.980214e-001 7.545448e+001 -8.249975e+000 -1.030102e+002
3719467350 -8.577101e+000 7.168863e+001 -8.258982e-001 7.083445e+001 -8.217129e-001 7.087733e+001 -8.105668e+000 -1.095337e+002
3780216000 -8.430271e+000 6.929796e+001 -8.525680e-001 6.622881e+001 -8.636001e-001 6.623838e+001 -7.949692e+000 -1.161300e+002
3840964650 -8.303722e+000 6.698853e+001 -8.795758e-001 6.161901e+001 -8.765854e-001 6.166057e+001 -7.807839e+000 -1.226729e+002
3901713300 -8.178246e+000 6.418606e+001 -9.035757e-001 5.709406e+001 -9.030527e-001 5.710015e+001 -7.692436e+000 -1.290086e+002
3962461950 -8.044148e+000 6.162530e+001 -9.299611e-001 5.252856e+001 -9.350630e-001 5.258400e+001 -7.578470e+000 -1.355391e+002
4023210600 -7.988643e+000 5.911991e+001 -9.474531e-001 4.803854e+001 -9.536177e-001 4.804283e+001 -7.463349e+000 -1.417251e+002
4083959250 -7.854431e+000 5.638131e+001 -9.805034e-001 4.357532e+001 -9.717748e-001 4.360649e+001 -7.418120e+000 -1.480998e+002
4144707900 -7.810417e+000 5.408179e+001 -9.854818e-001 3.907882e+001 -9.998841e-001 3.906923e+001 -7.321226e+000 -1.545049e+002
4205456550 -7.746212e+000 5.118514e+001 -9.950822e-001 3.458702e+001 -9.938344e-001 3.465132e+001 -7.297583e+000 -1.605808e+002
4266205200 -7.702165e+000 4.857740e+001 -1.007945e+000 3.020415e+001 -1.022304e+000 3.019889e+001 -7.273003e+000 -1.668901e+002
4326953850 -7.689169e+000 4.577943e+001 -1.028046e+000 2.575022e+001 -1.020550e+000 2.581120e+001 -7.252322e+000 -1.731048e+002
4387702500 -7.687465e+000 4.301083e+001 -1.014620e+000 2.138564e+001 -1.025470e+000 2.138572e+001 -7.246526e+000 -1.791327e+002
4448451150 -7.658721e+000 4.020157e+001 -1.029414e+000 1.691773e+001 -1.020637e+000 1.697448e+001 -7.261398e+000 1.745967e+002
4509199800 -7.708674e+000 3.761374e+001 -1.014220e+000 1.249990e+001 -1.029178e+000 1.248404e+001 -7.280114e+000 1.683677e+002
4569948450 -7.714553e+000 3.452202e+001 -1.016322e+000 8.104396e+000 -1.013809e+000 8.161066e+000 -7.338500e+000 1.624248e+002
4630697100 -7.776502e+000 3.184447e+001 -9.966033e-001 3.664618e+000 -1.017849e+000 3.662357e+000 -7.414295e+000 1.561277e+002
4691445750 -7.846986e+000 2.889464e+001 -9.922493e-001 -7.957436e-001 -9.863015e-001 -7.473561e-001 -7.492521e+000 1.499298e+002
4752194400 -7.929034e+000 2.595689e+001 -9.604343e-001 -5.200783e+000 -9.712182e-001 -5.217276e+000 -7.568240e+000 1.437764e+002
4812943050 -8.010866e+000 2.295229e+001 -9.691087e-001 -9.749229e+000 -9.636530e-001 -9.703273e+000 -7.687886e+000 1.375373e+002
4873691700 -8.157001e+000 2.016860e+001 -9.098603e-001 -1.424437e+001 -9.453360e-001 -1.423968e+001 -7.821763e+000 1.311529e+002
4934440350 -8.238918e+000 1.698156e+001 -9.099420e-001 -1.878208e+001 -9.117693e-001 -1.870888e+001 -7.931996e+000 1.249126e+002
4995189000 -8.362788e+000 1.420831e+001 -8.865390e-001 -2.335754e+001 -9.110716e-001 -2.340555e+001 -8.061631e+000 1.182661e+002
5055937650 -8.481662e+000 1.106291e+001 -8.646460e-001 -2.791368e+001 -8.814448e-001 -2.784073e+001 -8.221759e+000 1.117148e+002
5116686300 -8.567704e+000 8.262495e+000 -8.547469e-001 -3.248699e+001 -8.636973e-001 -3.251028e+001 -8.296044e+000 1.050244e+002
5177434950 -8.666607e+000 5.319873e+000 -8.262520e-001 -3.724067e+001 -8.312730e-001 -3.715958e+001 -8.448784e+000 9.850626e+001
5238183600 -8.801037e+000 2.496121e+000 -8.056741e-001 -4.176904e+001 -8.091751e-001 -4.177518e+001 -8.507061e+000 9.149227e+001
5298932250 -8.807671e+000 -6.757168e-001 -7.984071e-001 -4.660219e+001 -8.134575e-001 -4.653801e+001 -8.627144e+000 8.503816e+001
5359680900 -8.951192e+000 -3.519528e+000 -7.631775e-001 -5.126086e+001 -7.926028e-001 -5.128981e+001 -8.691020e+000 7.819260e+001
5420429550 -8.949219e+000 -6.564962e+000 -7.700714e-001 -5.591213e+001 -7.701691e-001 -5.582398e+001 -8.771252e+000 7.146827e+001
5481178200 -9.007792e+000 -9.704923e+000 -7.474626e-001 -6.065312e+001 -7.612858e-001 -6.068682e+001 -8.811699e+000 6.520035e+001
5541926850 -9.045436e+000 -1.293398e+001 -7.489564e-001 -6.541534e+001 -7.459885e-001 -6.534224e+001 -8.877285e+000 5.861134e+001
5602675500 -8.986299e+000 -1.602543e+001 -7.395001e-001 -7.009321e+001 -7.533513e-001 -7.010616e+001 -8.845489e+000 5.222963e+001
5663424150 -8.981491e+000 -1.928404e+001 -7.384660e-001 -7.492468e+001 -7.364829e-001 -7.485168e+001 -8.890998e+000 4.621128e+001
5724172800 -8.946895e+000 -2.253552e+001 -7.517274e-001 -7.948371e+001 -7.580595e-001 -7.951128e+001 -8.838976e+000 3.961055e+001
5784921450 -8.845292e+000 -2.592486e+001 -7.646632e-001 -8.434389e+001 -7.605167e-001 -8.427270e+001 -8.848634e+000 3.391327e+001
5845670100 -8.820861e+000 -2.920138e+001 -7.494890e-001 -8.896645e+001 -7.552136e-001 -8.899158e+001 -8.782022e+000 2.783976e+001
5906418750 -8.715197e+000 -3.288433e+001 -7.630031e-001 -9.374834e+001 -7.578707e-001 -9.368934e+001 -8.751657e+000 2.215612e+001
5967167400 -8.650336e+000 -3.640952e+001 -7.854556e-001 -9.841875e+001 -7.935250e-001 -9.844209e+001 -8.684444e+000 1.645946e+001
6027916050 -8.556123e+000 -3.987084e+001 -7.986477e-001 -1.031414e+002 -7.983570e-001 -1.030439e+002 -8.663928e+000 1.069428e+001
6088664700 -8.494654e+000 -4.365373e+001 -8.156573e-001 -1.077236e+002 -8.095515e-001 -1.077367e+002 -8.597491e+000 5.048794e+000
6149413350 -8.425358e+000 -4.721580e+001 -8.079191e-001 -1.124571e+002 -8.243722e-001 -1.123519e+002 -8.573572e+000 -4.269282e-001
6210162000 -8.382656e+000 -5.057741e+001 -8.259392e-001 -1.170145e+002 -8.188320e-001 -1.170263e+002 -8.498725e+000 -6.114740e+000
6270910650 -8.311584e+000 -5.436399e+001 -8.241351e-001 -1.216900e+002 -8.258957e-001 -1.215993e+002 -8.505672e+000 -1.134112e+001
6331659300 -8.265220e+000 -5.729153e+001 -8.307046e-001 -1.262758e+002 -8.419942e-001 -1.262761e+002 -8.436134e+000 -1.702442e+001
6392407950 -8.239231e+000 -6.101282e+001 -8.401168e-001 -1.309012e+002 -8.386568e-001 -1.308116e+002 -8.449924e+000 -2.279761e+001
6453156600 -8.211640e+000 -6.420145e+001 -8.493803e-001 -1.354626e+002 -8.543978e-001 -1.354788e+002 -8.397315e+000 -2.814923e+001
6513905250 -8.220603e+000 -6.736501e+001 -8.429602e-001 -1.401235e+002 -8.505732e-001 -1.400247e+002 -8.459811e+000 -3.403463e+001
6574653900 -8.250486e+000 -7.088980e+001 -8.489835e-001 -1.446064e+002 -8.569432e-001 -1.446193e+002 -8.415862e+000 -3.976359e+001
6635402550 -8.275226e+000 -7.390255e+001 -8.439971e-001 -1.493269e+002 -8.484997e-001 -1.492123e+002 -8.516055e+000 -4.539917e+001
6696151200 -8.344415e+000 -7.690981e+001 -8.336305e-001 -1.538091e+002 -8.420435e-001 -1.538109e+002 -8.551805e+000 -5.155435e+001
6756899850 -8.443231e+000 -8.043745e+001 -8.303059e-001 -1.584568e+002 -8.316278e-001 -1.583807e+002 -8.642511e+000 -5.731477e+001
6817648500 -8.500854e+000 -8.290916e+001 -8.174220e-001 -1.630150e+002 -8.255571e-001 -1.630193e+002 -8.719923e+000 -6.324389e+001
6878397150 -8.642945e+000 -8.630155e+001 -8.072109e-001 -1.676891e+002 -8.143520e-001 -1.675986e+002 -8.842162e+000 -6.959718e+001
6939145800 -8.749634e+000 -8.898412e+001 -7.911521e-001 -1.722382e+002 -7.932845e-001 -1.722275e+002 -8.939241e+000 -7.557959e+001
6999894450 -8.905103e+000 -9.190740e+001 -7.677719e-001 -1.769052e+002 -7.724192e-001 -1.768057e+002 -9.141023e+000 -8.219696e+001
7060643100 -9.093828e+000 -9.479372e+001 -7.485619e-001 1.785311e+002 -7.487721e-001 1.785430e+002 -9.260412e+000 -8.838448e+001
7121391750 -9.230041e+000 -9.758319e+001 -7.334664e-001 1.737798e+002 -7.323602e-001 1.738918e+002 -9.483884e+000 -9.495979e+001
7182140400 -9.425725e+000 -1.000406e+002 -7.059851e-001 1.692012e+002 -7.168548e-001 1.692062e+002 -9.610394e+000 -1.016173e+002
7242889050 -9.651487e+000 -1.030945e+002 -6.929066e-001 1.644985e+002 -6.914654e-001 1.645974e+002 -9.777949e+000 -1.081808e+002
7303637700 -9.783469e+000 -1.054905e+002 -6.628350e-001 1.598598e+002 -6.686869e-001 1.598829e+002 -1.000068e+001 -1.151416e+002
7364386350 -1.009933e+001 -1.081484e+002 -6.395575e-001 1.550899e+002 -6.465686e-001 1.552065e+002 -1.016816e+001 -1.218415e+002
7425135000 -1.027011e+001 -1.106986e+002 -6.197795e-001 1.505663e+002 -6.177174e-001 1.505784e+002 -1.033449e+001 -1.285585e+002
7485883650 -1.049027e+001 -1.135070e+002 -5.981176e-001 1.456987e+002 -6.092228e-001 1.458246e+002 -1.063301e+001 -1.357438e+002
7546632300 -1.079068e+001 -1.154045e+002 -5.831331e-001 1.411118e+002 -5.848771e-001 1.411205e+002 -1.069299e+001 -1.422997e+002
7607380950 -1.094974e+001 -1.186604e+002 -5.634866e-001 1.363926e+002 -5.605682e-001 1.364835e+002 -1.094204e+001 -1.494212e+002
7668129600 -1.117838e+001 -1.208344e+002 -5.327738e-001 1.316705e+002 -5.447392e-001 1.316987e+002 -1.118673e+001 -1.563901e+002
7728878250 -1.154035e+001 -1.235731e+002 -5.312920e-001 1.268690e+002 -5.286642e-001 1.269803e+002 -1.130869e+001 -1.627025e+002
7789626900 -1.155562e+001 -1.264807e+002 -5.059017e-001 1.223073e+002 -5.059456e-001 1.223484e+002 -1.157201e+001 -1.698525e+002
7850375550 -1.189960e+001 -1.290621e+002 -4.903134e-001 1.174562e+002 -4.969258e-001 1.175623e+002 -1.180437e+001 -1.764115e+002
7911124200 -1.213228e+001 -1.317945e+002 -4.784215e-001 1.128417e+002 -4.756817e-001 1.128953e+002 -1.192217e+001 1.776265e+002
7971872850 -1.223279e+001 -1.352983e+002 -4.627569e-001 1.081288e+002 -4.649696e-001 1.081760e+002 -1.230394e+001 1.702412e+002
8032621500 -1.252467e+001 -1.377245e+002 -4.442976e-001 1.034226e+002 -4.499425e-001 1.034558e+002 -1.240602e+001 1.643951e+002
8093370150 -1.281665e+001 -1.413959e+002 -4.363474e-001 9.864565e+001 -4.330679e-001 9.872357e+001 -1.274450e+001 1.586925e+002
8154118800 -1.284436e+001 -1.443882e+002 -4.187453e-001 9.404945e+001 -4.214561e-001 9.410770e+001 -1.304659e+001 1.514598e+002
8214867450 -1.327210e+001 -1.474658e+002 -4.084547e-001 8.920089e+001 -4.100955e-001 8.926178e+001 -1.320943e+001 1.456556e+002
8275616100 -1.343358e+001 -1.508959e+002 -3.914500e-001 8.456360e+001 -3.968293e-001 8.460475e+001 -1.350665e+001 1.403815e+002
8336364750 -1.366585e+001 -1.542821e+002 -3.845197e-001 7.981660e+001 -3.863664e-001 7.988085e+001 -1.394004e+001 1.333997e+002
8397113400 -1.402921e+001 -1.577332e+002 -3.610895e-001 7.510789e+001 -3.698029e-001 7.514761e+001 -1.412464e+001 1.283917e+002
8457862050 -1.433253e+001 -1.616502e+002 -3.586455e-001 7.034653e+001 -3.598469e-001 7.041203e+001 -1.462951e+001 1.231020e+002
8518610700 -1.452713e+001 -1.647308e+002 -3.372805e-001 6.564930e+001 -3.489644e-001 6.573475e+001 -1.494894e+001 1.164743e+002
8579359350 -1.508782e+001 -1.691009e+002 -3.293118e-001 6.085833e+001 -3.296613e-001 6.095016e+001 -1.539631e+001 1.117846e+002
8640108000 -1.525608e+001 -1.719758e+002 -3.172335e-001 5.617009e+001 -3.233489e-001 5.625231e+001 -1.577503e+001 1.064005e+002
8700856650 -1.569918e+001 -1.761909e+002 -3.130564e-001 5.140479e+001 -3.218485e-001 5.147905e+001 -1.646877e+001 9.951048e+001
8761605300 -1.624701e+001 -1.795323e+002 -2.979032e-001 4.665503e+001 -3.035183e-001 4.674398e+001 -1.688564e+001 9.571050e+001
8822353950 -1.661853e+001 1.770016e+002 -2.945394e-001 4.191331e+001 -3.011869e-001 4.197981e+001 -1.757586e+001 8.938638e+001
8883102600 -1.704945e+001 1.737029e+002 -2.840342e-001 3.714489e+001 -2.945428e-001 3.722287e+001 -1.823125e+001 8.309297e+001
8943851250 -1.796088e+001 1.694961e+002 -2.781430e-001 3.236095e+001 -2.738257e-001 3.244300e+001 -1.916370e+001 7.859267e+001
9004599900 -1.825246e+001 1.682212e+002 -2.723114e-001 2.762705e+001 -2.791303e-001 2.773394e+001 -1.977258e+001 7.200515e+001
9065348550 -1.921920e+001 1.629482e+002 -2.703572e-001 2.287474e+001 -2.675411e-001 2.292310e+001 -2.114716e+001 6.547655e+001
9126097200 -2.003769e+001 1.610625e+002 -2.624226e-001 1.807594e+001 -2.648979e-001 1.815744e+001 -2.184097e+001 6.181089e+001
9186845850 -2.082456e+001 1.597430e+002 -2.598342e-001 1.332234e+001 -2.668678e-001 1.335708e+001 -2.316393e+001 5.313070e+001
9247594500 -2.192053e+001 1.555811e+002 -2.558927e-001 8.533992e+000 -2.581569e-001 8.600901e+000 -2.489058e+001 4.856833e+001
9308343150 -2.334662e+001 1.559930e+002 -2.618837e-001 3.727609e+000 -2.601925e-001 3.800627e+000 -2.625376e+001 4.052108e+001
9369091800 -2.401172e+001 1.570507e+002 -2.533464e-001 -1.064414e+000 -2.615301e-001 -9.585696e-001 -2.782703e+001 3.521556e+001
9429840450 -2.671775e+001 1.511827e+002 -2.584692e-001 -5.880763e+000 -2.563373e-001 -5.808141e+000 -3.219207e+001 2.614133e+001
9490589100 -2.733411e+001 1.582208e+002 -2.575951e-001 -1.067850e+001 -2.631494e-001 -1.056362e+001 -3.334409e+001 2.303566e+001
9551337750 -3.007730e+001 1.625607e+002 -2.617832e-001 -1.545137e+001 -2.716110e-001 -1.540843e+001 -4.026076e+001 1.475363e+001
9612086400 -3.259256e+001 1.618163e+002 -2.696162e-001 -2.027414e+001 -2.761838e-001 -2.017148e+001 -5.316596e+001 -1.563328e+002
9672835050 -3.407158e+001 -1.749520e+002 -2.832169e-001 -2.505556e+001 -2.846445e-001 -2.502329e+001 -4.319209e+001 -1.747052e+002
9733583700 -3.622909e+001 -1.584886e+002 -2.845702e-001 -2.987012e+001 -2.914959e-001 -2.977904e+001 -3.575289e+001 1.633618e+002
9794332350 -3.813322e+001 -1.155227e+002 -3.024665e-001 -3.468273e+001 -3.036733e-001 -3.463543e+001 -3.044644e+001 1.654547e+002
9855081000 -3.436060e+001 -1.184940e+002 -3.094817e-001 -3.949481e+001 -3.189452e-001 -3.942566e+001 -3.012072e+001 1.520076e+002
9915829650 -3.170139e+001 -9.465096e+001 -3.273957e-001 -4.426321e+001 -3.330411e-001 -4.424425e+001 -2.688482e+001 1.476556e+002
9976578300 -3.126407e+001 -8.977088e+001 -3.463110e-001 -4.905061e+001 -3.492818e-001 -4.900219e+001 -2.530940e+001 1.400720e+002
10037326950 -2.872121e+001 -9.132234e+001 -3.614277e-001 -5.380271e+001 -3.638599e-001 -5.379843e+001 -2.444548e+001 1.307071e+002
10098075600 -2.837137e+001 -8.581882e+001 -3.840165e-001 -5.864239e+001 -3.845043e-001 -5.857825e+001 -2.287945e+001 1.227984e+002
10158824250 -2.720693e+001 -8.481391e+001 -4.087778e-001 -6.337912e+001 -4.125099e-001 -6.334620e+001 -2.188000e+001 1.167573e+002
10219572900 -2.661024e+001 -9.232435e+001 -4.370331e-001 -6.809101e+001 -4.360785e-001 -6.804080e+001 -2.139861e+001 1.067806e+002
10280321550 -2.545371e+001 -8.700113e+001 -4.609461e-001 -7.280105e+001 -4.631972e-001 -7.276993e+001 -2.007173e+001 1.023166e+002
10341070200 -2.568826e+001 -9.098351e+001 -4.890578e-001 -7.746839e+001 -4.920860e-001 -7.740793e+001 -1.960411e+001 9.300627e+001
10401818850 -2.468625e+001 -9.358252e+001 -5.082302e-001 -8.208087e+001 -5.105817e-001 -8.203988e+001 -1.904489e+001 8.668411e+001
10462567500 -2.430542e+001 -8.912394e+001 -5.256136e-001 -8.675931e+001 -5.249805e-001 -8.670154e+001 -1.840339e+001 7.988859e+001
10523316150 -2.350034e+001 -9.580444e+001 -5.351725e-001 -9.140905e+001 -5.448808e-001 -9.132122e+001 -1.792674e+001 7.303333e+001
