!Agilent Technologies,N5230C,MY48100320,A.08.04.10
!Agilent N5230C: A.08.04.10
!Date: Thursday, September 15, 2016 17:43:16
!Correction: S11(Full 2 Port(1,2)) 
!S21(Full 2 Port(1,2)) 
!S12(Full 2 Port(1,2)) 
!S22(Full 2 Port(1,2)) 
!S2P File: Measurements: S11, S21, S12, S22:
# Hz S  MA   R 50
300000 4.623695e-002 7.838186e+001 9.916489e-001 -2.862037e+000 9.918941e-001 -2.866045e+000 5.465698e-002 7.749997e+001
17174625 2.426170e-003 1.027959e+002 1.000150e+000 -1.378727e+000 9.998972e-001 -1.400554e+000 3.190044e-003 8.130576e+001
34049250 1.409070e-003 6.392918e+001 9.989164e-001 -2.496350e+000 9.989948e-001 -2.502523e+000 1.859984e-003 6.403218e+001
50923875 2.396323e-003 4.674694e+001 9.982706e-001 -3.725168e+000 9.979194e-001 -3.693236e+000 2.097301e-003 3.616970e+001
67798500 2.892541e-003 3.658691e+001 9.974700e-001 -4.917699e+000 9.981065e-001 -4.884939e+000 1.863721e-003 4.585444e+001
84673125 3.218002e-003 2.866493e+001 9.974319e-001 -6.122685e+000 9.971714e-001 -6.101553e+000 2.635278e-003 3.872579e+001
101547750 2.719445e-003 2.236495e+001 9.972228e-001 -7.327516e+000 9.970132e-001 -7.335148e+000 2.891601e-003 3.637824e+001
118422375 3.349920e-003 2.692538e+001 9.970260e-001 -8.525390e+000 9.966823e-001 -8.544718e+000 3.177613e-003 2.614301e+001
135297000 3.119410e-003 2.669972e+001 9.966547e-001 -9.722379e+000 9.962476e-001 -9.753345e+000 3.290188e-003 1.367418e+001
152171625 2.879860e-003 6.710007e+000 9.967568e-001 -1.094355e+001 9.965000e-001 -1.088487e+001 2.752667e-003 2.219951e+001
169046250 3.622974e-003 1.356999e+001 9.963259e-001 -1.208082e+001 9.963463e-001 -1.210559e+001 3.462713e-003 1.532649e+001
185920875 3.634953e-003 2.898742e+001 9.965044e-001 -1.329120e+001 9.962298e-001 -1.331230e+001 3.530261e-003 7.743999e+000
202795500 3.060039e-003 3.204307e+001 9.959125e-001 -1.449320e+001 9.962143e-001 -1.450282e+001 4.548933e-003 3.410745e+000
219670125 3.081333e-003 3.251041e+001 9.957995e-001 -1.567823e+001 9.958553e-001 -1.568207e+001 4.181160e-003 2.574080e+000
236544750 3.056088e-003 2.276214e+001 9.960081e-001 -1.690057e+001 9.954267e-001 -1.687983e+001 4.411188e-003 6.568089e+000
253419375 3.378574e-003 2.476349e+001 9.957948e-001 -1.807408e+001 9.951068e-001 -1.807352e+001 4.658230e-003 6.489854e+000
270294000 2.342748e-003 2.998889e+001 9.953930e-001 -1.926228e+001 9.959908e-001 -1.927415e+001 4.825549e-003 7.225830e+000
287168625 2.798710e-003 3.702979e+001 9.956951e-001 -2.047127e+001 9.952746e-001 -2.047818e+001 5.117437e-003 7.798654e+000
304043250 2.517278e-003 4.663993e+001 9.956434e-001 -2.164504e+001 9.955707e-001 -2.163994e+001 4.610389e-003 9.427372e+000
320917875 3.105940e-003 4.905579e+001 9.951515e-001 -2.284889e+001 9.954376e-001 -2.285583e+001 4.753211e-003 -2.480221e+000
337792500 3.224587e-003 4.828620e+001 9.953260e-001 -2.405978e+001 9.951476e-001 -2.404508e+001 5.329885e-003 2.931530e-001
354667125 2.997940e-003 5.353190e+001 9.952182e-001 -2.523709e+001 9.952660e-001 -2.524003e+001 5.233000e-003 6.812283e+000
371541750 3.793935e-003 6.290741e+001 9.953110e-001 -2.642739e+001 9.949471e-001 -2.641175e+001 6.286672e-003 9.148360e-001
388416375 3.598259e-003 6.446294e+001 9.944673e-001 -2.760832e+001 9.950656e-001 -2.761059e+001 6.560876e-003 7.031077e-001
405291000 4.144325e-003 7.170120e+001 9.950773e-001 -2.881202e+001 9.947553e-001 -2.881071e+001 7.005267e-003 5.863252e-001
422165625 3.994834e-003 6.839149e+001 9.947772e-001 -2.998322e+001 9.947240e-001 -3.000556e+001 6.845190e-003 3.749020e+000
439040250 4.805498e-003 7.136478e+001 9.948068e-001 -3.118241e+001 9.947783e-001 -3.119520e+001 6.684612e-003 -3.085072e+000
455914875 4.606653e-003 8.144576e+001 9.945842e-001 -3.238799e+001 9.947288e-001 -3.237004e+001 6.502470e-003 -1.029802e+001
472789500 3.680655e-003 7.979068e+001 9.945512e-001 -3.358065e+001 9.947787e-001 -3.357849e+001 6.597836e-003 -1.145558e+001
489664125 3.668503e-003 9.286516e+001 9.948272e-001 -3.476847e+001 9.945530e-001 -3.479426e+001 6.656807e-003 -1.226733e+001
506538750 3.484236e-003 1.057943e+002 9.945442e-001 -3.598442e+001 9.948676e-001 -3.597593e+001 6.598189e-003 -2.843160e+001
523413375 3.298113e-003 1.171935e+002 9.946841e-001 -3.716422e+001 9.944345e-001 -3.716391e+001 6.620216e-003 -3.516405e+001
540288000 3.946261e-003 1.226830e+002 9.948173e-001 -3.834756e+001 9.944050e-001 -3.833679e+001 7.252455e-003 -3.820467e+001
557162625 4.286406e-003 1.152820e+002 9.939382e-001 -3.954427e+001 9.944888e-001 -3.953691e+001 8.031792e-003 -4.051640e+001
574037250 5.119950e-003 1.178907e+002 9.944346e-001 -4.074889e+001 9.944598e-001 -4.073123e+001 7.714345e-003 -4.484511e+001
590911875 5.128352e-003 1.210989e+002 9.941368e-001 -4.194150e+001 9.942147e-001 -4.193006e+001 8.419399e-003 -4.576429e+001
607786500 5.823881e-003 1.152228e+002 9.943595e-001 -4.310113e+001 9.938374e-001 -4.312768e+001 8.848330e-003 -3.993988e+001
624661125 5.913221e-003 1.109624e+002 9.939750e-001 -4.432264e+001 9.942034e-001 -4.428603e+001 8.913579e-003 -3.601764e+001
641535750 6.602447e-003 1.085459e+002 9.938192e-001 -4.549657e+001 9.940771e-001 -4.549876e+001 8.645696e-003 -3.648106e+001
658410375 7.015784e-003 9.988523e+001 9.941877e-001 -4.668169e+001 9.945630e-001 -4.668995e+001 8.921362e-003 -3.143356e+001
675285000 7.496638e-003 1.005094e+002 9.941263e-001 -4.791144e+001 9.940452e-001 -4.786409e+001 8.806830e-003 -3.605230e+001
692159625 7.419871e-003 9.807977e+001 9.942701e-001 -4.910236e+001 9.940788e-001 -4.906144e+001 8.505813e-003 -3.802716e+001
709034250 7.459190e-003 9.494565e+001 9.939689e-001 -5.034531e+001 9.939517e-001 -5.030158e+001 8.081873e-003 -4.207827e+001
725908875 8.113383e-003 8.826637e+001 9.933177e-001 -5.150776e+001 9.940401e-001 -5.150650e+001 8.293191e-003 -4.219114e+001
742783500 7.557246e-003 9.166461e+001 9.937842e-001 -5.268953e+001 9.934967e-001 -5.268669e+001 7.767941e-003 -4.472405e+001
759658125 6.708228e-003 9.001658e+001 9.933234e-001 -5.389791e+001 9.929633e-001 -5.390452e+001 8.241634e-003 -4.356810e+001
776532750 7.410716e-003 8.954810e+001 9.933383e-001 -5.507281e+001 9.932780e-001 -5.505656e+001 8.580221e-003 -4.506498e+001
793407375 7.340183e-003 8.380078e+001 9.929247e-001 -5.627917e+001 9.931971e-001 -5.629500e+001 8.398119e-003 -4.324586e+001
810282000 7.893791e-003 7.706190e+001 9.926038e-001 -5.746549e+001 9.928337e-001 -5.745009e+001 8.661776e-003 -4.359486e+001
827156625 8.053022e-003 7.995053e+001 9.929937e-001 -5.865805e+001 9.936163e-001 -5.863051e+001 8.117151e-003 -4.107209e+001
844031250 8.692079e-003 7.298866e+001 9.925102e-001 -5.982595e+001 9.930990e-001 -5.984748e+001 8.106664e-003 -3.963901e+001
860905875 7.829661e-003 7.087078e+001 9.928303e-001 -6.102808e+001 9.927043e-001 -6.099952e+001 8.335979e-003 -3.990961e+001
877780500 8.704015e-003 6.630848e+001 9.930309e-001 -6.220959e+001 9.924540e-001 -6.222754e+001 7.547664e-003 -3.626348e+001
894655125 8.543662e-003 6.308583e+001 9.928801e-001 -6.337655e+001 9.931448e-001 -6.341750e+001 7.256672e-003 -3.511771e+001
911529750 8.000026e-003 5.662951e+001 9.930667e-001 -6.459612e+001 9.930457e-001 -6.459895e+001 7.242774e-003 -3.526713e+001
928404375 8.245532e-003 5.345935e+001 9.931234e-001 -6.578395e+001 9.924107e-001 -6.577791e+001 7.073480e-003 -3.980655e+001
945279000 7.753139e-003 5.587986e+001 9.927422e-001 -6.697845e+001 9.929742e-001 -6.700571e+001 6.207666e-003 -3.696291e+001
962153625 8.074648e-003 5.519719e+001 9.929816e-001 -6.816013e+001 9.926631e-001 -6.816169e+001 6.081516e-003 -3.755680e+001
979028250 7.823348e-003 4.808659e+001 9.930690e-001 -6.934357e+001 9.926239e-001 -6.934049e+001 6.265097e-003 -3.889404e+001
995902875 7.872514e-003 4.893207e+001 9.927638e-001 -7.056468e+001 9.932818e-001 -7.055790e+001 5.194684e-003 -3.638671e+001
1012777500 7.524685e-003 4.934103e+001 9.931558e-001 -7.177464e+001 9.933527e-001 -7.174169e+001 5.589677e-003 -3.024023e+001
1029652125 7.802180e-003 4.469765e+001 9.928814e-001 -7.295535e+001 9.927133e-001 -7.294250e+001 5.693812e-003 -2.651169e+001
1046526750 8.279678e-003 3.945763e+001 9.933240e-001 -7.413475e+001 9.929727e-001 -7.413660e+001 6.188241e-003 -1.866296e+001
1063401375 8.906877e-003 3.943182e+001 9.928326e-001 -7.535011e+001 9.930979e-001 -7.533293e+001 6.784483e-003 -1.097612e+001
1080276000 9.784910e-003 3.807689e+001 9.933304e-001 -7.654618e+001 9.929482e-001 -7.654561e+001 6.255722e-003 -6.621095e+000
1097150625 9.669502e-003 2.800175e+001 9.931572e-001 -7.771030e+001 9.931948e-001 -7.773604e+001 6.276841e-003 -3.382224e+000
1114025250 1.023885e-002 2.595737e+001 9.936600e-001 -7.893946e+001 9.925845e-001 -7.892733e+001 7.196696e-003 -1.215248e+000
1130899875 1.044212e-002 2.094117e+001 9.929847e-001 -8.012003e+001 9.929156e-001 -8.012936e+001 6.767549e-003 4.707861e+000
1147774500 1.052256e-002 1.707940e+001 9.926585e-001 -8.131931e+001 9.928060e-001 -8.134344e+001 6.785874e-003 9.245424e+000
1164649125 1.011509e-002 1.292877e+001 9.928238e-001 -8.250855e+001 9.927369e-001 -8.250734e+001 7.396560e-003 1.299572e+001
1181523750 1.047164e-002 9.468080e+000 9.930828e-001 -8.370238e+001 9.928410e-001 -8.370190e+001 8.426223e-003 1.589348e+001
1198398375 1.039230e-002 5.342423e+000 9.930556e-001 -8.491132e+001 9.930475e-001 -8.489148e+001 8.473998e-003 1.878134e+001
1215273000 1.034922e-002 3.774841e-001 9.920875e-001 -8.611088e+001 9.928084e-001 -8.606561e+001 8.015975e-003 1.930563e+001
1232147625 1.082919e-002 -3.608043e+000 9.926503e-001 -8.727236e+001 9.926304e-001 -8.727917e+001 8.196706e-003 1.807101e+001
1249022250 1.098575e-002 -5.142315e+000 9.927647e-001 -8.848059e+001 9.928566e-001 -8.847120e+001 9.080925e-003 2.351609e+001
1265896875 1.153616e-002 -7.400825e+000 9.923401e-001 -8.966208e+001 9.924805e-001 -8.966975e+001 1.002641e-002 2.538706e+001
1282771500 1.172076e-002 -9.164595e+000 9.927894e-001 -9.085937e+001 9.924078e-001 -9.085261e+001 1.037297e-002 2.271850e+001
1299646125 1.259025e-002 -1.261144e+001 9.928500e-001 -9.207945e+001 9.926221e-001 -9.203895e+001 1.103379e-002 2.340559e+001
1316520750 1.294515e-002 -1.659804e+001 9.923090e-001 -9.325134e+001 9.925663e-001 -9.324081e+001 1.170547e-002 2.658899e+001
1333395375 1.294831e-002 -2.140384e+001 9.925047e-001 -9.439812e+001 9.920683e-001 -9.442182e+001 1.267698e-002 2.829861e+001
1350270000 1.397552e-002 -2.397115e+001 9.923642e-001 -9.565321e+001 9.927018e-001 -9.562455e+001 1.340610e-002 2.890945e+001
1367144625 1.425489e-002 -2.690608e+001 9.923558e-001 -9.684257e+001 9.926215e-001 -9.683812e+001 1.350608e-002 3.270810e+001
1384019250 1.366133e-002 -2.995251e+001 9.922753e-001 -9.803806e+001 9.927495e-001 -9.801392e+001 1.466102e-002 3.247543e+001
1400893875 1.497851e-002 -3.160221e+001 9.916635e-001 -9.922973e+001 9.926444e-001 -9.921522e+001 1.472413e-002 3.480678e+001
1417768500 1.537897e-002 -3.581511e+001 9.925382e-001 -1.004066e+002 9.929890e-001 -1.003772e+002 1.596041e-002 2.934947e+001
1434643125 1.539702e-002 -4.112195e+001 9.922760e-001 -1.016035e+002 9.921578e-001 -1.016022e+002 1.583250e-002 3.147499e+001
1451517750 1.613587e-002 -3.973976e+001 9.920357e-001 -1.027729e+002 9.922637e-001 -1.027967e+002 1.715613e-002 3.058755e+001
1468392375 1.677078e-002 -4.257423e+001 9.929169e-001 -1.039923e+002 9.925200e-001 -1.039914e+002 1.749356e-002 2.889834e+001
1485267000 1.715887e-002 -4.244462e+001 9.930494e-001 -1.051839e+002 9.929149e-001 -1.051707e+002 1.805354e-002 2.778456e+001
1502141625 1.865645e-002 -4.457782e+001 9.903859e-001 -1.064403e+002 9.920606e-001 -1.063864e+002 1.969462e-002 2.553111e+001
1519016250 1.930251e-002 -4.747016e+001 9.920455e-001 -1.075769e+002 9.923406e-001 -1.075417e+002 2.079224e-002 2.518616e+001
1535890875 2.016187e-002 -4.691122e+001 9.921987e-001 -1.087425e+002 9.921291e-001 -1.087624e+002 2.116163e-002 2.364991e+001
1552765500 2.113412e-002 -5.027371e+001 9.918374e-001 -1.099542e+002 9.918687e-001 -1.099398e+002 2.266462e-002 2.348080e+001
1569640125 2.162502e-002 -5.242430e+001 9.916644e-001 -1.111276e+002 9.913276e-001 -1.111150e+002 2.372370e-002 2.360946e+001
1586514750 2.219403e-002 -5.608717e+001 9.915132e-001 -1.123227e+002 9.911471e-001 -1.123199e+002 2.314820e-002 2.370182e+001
1603389375 2.193798e-002 -5.876338e+001 9.920775e-001 -1.135392e+002 9.921580e-001 -1.135202e+002 2.441398e-002 2.608385e+001
1620264000 2.217116e-002 -6.283710e+001 9.912812e-001 -1.147298e+002 9.922356e-001 -1.147095e+002 2.413883e-002 2.298261e+001
1637138625 2.333513e-002 -6.124587e+001 9.918138e-001 -1.159045e+002 9.911224e-001 -1.159293e+002 2.541721e-002 2.186006e+001
1654013250 2.353512e-002 -6.599628e+001 9.915002e-001 -1.171106e+002 9.911543e-001 -1.171144e+002 2.554009e-002 2.149172e+001
1670887875 2.411455e-002 -6.553801e+001 9.915149e-001 -1.182813e+002 9.908317e-001 -1.183167e+002 2.608339e-002 1.998139e+001
1687762500 2.386182e-002 -6.665697e+001 9.918023e-001 -1.195064e+002 9.911089e-001 -1.195084e+002 2.631807e-002 1.757874e+001
1704637125 2.579923e-002 -6.814203e+001 9.913881e-001 -1.206843e+002 9.916183e-001 -1.207011e+002 2.739196e-002 1.674812e+001
1721511750 2.584948e-002 -6.840898e+001 9.912685e-001 -1.218970e+002 9.914027e-001 -1.218885e+002 2.773044e-002 1.520395e+001
1738386375 2.664285e-002 -6.964789e+001 9.904443e-001 -1.230963e+002 9.919176e-001 -1.230863e+002 2.854756e-002 1.443345e+001
1755261000 2.714848e-002 -6.976834e+001 9.907611e-001 -1.242896e+002 9.914824e-001 -1.242957e+002 2.918815e-002 1.362911e+001
1772135625 2.792597e-002 -7.221069e+001 9.915372e-001 -1.254659e+002 9.911751e-001 -1.254658e+002 3.014693e-002 1.152466e+001
1789010250 2.825997e-002 -7.329276e+001 9.910623e-001 -1.266673e+002 9.912678e-001 -1.266605e+002 3.055380e-002 1.103353e+001
1805884875 2.818269e-002 -7.484653e+001 9.906583e-001 -1.278567e+002 9.907870e-001 -1.278552e+002 3.058623e-002 9.358554e+000
1822759500 2.882140e-002 -7.672568e+001 9.912013e-001 -1.290399e+002 9.919909e-001 -1.290725e+002 3.026399e-002 9.437900e+000
1839634125 2.901583e-002 -7.926224e+001 9.908832e-001 -1.302575e+002 9.912820e-001 -1.302552e+002 3.071768e-002 7.906445e+000
1856508750 2.870424e-002 -8.008609e+001 9.901134e-001 -1.314296e+002 9.911737e-001 -1.314463e+002 3.069184e-002 6.687242e+000
1873383375 2.868504e-002 -8.172823e+001 9.902663e-001 -1.326579e+002 9.904622e-001 -1.326192e+002 3.075493e-002 4.182520e+000
1890258000 2.871296e-002 -8.176439e+001 9.913182e-001 -1.338175e+002 9.912801e-001 -1.338345e+002 3.095577e-002 1.988457e+000
1907132625 2.897673e-002 -8.147229e+001 9.897711e-001 -1.350210e+002 9.911304e-001 -1.350242e+002 3.079507e-002 3.011162e-001
1924007250 2.921148e-002 -8.203180e+001 9.909623e-001 -1.362195e+002 9.909670e-001 -1.362158e+002 3.055326e-002 -1.200710e+000
1940881875 2.908937e-002 -8.387196e+001 9.906422e-001 -1.374020e+002 9.911136e-001 -1.374008e+002 3.040239e-002 -4.686404e+000
1957756500 2.956730e-002 -8.454644e+001 9.911762e-001 -1.386026e+002 9.908546e-001 -1.386065e+002 3.093220e-002 -4.990635e+000
1974631125 2.957353e-002 -8.460769e+001 9.910989e-001 -1.397968e+002 9.910055e-001 -1.398144e+002 3.101291e-002 -7.414402e+000
1991505750 2.985418e-002 -8.674989e+001 9.899670e-001 -1.409858e+002 9.905772e-001 -1.409752e+002 3.056374e-002 -8.771627e+000
2008380375 2.953909e-002 -8.746464e+001 9.910782e-001 -1.421775e+002 9.902740e-001 -1.421754e+002 3.108998e-002 -9.430768e+000
2025255000 2.928809e-002 -9.013007e+001 9.911237e-001 -1.433751e+002 9.902369e-001 -1.433751e+002 3.077941e-002 -1.163201e+001
2042129625 2.835659e-002 -8.943476e+001 9.907471e-001 -1.445637e+002 9.908662e-001 -1.445470e+002 2.980158e-002 -1.414571e+001
2059004250 2.761692e-002 -9.287645e+001 9.899942e-001 -1.457670e+002 9.904058e-001 -1.457525e+002 2.931865e-002 -1.552127e+001
2075878875 2.806852e-002 -9.336480e+001 9.907160e-001 -1.469491e+002 9.906870e-001 -1.469565e+002 2.872525e-002 -1.750139e+001
2092753500 2.672064e-002 -9.240091e+001 9.904897e-001 -1.481513e+002 9.908360e-001 -1.481443e+002 2.892498e-002 -1.998522e+001
2109628125 2.676087e-002 -9.168085e+001 9.905633e-001 -1.493558e+002 9.912015e-001 -1.493498e+002 2.873378e-002 -2.202923e+001
2126502750 2.640342e-002 -9.104642e+001 9.901046e-001 -1.505361e+002 9.914969e-001 -1.505193e+002 2.854053e-002 -2.417385e+001
2143377375 2.667933e-002 -9.170895e+001 9.908757e-001 -1.517204e+002 9.907449e-001 -1.517035e+002 2.822982e-002 -2.791550e+001
2160252000 2.633931e-002 -9.201019e+001 9.905446e-001 -1.529168e+002 9.904649e-001 -1.529035e+002 2.741716e-002 -3.071976e+001
2177126625 2.509231e-002 -9.304675e+001 9.885882e-001 -1.541162e+002 9.902357e-001 -1.541093e+002 2.683902e-002 -3.341595e+001
2194001250 2.556315e-002 -9.497980e+001 9.911296e-001 -1.552922e+002 9.908487e-001 -1.553179e+002 2.590213e-002 -3.346953e+001
2210875875 2.471133e-002 -9.473682e+001 9.922116e-001 -1.565012e+002 9.913033e-001 -1.565119e+002 2.582769e-002 -3.549288e+001
2227750500 2.359666e-002 -9.674738e+001 9.914119e-001 -1.576946e+002 9.903328e-001 -1.577041e+002 2.580744e-002 -3.795258e+001
2244625125 2.334980e-002 -9.512898e+001 9.903092e-001 -1.589124e+002 9.902325e-001 -1.588773e+002 2.521957e-002 -4.131478e+001
2261499750 2.183010e-002 -9.596577e+001 9.902678e-001 -1.600963e+002 9.915822e-001 -1.600609e+002 2.463577e-002 -4.218519e+001
2278374375 2.120846e-002 -9.492013e+001 9.903440e-001 -1.612767e+002 9.904008e-001 -1.612752e+002 2.286421e-002 -4.654126e+001
2295249000 2.027724e-002 -9.494441e+001 9.900025e-001 -1.624808e+002 9.904478e-001 -1.624639e+002 2.240544e-002 -4.981178e+001
2312123625 2.003951e-002 -9.442113e+001 9.907445e-001 -1.636590e+002 9.899015e-001 -1.636570e+002 2.161070e-002 -5.217277e+001
2328998250 1.949857e-002 -9.124896e+001 9.905319e-001 -1.648554e+002 9.909511e-001 -1.648445e+002 2.132439e-002 -5.754454e+001
2345872875 1.899181e-002 -8.934573e+001 9.902766e-001 -1.660597e+002 9.907761e-001 -1.660661e+002 2.068228e-002 -5.802837e+001
2362747500 1.849789e-002 -9.063157e+001 9.916337e-001 -1.672520e+002 9.914017e-001 -1.672575e+002 2.037120e-002 -6.266990e+001
2379622125 1.752392e-002 -8.622194e+001 9.908148e-001 -1.684196e+002 9.907970e-001 -1.684396e+002 1.980240e-002 -6.781133e+001
2396496750 1.650862e-002 -8.595837e+001 9.898749e-001 -1.696314e+002 9.902143e-001 -1.696367e+002 1.926064e-002 -7.320298e+001
2413371375 1.645572e-002 -8.595269e+001 9.908192e-001 -1.708134e+002 9.903042e-001 -1.708174e+002 1.818275e-002 -7.582202e+001
2430246000 1.556316e-002 -8.482346e+001 9.903719e-001 -1.720182e+002 9.898847e-001 -1.720181e+002 1.773516e-002 -8.051464e+001
2447120625 1.470974e-002 -8.288635e+001 9.903207e-001 -1.732077e+002 9.902300e-001 -1.732156e+002 1.708333e-002 -8.515681e+001
2463995250 1.394801e-002 -8.021056e+001 9.906029e-001 -1.744131e+002 9.899331e-001 -1.743853e+002 1.746458e-002 -8.932887e+001
2480869875 1.315157e-002 -7.772775e+001 9.903757e-001 -1.755856e+002 9.905794e-001 -1.755952e+002 1.610352e-002 -9.333821e+001
2497744500 1.329624e-002 -7.338867e+001 9.903226e-001 -1.767878e+002 9.901907e-001 -1.767756e+002 1.625748e-002 -9.780683e+001
2514619125 1.245120e-002 -6.853830e+001 9.897388e-001 -1.779839e+002 9.898492e-001 -1.779943e+002 1.562523e-002 -1.079167e+002
2531493750 1.234647e-002 -6.454303e+001 9.904913e-001 -1.791715e+002 9.897566e-001 -1.791981e+002 1.488044e-002 -1.120661e+002
2548368375 1.252026e-002 -6.007108e+001 9.902115e-001 1.796132e+002 9.901663e-001 1.796421e+002 1.636198e-002 -1.200992e+002
2565243000 1.338517e-002 -5.501618e+001 9.897698e-001 1.784409e+002 9.908986e-001 1.784246e+002 1.608541e-002 -1.224554e+002
2582117625 1.319634e-002 -5.095741e+001 9.898413e-001 1.772420e+002 9.901240e-001 1.772445e+002 1.619479e-002 -1.287128e+002
2598992250 1.359870e-002 -4.524976e+001 9.898493e-001 1.760154e+002 9.903848e-001 1.760322e+002 1.620785e-002 -1.331043e+002
2615866875 1.426134e-002 -4.125437e+001 9.893561e-001 1.748598e+002 9.898270e-001 1.748551e+002 1.623041e-002 -1.395155e+002
