!Agilent Technologies,N5230C,MY48100320,A.08.04.10
!Agilent N5230C: A.08.04.10
!Date: Thursday, September 15, 2016 22:14:08
!Correction: S11(Full 2 Port(1,2)) 
!S21(Full 2 Port(1,2)) 
!S12(Full 2 Port(1,2)) 
!S22(Full 2 Port(1,2)) 
!S2P File: Measurements: S11, S21, S12, S22:
# Hz S  dB   R 50
300000 -2.663043e+001 7.843438e+001 -7.432294e-002 -2.890763e+000 -7.351303e-002 -2.894799e+000 -2.514385e+001 7.749375e+001
17174625 -6.380279e+001 -1.683690e+002 3.398655e-003 -2.035940e+000 1.620887e-003 -2.055485e+000 -6.207948e+001 6.046811e+001
34049250 -4.900915e+001 -8.753616e+001 -9.121165e-003 -3.807099e+000 -8.206076e-003 -3.788203e+000 -5.012560e+001 -8.445723e+001
50923875 -4.531154e+001 -8.145448e+001 -1.549191e-002 -5.658422e+000 -1.619844e-002 -5.639040e+000 -4.456541e+001 -8.330812e+001
67798500 -4.207215e+001 -8.389567e+001 -1.680247e-002 -7.500461e+000 -1.952133e-002 -7.477382e+000 -4.183355e+001 -9.261331e+001
84673125 -3.973478e+001 -8.583842e+001 -2.596916e-002 -9.346960e+000 -2.063570e-002 -9.344048e+000 -3.961332e+001 -9.128782e+001
101547750 -3.786179e+001 -9.189774e+001 -2.463622e-002 -1.121122e+001 -2.674667e-002 -1.119356e+001 -3.781959e+001 -9.409061e+001
118422375 -3.653746e+001 -9.269305e+001 -2.460368e-002 -1.304492e+001 -2.752223e-002 -1.304649e+001 -3.621443e+001 -9.519047e+001
135297000 -3.537161e+001 -9.558388e+001 -2.799883e-002 -1.486931e+001 -3.283206e-002 -1.489200e+001 -3.462060e+001 -9.738980e+001
152171625 -3.393969e+001 -9.786186e+001 -2.989597e-002 -1.670277e+001 -3.703724e-002 -1.668463e+001 -3.384313e+001 -1.027219e+002
169046250 -3.329613e+001 -9.838148e+001 -3.578583e-002 -1.853203e+001 -3.247528e-002 -1.854597e+001 -3.290441e+001 -1.027758e+002
185920875 -3.268743e+001 -1.008927e+002 -3.626163e-002 -2.036718e+001 -3.716919e-002 -2.038943e+001 -3.207953e+001 -1.055901e+002
202795500 -3.187914e+001 -1.048449e+002 -4.092671e-002 -2.221756e+001 -3.758880e-002 -2.220188e+001 -3.124933e+001 -1.062267e+002
219670125 -3.105927e+001 -1.067095e+002 -4.449319e-002 -2.406152e+001 -4.178303e-002 -2.404634e+001 -3.057162e+001 -1.098929e+002
236544750 -3.027792e+001 -1.087015e+002 -4.207581e-002 -2.589816e+001 -4.368575e-002 -2.588565e+001 -3.004228e+001 -1.125438e+002
253419375 -2.970221e+001 -1.105644e+002 -4.490089e-002 -2.771373e+001 -4.483743e-002 -2.768394e+001 -2.942814e+001 -1.147759e+002
270294000 -2.899965e+001 -1.140920e+002 -4.842905e-002 -2.954312e+001 -4.705003e-002 -2.953737e+001 -2.893306e+001 -1.173879e+002
287168625 -2.858794e+001 -1.157945e+002 -4.591198e-002 -3.137255e+001 -5.031285e-002 -3.139841e+001 -2.834527e+001 -1.197241e+002
304043250 -2.810454e+001 -1.181584e+002 -4.673926e-002 -3.319769e+001 -4.921222e-002 -3.319206e+001 -2.784949e+001 -1.228890e+002
320917875 -2.774541e+001 -1.193273e+002 -5.152024e-002 -3.504229e+001 -4.476111e-002 -3.505164e+001 -2.724981e+001 -1.248322e+002
337792500 -2.732503e+001 -1.208059e+002 -4.973619e-002 -3.690108e+001 -5.884843e-002 -3.686828e+001 -2.688839e+001 -1.265021e+002
354667125 -2.683170e+001 -1.230166e+002 -4.869691e-002 -3.870475e+001 -5.428308e-002 -3.872536e+001 -2.660108e+001 -1.292480e+002
371541750 -2.660771e+001 -1.251017e+002 -5.553162e-002 -4.055397e+001 -5.909434e-002 -4.052185e+001 -2.617779e+001 -1.303161e+002
388416375 -2.612847e+001 -1.267428e+002 -5.785076e-002 -4.235356e+001 -5.623886e-002 -4.237477e+001 -2.585329e+001 -1.326440e+002
405291000 -2.579067e+001 -1.291255e+002 -6.024542e-002 -4.420099e+001 -6.579807e-002 -4.420547e+001 -2.550671e+001 -1.346245e+002
422165625 -2.533502e+001 -1.306083e+002 -6.519122e-002 -4.603138e+001 -6.147546e-002 -4.602700e+001 -2.524875e+001 -1.376806e+002
439040250 -2.509490e+001 -1.324401e+002 -6.489881e-002 -4.788143e+001 -6.383384e-002 -4.788698e+001 -2.477060e+001 -1.398344e+002
455914875 -2.468638e+001 -1.349503e+002 -6.453204e-002 -4.971644e+001 -6.511467e-002 -4.969556e+001 -2.432409e+001 -1.421409e+002
472789500 -2.421832e+001 -1.363684e+002 -6.530695e-002 -5.153490e+001 -7.086316e-002 -5.153040e+001 -2.402234e+001 -1.443829e+002
489664125 -2.385954e+001 -1.387437e+002 -6.615343e-002 -5.334435e+001 -7.050338e-002 -5.336472e+001 -2.368063e+001 -1.466011e+002
506538750 -2.353811e+001 -1.406935e+002 -6.999073e-002 -5.519086e+001 -6.914787e-002 -5.519086e+001 -2.323102e+001 -1.485964e+002
523413375 -2.319000e+001 -1.424293e+002 -7.719465e-002 -5.701682e+001 -7.207819e-002 -5.703054e+001 -2.292098e+001 -1.508334e+002
540288000 -2.293904e+001 -1.443625e+002 -7.318352e-002 -5.884083e+001 -7.803317e-002 -5.883958e+001 -2.266671e+001 -1.527395e+002
557162625 -2.274147e+001 -1.456770e+002 -8.000971e-002 -6.067543e+001 -7.899910e-002 -6.066392e+001 -2.241554e+001 -1.544608e+002
574037250 -2.257456e+001 -1.474895e+002 -7.779972e-002 -6.253111e+001 -8.151032e-002 -6.250097e+001 -2.219339e+001 -1.572457e+002
590911875 -2.227146e+001 -1.490324e+002 -8.176982e-002 -6.432731e+001 -7.991512e-002 -6.431690e+001 -2.197906e+001 -1.593236e+002
607786500 -2.210837e+001 -1.505116e+002 -8.271845e-002 -6.615928e+001 -8.586204e-002 -6.618662e+001 -2.188876e+001 -1.614947e+002
624661125 -2.192866e+001 -1.518987e+002 -8.561125e-002 -6.798165e+001 -8.477471e-002 -6.796924e+001 -2.172995e+001 -1.640157e+002
641535750 -2.174325e+001 -1.535838e+002 -8.735850e-002 -6.980423e+001 -8.397781e-002 -6.981870e+001 -2.154255e+001 -1.667538e+002
658410375 -2.159933e+001 -1.549562e+002 -8.716377e-002 -7.165823e+001 -8.983266e-002 -7.166248e+001 -2.140654e+001 -1.692906e+002
675285000 -2.141914e+001 -1.566702e+002 -8.619674e-002 -7.349632e+001 -9.388134e-002 -7.346055e+001 -2.109083e+001 -1.717205e+002
692159625 -2.120969e+001 -1.581347e+002 -9.529809e-002 -7.531707e+001 -9.283745e-002 -7.531839e+001 -2.086869e+001 -1.744131e+002
709034250 -2.101910e+001 -1.595689e+002 -9.699332e-002 -7.720857e+001 -9.489881e-002 -7.718262e+001 -2.059363e+001 -1.768870e+002
725908875 -2.087404e+001 -1.605256e+002 -1.008468e-001 -7.901373e+001 -9.967996e-002 -7.901390e+001 -2.039108e+001 -1.791121e+002
742783500 -2.060185e+001 -1.621756e+002 -1.042014e-001 -8.082155e+001 -1.036878e-001 -8.084086e+001 -2.019297e+001 1.784806e+002
759658125 -2.033206e+001 -1.633834e+002 -1.080422e-001 -8.268257e+001 -1.060917e-001 -8.269836e+001 -2.003254e+001 1.762933e+002
776532750 -2.020589e+001 -1.647239e+002 -1.042906e-001 -8.450336e+001 -1.128839e-001 -8.447520e+001 -1.985698e+001 1.743336e+002
793407375 -2.005208e+001 -1.658282e+002 -1.180486e-001 -8.631749e+001 -1.112101e-001 -8.631933e+001 -1.971736e+001 1.718069e+002
810282000 -1.990989e+001 -1.667152e+002 -1.150184e-001 -8.816658e+001 -1.164683e-001 -8.814197e+001 -1.954782e+001 1.693966e+002
827156625 -1.973979e+001 -1.686142e+002 -1.159431e-001 -8.996980e+001 -1.160145e-001 -8.997837e+001 -1.943557e+001 1.667104e+002
844031250 -1.963623e+001 -1.695683e+002 -1.228639e-001 -9.178101e+001 -1.163333e-001 -9.179947e+001 -1.928426e+001 1.641866e+002
860905875 -1.940907e+001 -1.709581e+002 -1.211189e-001 -9.364822e+001 -1.240901e-001 -9.360378e+001 -1.908966e+001 1.616934e+002
877780500 -1.932425e+001 -1.722655e+002 -1.253847e-001 -9.544598e+001 -1.265225e-001 -9.546508e+001 -1.892867e+001 1.589831e+002
894655125 -1.916835e+001 -1.736019e+002 -1.290524e-001 -9.725594e+001 -1.296660e-001 -9.728247e+001 -1.873107e+001 1.566357e+002
911529750 -1.893648e+001 -1.749007e+002 -1.286190e-001 -9.912073e+001 -1.301717e-001 -9.912103e+001 -1.856598e+001 1.543698e+002
928404375 -1.879602e+001 -1.760985e+002 -1.305232e-001 -1.009230e+002 -1.354897e-001 -1.009319e+002 -1.832411e+001 1.521514e+002
945279000 -1.861551e+001 -1.777759e+002 -1.309720e-001 -1.027354e+002 -1.326794e-001 -1.027782e+002 -1.816368e+001 1.497476e+002
962153625 -1.849899e+001 -1.790091e+002 -1.335912e-001 -1.045800e+002 -1.372843e-001 -1.045866e+002 -1.803473e+001 1.475594e+002
979028250 -1.834580e+001 1.798803e+002 -1.395357e-001 -1.064013e+002 -1.373096e-001 -1.064115e+002 -1.789962e+001 1.453785e+002
995902875 -1.818690e+001 1.786056e+002 -1.439805e-001 -1.082126e+002 -1.437115e-001 -1.082558e+002 -1.774710e+001 1.427314e+002
1012777500 -1.806981e+001 1.769954e+002 -1.432239e-001 -1.100670e+002 -1.434203e-001 -1.100585e+002 -1.767082e+001 1.403279e+002
1029652125 -1.793442e+001 1.757047e+002 -1.464513e-001 -1.118918e+002 -1.459764e-001 -1.119018e+002 -1.756068e+001 1.379286e+002
1046526750 -1.782086e+001 1.744417e+002 -1.467467e-001 -1.136992e+002 -1.456899e-001 -1.137304e+002 -1.747047e+001 1.353141e+002
1063401375 -1.774234e+001 1.730736e+002 -1.482881e-001 -1.155472e+002 -1.459558e-001 -1.155551e+002 -1.735554e+001 1.328330e+002
1080276000 -1.765803e+001 1.716817e+002 -1.489218e-001 -1.173949e+002 -1.515834e-001 -1.173926e+002 -1.716948e+001 1.302294e+002
1097150625 -1.746878e+001 1.704435e+002 -1.509451e-001 -1.192035e+002 -1.521745e-001 -1.192027e+002 -1.701480e+001 1.279421e+002
1114025250 -1.735808e+001 1.693818e+002 -1.513084e-001 -1.210485e+002 -1.623930e-001 -1.210401e+002 -1.688516e+001 1.256916e+002
1130899875 -1.720182e+001 1.680909e+002 -1.604065e-001 -1.228987e+002 -1.633857e-001 -1.228793e+002 -1.673244e+001 1.233970e+002
1147774500 -1.704373e+001 1.668611e+002 -1.630173e-001 -1.246994e+002 -1.663409e-001 -1.246879e+002 -1.659441e+001 1.211510e+002
1164649125 -1.691152e+001 1.655048e+002 -1.638217e-001 -1.265097e+002 -1.646066e-001 -1.265220e+002 -1.648847e+001 1.190203e+002
1181523750 -1.677822e+001 1.642411e+002 -1.646008e-001 -1.283730e+002 -1.676491e-001 -1.283574e+002 -1.642225e+001 1.168324e+002
1198398375 -1.663016e+001 1.629801e+002 -1.693618e-001 -1.302059e+002 -1.699942e-001 -1.301746e+002 -1.628631e+001 1.145079e+002
1215273000 -1.649302e+001 1.616495e+002 -1.810990e-001 -1.320282e+002 -1.729259e-001 -1.320006e+002 -1.613907e+001 1.121092e+002
1232147625 -1.636948e+001 1.604066e+002 -1.804015e-001 -1.338300e+002 -1.787633e-001 -1.338599e+002 -1.603747e+001 1.099032e+002
1249022250 -1.626608e+001 1.588793e+002 -1.811565e-001 -1.356734e+002 -1.779199e-001 -1.356602e+002 -1.592359e+001 1.072868e+002
1265896875 -1.616691e+001 1.574843e+002 -1.887290e-001 -1.374743e+002 -1.883089e-001 -1.374783e+002 -1.582879e+001 1.050604e+002
1282771500 -1.606234e+001 1.560584e+002 -1.849459e-001 -1.393393e+002 -1.903185e-001 -1.393141e+002 -1.568869e+001 1.029642e+002
1299646125 -1.594584e+001 1.547597e+002 -1.897263e-001 -1.411509e+002 -1.911565e-001 -1.411382e+002 -1.556964e+001 1.007590e+002
1316520750 -1.582188e+001 1.533801e+002 -1.963331e-001 -1.429872e+002 -1.915866e-001 -1.429449e+002 -1.545179e+001 9.858433e+001
1333395375 -1.566717e+001 1.519416e+002 -1.973467e-001 -1.447791e+002 -1.954932e-001 -1.447935e+002 -1.535188e+001 9.643629e+001
1350270000 -1.555397e+001 1.505922e+002 -2.041191e-001 -1.466467e+002 -1.961467e-001 -1.466245e+002 -1.524358e+001 9.432457e+001
1367144625 -1.543225e+001 1.491369e+002 -2.064532e-001 -1.484439e+002 -2.017789e-001 -1.484514e+002 -1.510615e+001 9.205003e+001
1384019250 -1.532289e+001 1.474890e+002 -2.072079e-001 -1.502938e+002 -2.096362e-001 -1.502605e+002 -1.504817e+001 9.005499e+001
1400893875 -1.522503e+001 1.463149e+002 -2.166989e-001 -1.520916e+002 -2.106337e-001 -1.520980e+002 -1.494015e+001 8.776126e+001
1417768500 -1.510729e+001 1.448152e+002 -2.142023e-001 -1.539232e+002 -2.074853e-001 -1.539048e+002 -1.488551e+001 8.591362e+001
1434643125 -1.497648e+001 1.431819e+002 -2.187375e-001 -1.557446e+002 -2.215733e-001 -1.557265e+002 -1.477407e+001 8.362814e+001
1451517750 -1.490576e+001 1.417144e+002 -2.252654e-001 -1.575464e+002 -2.245756e-001 -1.575535e+002 -1.469882e+001 8.131972e+001
1468392375 -1.479259e+001 1.402882e+002 -2.197176e-001 -1.593830e+002 -2.239796e-001 -1.593817e+002 -1.458136e+001 7.930692e+001
1485267000 -1.470332e+001 1.386995e+002 -2.219079e-001 -1.612039e+002 -2.207564e-001 -1.612206e+002 -1.448564e+001 7.714655e+001
1502141625 -1.462303e+001 1.373330e+002 -2.429018e-001 -1.630950e+002 -2.341094e-001 -1.630545e+002 -1.444098e+001 7.494414e+001
1519016250 -1.451487e+001 1.358438e+002 -2.364306e-001 -1.648428e+002 -2.367686e-001 -1.648437e+002 -1.434022e+001 7.305135e+001
1535890875 -1.443038e+001 1.345903e+002 -2.401253e-001 -1.666596e+002 -2.410795e-001 -1.666809e+002 -1.423779e+001 7.106234e+001
1552765500 -1.432568e+001 1.329540e+002 -2.481588e-001 -1.685067e+002 -2.420629e-001 -1.684966e+002 -1.417196e+001 6.900954e+001
1569640125 -1.422925e+001 1.313742e+002 -2.598058e-001 -1.703285e+002 -2.512306e-001 -1.703066e+002 -1.410444e+001 6.701840e+001
1586514750 -1.408843e+001 1.296348e+002 -2.543166e-001 -1.721421e+002 -2.539959e-001 -1.721416e+002 -1.396534e+001 6.520110e+001
1603389375 -1.399711e+001 1.278625e+002 -2.568884e-001 -1.739476e+002 -2.555708e-001 -1.739465e+002 -1.389404e+001 6.289602e+001
1620264000 -1.389877e+001 1.260580e+002 -2.668165e-001 -1.757706e+002 -2.570113e-001 -1.757901e+002 -1.381319e+001 6.118321e+001
1637138625 -1.384767e+001 1.246938e+002 -2.639396e-001 -1.775878e+002 -2.671325e-001 -1.776223e+002 -1.377137e+001 5.914973e+001
1654013250 -1.372759e+001 1.227828e+002 -2.718344e-001 -1.793935e+002 -2.702021e-001 -1.794275e+002 -1.368093e+001 5.726840e+001
1670887875 -1.366814e+001 1.213336e+002 -2.688498e-001 1.787646e+002 -2.780372e-001 1.787507e+002 -1.361884e+001 5.521064e+001
1687762500 -1.360863e+001 1.194758e+002 -2.668958e-001 1.769294e+002 -2.728643e-001 1.769342e+002 -1.352022e+001 5.341354e+001
1704637125 -1.351073e+001 1.180260e+002 -2.752105e-001 1.751599e+002 -2.724446e-001 1.751256e+002 -1.346642e+001 5.143991e+001
1721511750 -1.346765e+001 1.161404e+002 -2.839737e-001 1.732882e+002 -2.832751e-001 1.733010e+002 -1.339187e+001 4.957684e+001
1738386375 -1.336836e+001 1.145560e+002 -2.869725e-001 1.714602e+002 -2.821644e-001 1.714836e+002 -1.332738e+001 4.769403e+001
1755261000 -1.329718e+001 1.129265e+002 -2.973830e-001 1.696549e+002 -2.890769e-001 1.696532e+002 -1.325503e+001 4.578245e+001
1772135625 -1.319883e+001 1.111517e+002 -2.938233e-001 1.678553e+002 -2.978008e-001 1.678539e+002 -1.320771e+001 4.403866e+001
1789010250 -1.311664e+001 1.094149e+002 -2.943830e-001 1.660293e+002 -2.959593e-001 1.660184e+002 -1.313543e+001 4.220380e+001
1805884875 -1.304388e+001 1.077027e+002 -3.066508e-001 1.642056e+002 -3.072624e-001 1.641841e+002 -1.307468e+001 4.039353e+001
1822759500 -1.293851e+001 1.058521e+002 -3.037346e-001 1.624005e+002 -3.039414e-001 1.623765e+002 -1.298567e+001 3.851272e+001
1839634125 -1.285815e+001 1.039872e+002 -3.068790e-001 1.605700e+002 -3.161055e-001 1.605574e+002 -1.294097e+001 3.668331e+001
1856508750 -1.280153e+001 1.021867e+002 -3.104891e-001 1.587546e+002 -3.107618e-001 1.587392e+002 -1.287320e+001 3.486594e+001
1873383375 -1.273781e+001 1.003145e+002 -3.153912e-001 1.569315e+002 -3.221918e-001 1.569436e+002 -1.282593e+001 3.315419e+001
1890258000 -1.269948e+001 9.863338e+001 -3.153205e-001 1.551343e+002 -3.171163e-001 1.551060e+002 -1.277103e+001 3.133653e+001
1907132625 -1.265808e+001 9.690646e+001 -3.283028e-001 1.533077e+002 -3.233260e-001 1.532917e+002 -1.270489e+001 2.953274e+001
1924007250 -1.258361e+001 9.506080e+001 -3.322078e-001 1.514649e+002 -3.262979e-001 1.514646e+002 -1.262395e+001 2.771884e+001
1940881875 -1.251223e+001 9.326411e+001 -3.375784e-001 1.496385e+002 -3.350990e-001 1.496767e+002 -1.256358e+001 2.613793e+001
1957756500 -1.242336e+001 9.150291e+001 -3.292452e-001 1.478289e+002 -3.357825e-001 1.478279e+002 -1.251271e+001 2.418247e+001
1974631125 -1.234906e+001 8.977962e+001 -3.322603e-001 1.460192e+002 -3.440526e-001 1.459758e+002 -1.247035e+001 2.246645e+001
1991505750 -1.226295e+001 8.797104e+001 -3.493473e-001 1.441941e+002 -3.458029e-001 1.442045e+002 -1.240598e+001 2.076943e+001
2008380375 -1.220039e+001 8.620658e+001 -3.448185e-001 1.424125e+002 -3.553464e-001 1.423828e+002 -1.238246e+001 1.896123e+001
2025255000 -1.213027e+001 8.433151e+001 -3.461601e-001 1.405761e+002 -3.605093e-001 1.405582e+002 -1.233307e+001 1.719241e+001
2042129625 -1.208961e+001 8.260316e+001 -3.527719e-001 1.387343e+002 -3.535491e-001 1.387551e+002 -1.225375e+001 1.550387e+001
2059004250 -1.203798e+001 8.050478e+001 -3.642187e-001 1.369577e+002 -3.581897e-001 1.369471e+002 -1.219947e+001 1.354877e+001
2075878875 -1.195085e+001 7.872672e+001 -3.654352e-001 1.351214e+002 -3.664968e-001 1.351280e+002 -1.213908e+001 1.172876e+001
2092753500 -1.194282e+001 7.693984e+001 -3.684054e-001 1.333065e+002 -3.677400e-001 1.332957e+002 -1.209925e+001 9.859954e+000
2109628125 -1.188993e+001 7.527468e+001 -3.738614e-001 1.314867e+002 -3.704898e-001 1.314851e+002 -1.204967e+001 8.068357e+000
2126502750 -1.183052e+001 7.358729e+001 -3.712610e-001 1.296666e+002 -3.760657e-001 1.296618e+002 -1.200238e+001 6.175450e+000
2143377375 -1.176102e+001 7.184905e+001 -3.801450e-001 1.278428e+002 -3.773951e-001 1.278433e+002 -1.193111e+001 4.535201e+000
2160252000 -1.169247e+001 7.007662e+001 -3.829840e-001 1.260318e+002 -3.850954e-001 1.260465e+002 -1.186260e+001 2.806253e+000
2177126625 -1.164847e+001 6.831940e+001 -4.021231e-001 1.242142e+002 -3.922090e-001 1.242034e+002 -1.180743e+001 9.883191e-001
2194001250 -1.153432e+001 6.651852e+001 -3.869164e-001 1.224072e+002 -3.983035e-001 1.223892e+002 -1.174562e+001 -1.034061e+000
2210875875 -1.147740e+001 6.481751e+001 -3.854578e-001 1.205659e+002 -3.914970e-001 1.205844e+002 -1.169503e+001 -2.885890e+000
2227750500 -1.143464e+001 6.289003e+001 -3.965555e-001 1.187731e+002 -4.120798e-001 1.187573e+002 -1.168167e+001 -4.726983e+000
2244625125 -1.138812e+001 6.135847e+001 -4.031885e-001 1.169389e+002 -4.070209e-001 1.169382e+002 -1.162633e+001 -6.512847e+000
2261499750 -1.134947e+001 5.956017e+001 -4.143492e-001 1.151414e+002 -4.104046e-001 1.151695e+002 -1.158442e+001 -8.483302e+000
2278374375 -1.129741e+001 5.787267e+001 -4.194756e-001 1.133309e+002 -4.151971e-001 1.133224e+002 -1.150142e+001 -1.037516e+001
2295249000 -1.125806e+001 5.616293e+001 -4.234352e-001 1.115034e+002 -4.221667e-001 1.115376e+002 -1.144310e+001 -1.228731e+001
2312123625 -1.119937e+001 5.444608e+001 -4.293498e-001 1.097239e+002 -4.268496e-001 1.097124e+002 -1.139668e+001 -1.428088e+001
2328998250 -1.115094e+001 5.286650e+001 -4.295542e-001 1.078705e+002 -4.345543e-001 1.078916e+002 -1.134816e+001 -1.603738e+001
2345872875 -1.109978e+001 5.125775e+001 -4.342717e-001 1.060636e+002 -4.340543e-001 1.060702e+002 -1.131445e+001 -1.812008e+001
2362747500 -1.102328e+001 4.957628e+001 -4.271954e-001 1.042724e+002 -4.336453e-001 1.042563e+002 -1.125415e+001 -2.000508e+001
2379622125 -1.100581e+001 4.809097e+001 -4.409642e-001 1.024633e+002 -4.384636e-001 1.024185e+002 -1.120874e+001 -2.186196e+001
2396496750 -1.094387e+001 4.637129e+001 -4.577202e-001 1.006440e+002 -4.535963e-001 1.006013e+002 -1.115909e+001 -2.381355e+001
2413371375 -1.086672e+001 4.478655e+001 -4.609479e-001 9.881458e+001 -4.561080e-001 9.883358e+001 -1.111457e+001 -2.589252e+001
2430246000 -1.080855e+001 4.313004e+001 -4.572273e-001 9.701574e+001 -4.612387e-001 9.700517e+001 -1.105305e+001 -2.798406e+001
2447120625 -1.076573e+001 4.148920e+001 -4.657061e-001 9.520592e+001 -4.735114e-001 9.520831e+001 -1.101523e+001 -3.006309e+001
2463995250 -1.072575e+001 3.987821e+001 -4.747014e-001 9.341428e+001 -4.729909e-001 9.340233e+001 -1.096994e+001 -3.208480e+001
2480869875 -1.067747e+001 3.827438e+001 -4.756261e-001 9.161566e+001 -4.767315e-001 9.160714e+001 -1.090935e+001 -3.426090e+001
2497744500 -1.062085e+001 3.681607e+001 -4.773091e-001 8.978854e+001 -4.831852e-001 8.979791e+001 -1.085442e+001 -3.628553e+001
2514619125 -1.059515e+001 3.525772e+001 -4.877377e-001 8.797888e+001 -4.889324e-001 8.796664e+001 -1.078293e+001 -3.835080e+001
2531493750 -1.055100e+001 3.376348e+001 -4.893599e-001 8.620072e+001 -4.908842e-001 8.615932e+001 -1.074147e+001 -4.055896e+001
2548368375 -1.049693e+001 3.227898e+001 -4.977655e-001 8.436004e+001 -4.978446e-001 8.435973e+001 -1.066129e+001 -4.233896e+001
2565243000 -1.043480e+001 3.103802e+001 -4.962799e-001 8.253071e+001 -4.993758e-001 8.254181e+001 -1.066054e+001 -4.449127e+001
