!Agilent Technologies,N5230C,MY48100320,A.08.04.10
!Agilent N5230C: A.08.04.10
!Date: Tuesday, August 23, 2016 04:12:32
!Correction: S11(Full 2 Port(1,2)) 
!S21(Full 2 Port(1,2)) 
!S12(Full 2 Port(1,2)) 
!S22(Full 2 Port(1,2)) 
!S2P File: Measurements: S11, S21, S12, S22:
# Hz S  dB   R 50
1350270000 -3.010098e+001 -7.442815e+001 -1.033262e-001 -1.363479e+002 -1.144305e-001 -1.363624e+002 -2.979920e+001 -1.619255e+001
1411018650 -2.954097e+001 -8.187885e+001 -1.062469e-001 -1.425028e+002 -1.168417e-001 -1.424933e+002 -2.901985e+001 -2.098066e+001
1471767300 -2.907043e+001 -8.904854e+001 -1.062833e-001 -1.486066e+002 -1.190719e-001 -1.486019e+002 -2.855196e+001 -2.805676e+001
1532515950 -2.831701e+001 -9.300600e+001 -1.279596e-001 -1.547782e+002 -1.328387e-001 -1.547709e+002 -2.813585e+001 -3.729649e+001
1593264600 -2.818937e+001 -9.976350e+001 -1.142280e-001 -1.608736e+002 -1.210038e-001 -1.608605e+002 -2.809220e+001 -4.330064e+001
1654013250 -2.813086e+001 -1.031990e+002 -1.192428e-001 -1.670008e+002 -1.381862e-001 -1.669888e+002 -2.773324e+001 -5.284287e+001
1714761900 -2.829964e+001 -1.066143e+002 -1.278716e-001 -1.731248e+002 -1.295508e-001 -1.731129e+002 -2.827572e+001 -6.157383e+001
1775510550 -2.825418e+001 -1.092713e+002 -1.300541e-001 -1.792727e+002 -1.306030e-001 -1.792550e+002 -2.828237e+001 -7.198740e+001
1836259200 -2.904473e+001 -1.150877e+002 -1.281126e-001 1.746153e+002 -1.346034e-001 1.746317e+002 -2.884458e+001 -8.373409e+001
1897007850 -2.907492e+001 -1.127018e+002 -1.281823e-001 1.684615e+002 -1.362617e-001 1.684928e+002 -2.898167e+001 -9.560389e+001
1957756500 -2.993769e+001 -1.163459e+002 -1.280390e-001 1.623345e+002 -1.419645e-001 1.623609e+002 -2.985311e+001 -1.108378e+002
2018505150 -3.050330e+001 -1.133908e+002 -1.294313e-001 1.562004e+002 -1.335815e-001 1.562168e+002 -2.994644e+001 -1.256776e+002
2079253800 -3.130345e+001 -1.128460e+002 -1.246923e-001 1.500621e+002 -1.373991e-001 1.500851e+002 -3.042114e+001 -1.405473e+002
2140002450 -3.188692e+001 -1.078167e+002 -1.250513e-001 1.439298e+002 -1.410487e-001 1.439514e+002 -3.055499e+001 -1.587331e+002
2200751100 -3.248563e+001 -1.030983e+002 -1.206243e-001 1.377895e+002 -1.304945e-001 1.378088e+002 -3.035227e+001 -1.779064e+002
2261499750 -3.236572e+001 -9.673869e+001 -1.319645e-001 1.316700e+002 -1.399308e-001 1.316767e+002 -3.028578e+001 1.674441e+002
2322248400 -3.306890e+001 -9.181224e+001 -1.292842e-001 1.255262e+002 -1.431823e-001 1.255461e+002 -3.007320e+001 1.504647e+002
2382997050 -3.196470e+001 -8.758766e+001 -1.286166e-001 1.194085e+002 -1.380645e-001 1.194253e+002 -2.952127e+001 1.369442e+002
2443745700 -3.291618e+001 -8.138671e+001 -1.391232e-001 1.132804e+002 -1.481196e-001 1.132907e+002 -2.920546e+001 1.224782e+002
2504494350 -3.249572e+001 -8.045510e+001 -1.378423e-001 1.071577e+002 -1.436692e-001 1.071793e+002 -2.954514e+001 1.112530e+002
2565243000 -3.288729e+001 -7.947892e+001 -1.362229e-001 1.010276e+002 -1.476280e-001 1.010453e+002 -2.912354e+001 9.738596e+001
2625991650 -3.313153e+001 -7.633193e+001 -1.362235e-001 9.491106e+001 -1.452892e-001 9.492892e+001 -2.947094e+001 8.838313e+001
2686740300 -3.433771e+001 -7.839446e+001 -1.324000e-001 8.879681e+001 -1.460186e-001 8.881196e+001 -3.012003e+001 7.908897e+001
2747488950 -3.478799e+001 -8.289298e+001 -1.399658e-001 8.267718e+001 -1.465746e-001 8.270741e+001 -3.108626e+001 6.688249e+001
2808237600 -3.744289e+001 -7.508933e+001 -1.385546e-001 7.655968e+001 -1.511414e-001 7.657718e+001 -3.147177e+001 5.892344e+001
2868986250 -3.939450e+001 -7.814336e+001 -1.383256e-001 7.044659e+001 -1.557968e-001 7.046419e+001 -3.399350e+001 4.881770e+001
2929734900 -4.563807e+001 -5.302331e+001 -1.329551e-001 6.430928e+001 -1.469747e-001 6.433153e+001 -3.598424e+001 3.495242e+001
2990483550 -5.130829e+001 2.145226e+001 -1.457853e-001 5.820446e+001 -1.537464e-001 5.821581e+001 -4.020534e+001 2.922240e+001
3051232200 -4.087983e+001 5.487921e+001 -1.387373e-001 5.206490e+001 -1.539651e-001 5.208344e+001 -4.965382e+001 1.618596e+001
3111980850 -3.718433e+001 6.279908e+001 -1.425951e-001 4.593043e+001 -1.502024e-001 4.595457e+001 -4.576187e+001 -1.365014e+002
3172729500 -3.288404e+001 6.026974e+001 -1.285338e-001 3.976083e+001 -1.557145e-001 3.979376e+001 -3.994595e+001 -1.635375e+002
3233478150 -3.175813e+001 6.136478e+001 -1.323890e-001 3.369128e+001 -1.475872e-001 3.370721e+001 -3.550553e+001 -1.751425e+002
3294226800 -2.958207e+001 5.645259e+001 -1.426321e-001 2.755031e+001 -1.516006e-001 2.758352e+001 -3.250431e+001 1.783486e+002
3354975450 -2.830919e+001 5.702452e+001 -1.437137e-001 2.143455e+001 -1.586497e-001 2.145298e+001 -3.071991e+001 1.684248e+002
3415724100 -2.711488e+001 5.059906e+001 -1.353639e-001 1.529635e+001 -1.588898e-001 1.532515e+001 -2.882376e+001 1.596503e+002
3476472750 -2.664561e+001 4.812191e+001 -1.506056e-001 9.187943e+000 -1.531189e-001 9.200057e+000 -2.746794e+001 1.516743e+002
3537221400 -2.571579e+001 4.418850e+001 -1.554108e-001 3.063260e+000 -1.586327e-001 3.068071e+000 -2.707515e+001 1.431022e+002
3597970050 -2.594575e+001 4.258742e+001 -1.499665e-001 -3.064545e+000 -1.616880e-001 -3.043697e+000 -2.645273e+001 1.343602e+002
3658718700 -2.563581e+001 3.724365e+001 -1.551595e-001 -9.185424e+000 -1.733872e-001 -9.138400e+000 -2.613320e+001 1.261073e+002
3719467350 -2.605794e+001 3.682985e+001 -1.592826e-001 -1.528862e+001 -1.553791e-001 -1.527751e+001 -2.604535e+001 1.184742e+002
3780216000 -2.631835e+001 3.198359e+001 -1.512508e-001 -2.140125e+001 -1.632425e-001 -2.136622e+001 -2.647272e+001 1.088958e+002
3840964650 -2.707450e+001 2.926924e+001 -1.569272e-001 -2.750476e+001 -1.660066e-001 -2.748220e+001 -2.681026e+001 9.886441e+001
3901713300 -2.831835e+001 2.900595e+001 -1.430744e-001 -3.364474e+001 -1.682910e-001 -3.360198e+001 -2.775516e+001 9.108701e+001
3962461950 -2.975352e+001 2.796331e+001 -1.610695e-001 -3.975597e+001 -1.611685e-001 -3.971157e+001 -2.879669e+001 7.959126e+001
4023210600 -3.141931e+001 2.955379e+001 -1.466247e-001 -4.587327e+001 -1.696241e-001 -4.583850e+001 -3.051946e+001 6.796362e+001
4083959250 -3.479097e+001 4.632525e+001 -1.524921e-001 -5.198901e+001 -1.584017e-001 -5.195718e+001 -3.234291e+001 5.569860e+001
4144707900 -3.691168e+001 5.154045e+001 -1.523145e-001 -5.812650e+001 -1.618792e-001 -5.809633e+001 -3.513495e+001 3.387854e+001
4205456550 -3.765032e+001 9.601585e+001 -1.485085e-001 -6.429607e+001 -1.635342e-001 -6.425082e+001 -3.853692e+001 8.631640e+000
4266205200 -3.478754e+001 1.202756e+002 -1.478707e-001 -7.039338e+001 -1.537195e-001 -7.034191e+001 -3.891975e+001 -4.408061e+001
4326953850 -3.213811e+001 1.286656e+002 -1.561434e-001 -7.651902e+001 -1.724471e-001 -7.648375e+001 -3.783841e+001 -7.835053e+001
4387702500 -3.022156e+001 1.317028e+002 -1.502283e-001 -8.263380e+001 -1.658094e-001 -8.259143e+001 -3.442938e+001 -1.054543e+002
4448451150 -2.800186e+001 1.298719e+002 -1.530776e-001 -8.875533e+001 -1.608319e-001 -8.872185e+001 -3.209678e+001 -1.154541e+002
4509199800 -2.748547e+001 1.279738e+002 -1.484586e-001 -9.486907e+001 -1.702350e-001 -9.483220e+001 -3.041649e+001 -1.295434e+002
4569948450 -2.593122e+001 1.242173e+002 -1.582636e-001 -1.009626e+002 -1.583446e-001 -1.009298e+002 -2.949153e+001 -1.406079e+002
4630697100 -2.556309e+001 1.210311e+002 -1.496032e-001 -1.070939e+002 -1.762446e-001 -1.070426e+002 -2.815802e+001 -1.496077e+002
4691445750 -2.501686e+001 1.161260e+002 -1.598952e-001 -1.132027e+002 -1.702870e-001 -1.131737e+002 -2.819379e+001 -1.595133e+002
4752194400 -2.497969e+001 1.128418e+002 -1.766498e-001 -1.193120e+002 -1.715156e-001 -1.192682e+002 -2.757829e+001 -1.702353e+002
4812943050 -2.495638e+001 1.095548e+002 -1.695563e-001 -1.254354e+002 -1.778551e-001 -1.253969e+002 -2.789791e+001 -1.766083e+002
4873691700 -2.589155e+001 1.050756e+002 -1.511129e-001 -1.315349e+002 -1.879963e-001 -1.315002e+002 -2.858848e+001 1.705418e+002
4934440350 -2.620543e+001 1.008436e+002 -1.580996e-001 -1.376361e+002 -1.745162e-001 -1.376021e+002 -2.944668e+001 1.597710e+002
4995189000 -2.766973e+001 9.924219e+001 -1.545919e-001 -1.437596e+002 -1.813901e-001 -1.437437e+002 -3.015591e+001 1.494147e+002
5055937650 -2.899564e+001 9.174988e+001 -1.606264e-001 -1.498801e+002 -1.782202e-001 -1.498453e+002 -3.220508e+001 1.312646e+002
5116686300 -3.072308e+001 9.292743e+001 -1.587662e-001 -1.560068e+002 -1.711514e-001 -1.559837e+002 -3.250531e+001 1.171379e+002
5177434950 -3.339909e+001 8.977329e+001 -1.643638e-001 -1.621565e+002 -1.810196e-001 -1.620960e+002 -3.396536e+001 8.858982e+001
5238183600 -3.821262e+001 9.766579e+001 -1.579911e-001 -1.682960e+002 -1.777837e-001 -1.682493e+002 -3.441667e+001 6.988853e+001
5298932250 -3.884038e+001 1.053848e+002 -1.572441e-001 -1.745201e+002 -1.742213e-001 -1.744614e+002 -3.336612e+001 4.119582e+001
5359680900 -4.252979e+001 1.669445e+002 -1.539219e-001 1.793539e+002 -1.835980e-001 1.793827e+002 -3.212248e+001 2.782487e+001
5420429550 -3.922982e+001 1.773406e+002 -1.580985e-001 1.732234e+002 -1.736302e-001 1.732718e+002 -3.054746e+001 1.045305e+001
5481178200 -3.579601e+001 -1.667567e+002 -1.655374e-001 1.670823e+002 -1.809454e-001 1.671026e+002 -2.970508e+001 -3.868791e+000
5541926850 -3.415498e+001 -1.607718e+002 -1.678376e-001 1.609375e+002 -1.757085e-001 1.609824e+002 -2.855346e+001 -1.336576e+001
5602675500 -3.256881e+001 -1.701739e+002 -1.664897e-001 1.548208e+002 -1.812875e-001 1.548603e+002 -2.824418e+001 -2.167284e+001
5663424150 -3.176846e+001 -1.683257e+002 -1.649550e-001 1.486716e+002 -1.764994e-001 1.487328e+002 -2.709126e+001 -3.322117e+001
5724172800 -3.145934e+001 -1.717668e+002 -1.739303e-001 1.425837e+002 -1.892798e-001 1.426244e+002 -2.725107e+001 -3.411234e+001
5784921450 -3.229235e+001 -1.794840e+002 -1.871203e-001 1.364699e+002 -1.912712e-001 1.365071e+002 -2.696059e+001 -4.505199e+001
5845670100 -3.199570e+001 1.771892e+002 -1.648671e-001 1.303363e+002 -1.784425e-001 1.303589e+002 -2.716500e+001 -4.776466e+001
5906418750 -3.355232e+001 1.732370e+002 -1.683115e-001 1.241832e+002 -1.648324e-001 1.242337e+002 -2.730954e+001 -5.495237e+001
5967167400 -3.477179e+001 1.657540e+002 -1.769120e-001 1.180535e+002 -1.760603e-001 1.180885e+002 -2.797834e+001 -5.871288e+001
6027916050 -3.755665e+001 1.547288e+002 -1.823688e-001 1.119306e+002 -1.766855e-001 1.119864e+002 -2.826033e+001 -6.210217e+001
6088664700 -4.173248e+001 1.512081e+002 -1.804292e-001 1.058260e+002 -1.868656e-001 1.058527e+002 -2.923379e+001 -6.504739e+001
6149413350 -4.690609e+001 1.330164e+002 -1.677081e-001 9.968863e+001 -1.841874e-001 9.974947e+001 -3.001030e+001 -7.126717e+001
6210162000 -5.142063e+001 5.102668e+001 -1.777591e-001 9.356882e+001 -1.807473e-001 9.360339e+001 -3.127730e+001 -6.507880e+001
6270910650 -4.254860e+001 -4.187893e+001 -1.642238e-001 8.744855e+001 -1.740183e-001 8.752139e+001 -3.302812e+001 -7.427215e+001
6331659300 -3.984382e+001 -1.656500e+001 -1.680645e-001 8.131130e+001 -1.836514e-001 8.134953e+001 -3.451074e+001 -6.506330e+001
6392407950 -3.574763e+001 -4.078735e+001 -1.724551e-001 7.514608e+001 -1.816636e-001 7.523221e+001 -3.456394e+001 -6.313705e+001
6453156600 -3.384241e+001 -4.594442e+001 -1.703085e-001 6.904109e+001 -1.826875e-001 6.909005e+001 -3.750818e+001 -4.066357e+001
6513905250 -3.334522e+001 -4.933360e+001 -1.703284e-001 6.290339e+001 -1.893120e-001 6.297590e+001 -3.828627e+001 -4.748021e+001
6574653900 -3.205554e+001 -5.807617e+001 -1.770271e-001 5.676846e+001 -1.880633e-001 5.681036e+001 -3.597296e+001 -2.729251e+001
6635402550 -3.154407e+001 -6.453014e+001 -1.736705e-001 5.060963e+001 -1.880580e-001 5.068686e+001 -3.804226e+001 -9.108144e+000
6696151200 -3.195601e+001 -6.761193e+001 -1.771961e-001 4.450529e+001 -1.920981e-001 4.454802e+001 -3.682802e+001 -1.085006e+001
6756899850 -3.198083e+001 -8.166026e+001 -1.769020e-001 3.836737e+001 -1.886104e-001 3.841828e+001 -3.666329e+001 -2.533507e+000
6817648500 -3.219471e+001 -7.881077e+001 -1.831921e-001 3.224289e+001 -1.952527e-001 3.227117e+001 -3.458146e+001 4.175865e+000
6878397150 -3.313709e+001 -9.704348e+001 -1.814048e-001 2.609218e+001 -1.976955e-001 2.615533e+001 -3.529464e+001 7.071846e+000
6939145800 -3.431462e+001 -9.598580e+001 -1.874529e-001 1.998006e+001 -1.950024e-001 2.002747e+001 -3.353696e+001 4.781246e+000
6999894450 -3.487202e+001 -1.119816e+002 -1.819064e-001 1.383755e+001 -1.966900e-001 1.391968e+001 -3.434719e+001 1.095789e+001
7060643100 -3.702505e+001 -1.239268e+002 -1.871174e-001 7.722578e+000 -1.948556e-001 7.767825e+000 -3.298484e+001 5.581067e+000
7121391750 -3.782046e+001 -1.354271e+002 -1.901584e-001 1.571728e+000 -2.001968e-001 1.646313e+000 -3.338583e+001 1.030681e+001
7182140400 -3.931503e+001 -1.453600e+002 -1.892010e-001 -4.543714e+000 -2.059336e-001 -4.496919e+000 -3.322021e+001 -1.127304e-001
7242889050 -4.044390e+001 -1.730704e+002 -1.948938e-001 -1.069275e+001 -2.029634e-001 -1.059660e+001 -3.346495e+001 -6.313749e+000
7303637700 -4.205350e+001 -1.664300e+002 -1.943166e-001 -1.680604e+001 -2.081851e-001 -1.673962e+001 -3.484874e+001 -6.371964e+000
7364386350 -4.089660e+001 1.501165e+002 -1.891146e-001 -2.292973e+001 -2.048810e-001 -2.283819e+001 -3.541131e+001 -1.694809e+001
7425135000 -4.492666e+001 1.478213e+002 -1.968457e-001 -2.902032e+001 -2.018031e-001 -2.895906e+001 -3.655595e+001 -3.640200e+001
7485883650 -4.250698e+001 1.388220e+002 -1.899601e-001 -3.515247e+001 -2.097417e-001 -3.504212e+001 -3.977789e+001 -1.647651e+001
7546632300 -4.502589e+001 1.109768e+002 -1.990746e-001 -4.127612e+001 -2.096284e-001 -4.121861e+001 -4.171843e+001 -7.133893e+001
7607380950 -4.474971e+001 1.408017e+002 -1.938868e-001 -4.741947e+001 -2.017447e-001 -4.732521e+001 -4.642712e+001 -1.068340e+002
7668129600 -4.852188e+001 1.624530e+002 -1.894667e-001 -5.354605e+001 -2.097930e-001 -5.348983e+001 -5.097230e+001 1.774589e+002
7728878250 -4.833424e+001 1.222680e+002 -1.981884e-001 -5.974012e+001 -2.052454e-001 -5.964488e+001 -4.048195e+001 1.736264e+002
7789626900 -4.193434e+001 -1.546022e+002 -1.964359e-001 -6.584761e+001 -2.041251e-001 -6.576842e+001 -3.792248e+001 1.564664e+002
7850375550 -4.356500e+001 -1.521313e+002 -1.955294e-001 -7.201010e+001 -2.115326e-001 -7.190511e+001 -3.699184e+001 1.342109e+002
7911124200 -3.995449e+001 -1.453837e+002 -2.018672e-001 -7.813253e+001 -2.070914e-001 -7.805386e+001 -3.314279e+001 1.375230e+002
7971872850 -3.639368e+001 -1.538520e+002 -1.988590e-001 -8.426900e+001 -2.098890e-001 -8.420369e+001 -3.305586e+001 1.189136e+002
8032621500 -3.511002e+001 -1.479609e+002 -2.024821e-001 -9.040847e+001 -2.182284e-001 -9.035066e+001 -3.158732e+001 1.149943e+002
8093370150 -3.508858e+001 -1.563367e+002 -2.063900e-001 -9.655068e+001 -2.132388e-001 -9.648200e+001 -3.129884e+001 1.063214e+002
8154118800 -3.211563e+001 -1.556622e+002 -2.039488e-001 -1.026688e+002 -2.154180e-001 -1.025793e+002 -3.066391e+001 9.532613e+001
8214867450 -3.308342e+001 -1.561156e+002 -2.094224e-001 -1.088293e+002 -2.207282e-001 -1.087641e+002 -3.045827e+001 8.607635e+001
8275616100 -3.202655e+001 -1.627126e+002 -2.095317e-001 -1.149719e+002 -2.197970e-001 -1.148839e+002 -3.031937e+001 8.167186e+001
8336364750 -3.213842e+001 -1.628792e+002 -2.135069e-001 -1.210911e+002 -2.236831e-001 -1.210349e+002 -3.142825e+001 6.539376e+001
8397113400 -3.264679e+001 -1.656640e+002 -2.111274e-001 -1.272428e+002 -2.285955e-001 -1.271589e+002 -3.191194e+001 6.022515e+001
8457862050 -3.390292e+001 -1.697970e+002 -2.157053e-001 -1.333717e+002 -2.260846e-001 -1.332948e+002 -3.384293e+001 4.619255e+001
8518610700 -3.377450e+001 -1.671413e+002 -2.104019e-001 -1.395210e+002 -2.313730e-001 -1.394249e+002 -3.463318e+001 3.085012e+001
8579359350 -3.773266e+001 -1.616568e+002 -2.176064e-001 -1.456560e+002 -2.269666e-001 -1.455399e+002 -3.818680e+001 6.714041e+000
8640108000 -3.724340e+001 -1.668202e+002 -2.196406e-001 -1.518173e+002 -2.336299e-001 -1.516895e+002 -3.980919e+001 -5.731651e+000
8700856650 -4.182836e+001 -1.329963e+002 -2.220967e-001 -1.578977e+002 -2.359195e-001 -1.578161e+002 -3.796302e+001 -7.540044e+001
8761605300 -4.082454e+001 -1.024476e+002 -2.279352e-001 -1.640421e+002 -2.412772e-001 -1.639471e+002 -3.750758e+001 -1.082690e+002
8822353950 -3.926519e+001 -8.387141e+001 -2.322372e-001 -1.701743e+002 -2.472470e-001 -1.700900e+002 -3.418139e+001 -1.234130e+002
8883102600 -3.592771e+001 -7.035161e+001 -2.358086e-001 -1.762841e+002 -2.551664e-001 -1.761999e+002 -3.158755e+001 -1.415955e+002
8943851250 -3.219105e+001 -6.330819e+001 -2.477622e-001 1.775749e+002 -2.531351e-001 1.776526e+002 -2.930419e+001 -1.567155e+002
9004599900 -3.279362e+001 -6.895461e+001 -2.522170e-001 1.714311e+002 -2.711819e-001 1.715665e+002 -2.939601e+001 -1.655480e+002
9065348550 -2.934227e+001 -6.371455e+001 -2.572871e-001 1.653854e+002 -2.638507e-001 1.654656e+002 -2.699735e+001 -1.788691e+002
9126097200 -2.922168e+001 -6.673241e+001 -2.611974e-001 1.592570e+002 -2.691057e-001 1.593797e+002 -2.746144e+001 1.684211e+002
9186845850 -2.901693e+001 -7.051723e+001 -2.599651e-001 1.532065e+002 -2.741925e-001 1.532673e+002 -2.726499e+001 1.610948e+002
9247594500 -2.766551e+001 -6.971640e+001 -2.647351e-001 1.471315e+002 -2.734542e-001 1.472111e+002 -2.648100e+001 1.463569e+002
9308343150 -2.781929e+001 -7.479477e+001 -2.694390e-001 1.410210e+002 -2.755704e-001 1.410914e+002 -2.710458e+001 1.391004e+002
9369091800 -2.899633e+001 -7.442036e+001 -2.623842e-001 1.348665e+002 -2.773618e-001 1.349761e+002 -2.804480e+001 1.236067e+002
9429840450 -2.690156e+001 -7.619028e+001 -2.678969e-001 1.287587e+002 -2.734177e-001 1.288446e+002 -2.663094e+001 1.142443e+002
9490589100 -2.944053e+001 -7.306145e+001 -2.558398e-001 1.226207e+002 -2.698253e-001 1.227553e+002 -2.871822e+001 1.007696e+002
9551337750 -2.950570e+001 -7.757021e+001 -2.560469e-001 1.165490e+002 -2.711551e-001 1.166055e+002 -2.882570e+001 8.557510e+001
9612086400 -2.936736e+001 -6.995299e+001 -2.552169e-001 1.104129e+002 -2.721549e-001 1.105146e+002 -2.839172e+001 7.374451e+001
9672835050 -3.195381e+001 -6.428621e+001 -2.594807e-001 1.042696e+002 -2.705595e-001 1.043244e+002 -2.994089e+001 5.985090e+001
9733583700 -3.266856e+001 -5.505658e+001 -2.518045e-001 9.810237e+001 -2.677088e-001 9.819688e+001 -3.020213e+001 3.651292e+001
9794332350 -3.209688e+001 -5.394220e+001 -2.575695e-001 9.196899e+001 -2.664045e-001 9.202631e+001 -2.969440e+001 3.177315e+001
9855081000 -3.253929e+001 -1.812085e+001 -2.560210e-001 8.578471e+001 -2.733268e-001 8.587274e+001 -3.168113e+001 -2.893723e-001
9915829650 -3.390167e+001 -1.625986e+001 -2.611860e-001 7.967682e+001 -2.713364e-001 7.972904e+001 -3.112519e+001 -8.143859e+000
9976578300 -3.124661e+001 -8.406365e+000 -2.650774e-001 7.353270e+001 -2.773557e-001 7.357072e+001 -3.177025e+001 -2.648698e+001
10037326950 -3.025315e+001 1.019254e+001 -2.712754e-001 6.736813e+001 -2.805848e-001 6.741425e+001 -3.238468e+001 -5.535416e+001
10098075600 -2.912432e+001 9.789131e+000 -2.707618e-001 6.121447e+001 -2.788137e-001 6.128071e+001 -3.226830e+001 -7.053506e+001
10158824250 -2.894043e+001 1.613770e+001 -2.792315e-001 5.509503e+001 -2.934616e-001 5.512015e+001 -3.380008e+001 -9.340812e+001
10219572900 -2.669111e+001 2.133331e+001 -2.927954e-001 4.895949e+001 -3.019549e-001 4.901742e+001 -3.186341e+001 -1.278245e+002
10280321550 -2.763136e+001 2.434817e+001 -2.945754e-001 4.284701e+001 -3.044642e-001 4.286656e+001 -3.474439e+001 -1.454895e+002
10341070200 -2.616459e+001 2.549685e+001 -3.086706e-001 3.673649e+001 -3.192323e-001 3.685032e+001 -3.170931e+001 -1.756469e+002
10401818850 -2.542175e+001 3.170608e+001 -3.153366e-001 3.066720e+001 -3.241341e-001 3.073381e+001 -3.098244e+001 1.582358e+002
10462567500 -2.653985e+001 3.043874e+001 -3.160532e-001 2.458502e+001 -3.247570e-001 2.468472e+001 -3.065661e+001 1.360827e+002
10523316150 -2.516608e+001 3.611043e+001 -3.161345e-001 1.859665e+001 -3.341084e-001 1.869775e+001 -2.921842e+001 1.213079e+002
