!Agilent Technologies,N5230C,MY48100320,A.08.04.10
!Agilent N5230C: A.08.04.10
!Date: Thursday, September 15, 2016 22:12:58
!Correction: S11(Full 2 Port(1,2)) 
!S21(Full 2 Port(1,2)) 
!S12(Full 2 Port(1,2)) 
!S22(Full 2 Port(1,2)) 
!S2P File: Measurements: S11, S21, S12, S22:
# Hz S  dB   R 50
300000 -2.671396e+001 7.857763e+001 -7.417793e-002 -2.913916e+000 -6.852502e-002 -2.877637e+000 -2.516452e+001 7.738599e+001
17174625 -5.859260e+001 1.004089e+002 1.093679e-004 -1.977850e+000 -2.403889e-003 -1.985758e+000 -5.306351e+001 6.682556e+001
34049250 -5.702121e+001 -6.686357e+001 -1.167347e-002 -3.673361e+000 -1.063286e-002 -3.662955e+000 -5.962937e+001 -2.951455e+001
50923875 -5.247174e+001 -5.788408e+001 -2.165907e-002 -5.459918e+000 -2.061486e-002 -5.414503e+000 -5.138096e+001 -5.236791e+001
67798500 -4.873381e+001 -6.609335e+001 -1.981287e-002 -7.239769e+000 -2.343370e-002 -7.187551e+000 -4.909888e+001 -7.374664e+001
84673125 -4.634945e+001 -7.333326e+001 -2.741023e-002 -9.034966e+000 -2.544961e-002 -8.992722e+000 -4.651432e+001 -7.188291e+001
101547750 -4.424946e+001 -8.888335e+001 -2.567109e-002 -1.081667e+001 -3.022932e-002 -1.080686e+001 -4.431168e+001 -7.452601e+001
118422375 -4.302803e+001 -8.920955e+001 -2.906976e-002 -1.256356e+001 -3.384706e-002 -1.256756e+001 -4.236134e+001 -7.606648e+001
135297000 -4.198964e+001 -9.500965e+001 -3.189763e-002 -1.431731e+001 -3.834116e-002 -1.434415e+001 -4.031385e+001 -7.855927e+001
152171625 -4.004792e+001 -9.768031e+001 -3.152851e-002 -1.609710e+001 -3.965016e-002 -1.608027e+001 -3.972574e+001 -8.397794e+001
169046250 -3.971296e+001 -9.980446e+001 -3.794527e-002 -1.784774e+001 -3.319909e-002 -1.788020e+001 -3.871983e+001 -8.126856e+001
185920875 -3.946746e+001 -1.063496e+002 -3.563028e-002 -1.961232e+001 -3.980980e-002 -1.964372e+001 -3.778722e+001 -8.416463e+001
202795500 -3.848923e+001 -1.129805e+002 -3.828363e-002 -2.140968e+001 -4.039888e-002 -2.140168e+001 -3.682637e+001 -8.238238e+001
219670125 -3.770265e+001 -1.177286e+002 -4.190453e-002 -2.316607e+001 -4.165858e-002 -2.314722e+001 -3.615132e+001 -8.688651e+001
236544750 -3.674346e+001 -1.206867e+002 -4.062536e-002 -2.494534e+001 -4.644804e-002 -2.496525e+001 -3.582917e+001 -8.864209e+001
253419375 -3.616799e+001 -1.241237e+002 -4.064415e-002 -2.670568e+001 -4.440510e-002 -2.670757e+001 -3.528249e+001 -8.976070e+001
270294000 -3.521678e+001 -1.305273e+002 -4.731211e-002 -2.847066e+001 -4.698393e-002 -2.846916e+001 -3.476048e+001 -9.202216e+001
287168625 -3.487024e+001 -1.338982e+002 -4.514663e-002 -3.023317e+001 -4.867764e-002 -3.024789e+001 -3.417456e+001 -9.327769e+001
304043250 -3.432493e+001 -1.385984e+002 -4.596908e-002 -3.197474e+001 -4.591575e-002 -3.200308e+001 -3.377879e+001 -9.658128e+001
320917875 -3.406392e+001 -1.414383e+002 -5.066369e-002 -3.376214e+001 -4.699583e-002 -3.374963e+001 -3.298976e+001 -9.830478e+001
337792500 -3.368483e+001 -1.442473e+002 -4.584086e-002 -3.555061e+001 -5.404395e-002 -3.552589e+001 -3.249482e+001 -9.798794e+001
354667125 -3.314978e+001 -1.476324e+002 -4.912293e-002 -3.728141e+001 -4.891535e-002 -3.728668e+001 -3.236140e+001 -9.962153e+001
371541750 -3.299108e+001 -1.523313e+002 -4.883130e-002 -3.908323e+001 -5.266314e-002 -3.903995e+001 -3.174095e+001 -9.848379e+001
388416375 -3.246136e+001 -1.550156e+002 -5.811012e-002 -4.082190e+001 -5.196115e-002 -4.084051e+001 -3.148902e+001 -9.967518e+001
405291000 -3.201889e+001 -1.593046e+002 -5.408337e-002 -4.261204e+001 -5.704712e-002 -4.259282e+001 -3.115011e+001 -1.001827e+002
422165625 -3.150899e+001 -1.615398e+002 -5.523390e-002 -4.435670e+001 -5.653096e-002 -4.433712e+001 -3.101075e+001 -1.019865e+002
439040250 -3.122839e+001 -1.650778e+002 -5.324204e-002 -4.613308e+001 -5.719126e-002 -4.611308e+001 -3.042012e+001 -1.040938e+002
455914875 -3.061118e+001 -1.687167e+002 -5.712955e-002 -4.789409e+001 -5.721378e-002 -4.788718e+001 -2.982699e+001 -1.067928e+002
472789500 -2.999861e+001 -1.696307e+002 -5.582507e-002 -4.965917e+001 -5.941230e-002 -4.964688e+001 -2.952798e+001 -1.081478e+002
489664125 -2.943277e+001 -1.734692e+002 -5.862807e-002 -5.142147e+001 -6.052043e-002 -5.143457e+001 -2.913997e+001 -1.093836e+002
506538750 -2.896364e+001 -1.762236e+002 -5.810017e-002 -5.319715e+001 -6.392816e-002 -5.317771e+001 -2.852097e+001 -1.119518e+002
523413375 -2.850979e+001 -1.787105e+002 -6.099238e-002 -5.494538e+001 -6.416303e-002 -5.495979e+001 -2.814234e+001 -1.131498e+002
540288000 -2.820882e+001 1.782830e+002 -6.122608e-002 -5.671000e+001 -6.358341e-002 -5.668559e+001 -2.779375e+001 -1.137528e+002
557162625 -2.804738e+001 1.755512e+002 -6.205789e-002 -5.849612e+001 -6.012107e-002 -5.846878e+001 -2.744685e+001 -1.140199e+002
574037250 -2.785715e+001 1.719820e+002 -6.629299e-002 -6.025143e+001 -6.240489e-002 -6.024041e+001 -2.728464e+001 -1.155305e+002
590911875 -2.755689e+001 1.698592e+002 -6.382649e-002 -6.199945e+001 -6.611999e-002 -6.199294e+001 -2.709108e+001 -1.162084e+002
607786500 -2.738760e+001 1.668108e+002 -6.379589e-002 -6.376309e+001 -6.903211e-002 -6.378594e+001 -2.700721e+001 -1.158756e+002
624661125 -2.721222e+001 1.639653e+002 -7.007690e-002 -6.552385e+001 -6.779307e-002 -6.551014e+001 -2.696204e+001 -1.166447e+002
641535750 -2.698079e+001 1.607450e+002 -6.618693e-002 -6.727724e+001 -6.563102e-002 -6.730177e+001 -2.688176e+001 -1.181948e+002
658410375 -2.685387e+001 1.578959e+002 -6.926628e-002 -6.905869e+001 -6.511073e-002 -6.905852e+001 -2.678155e+001 -1.191144e+002
675285000 -2.664249e+001 1.545242e+002 -6.136237e-002 -7.082224e+001 -6.653237e-002 -7.079541e+001 -2.650274e+001 -1.212542e+002
692159625 -2.639841e+001 1.524062e+002 -6.766633e-002 -7.258843e+001 -6.904838e-002 -7.259431e+001 -2.627479e+001 -1.231356e+002
709034250 -2.621115e+001 1.499148e+002 -7.058755e-002 -7.441596e+001 -6.994734e-002 -7.438021e+001 -2.606592e+001 -1.252725e+002
725908875 -2.617108e+001 1.472604e+002 -7.409625e-002 -7.614254e+001 -7.141814e-002 -7.614954e+001 -2.584678e+001 -1.262656e+002
742783500 -2.583525e+001 1.454821e+002 -7.400536e-002 -7.791142e+001 -7.562213e-002 -7.791365e+001 -2.567621e+001 -1.276826e+002
759658125 -2.567333e+001 1.441911e+002 -7.930613e-002 -7.969708e+001 -7.906447e-002 -7.970797e+001 -2.547342e+001 -1.282350e+002
776532750 -2.553298e+001 1.410601e+002 -7.732755e-002 -8.145244e+001 -8.474699e-002 -8.143227e+001 -2.526545e+001 -1.289483e+002
793407375 -2.549768e+001 1.391487e+002 -8.651239e-002 -8.319884e+001 -8.063168e-002 -8.319796e+001 -2.522447e+001 -1.295394e+002
810282000 -2.546219e+001 1.365432e+002 -8.298088e-002 -8.498660e+001 -8.480258e-002 -8.494958e+001 -2.510185e+001 -1.306241e+002
827156625 -2.515725e+001 1.336797e+002 -8.003812e-002 -8.672620e+001 -7.721464e-002 -8.671520e+001 -2.511199e+001 -1.314501e+002
844031250 -2.516590e+001 1.311944e+002 -8.655025e-002 -8.846458e+001 -8.321235e-002 -8.846145e+001 -2.508381e+001 -1.325734e+002
860905875 -2.497243e+001 1.294102e+002 -8.362518e-002 -9.024264e+001 -8.770467e-002 -9.020335e+001 -2.497009e+001 -1.340127e+002
877780500 -2.489570e+001 1.262869e+002 -8.388135e-002 -9.199098e+001 -8.413426e-002 -9.202157e+001 -2.493325e+001 -1.357608e+002
894655125 -2.473685e+001 1.238709e+002 -8.240642e-002 -9.373619e+001 -8.506422e-002 -9.377072e+001 -2.484315e+001 -1.373779e+002
911529750 -2.458547e+001 1.222176e+002 -8.396933e-002 -9.552781e+001 -8.545960e-002 -9.552718e+001 -2.470615e+001 -1.384739e+002
928404375 -2.449585e+001 1.197459e+002 -8.486990e-002 -9.727659e+001 -8.592727e-002 -9.729353e+001 -2.445709e+001 -1.403435e+002
945279000 -2.425810e+001 1.174588e+002 -8.248414e-002 -9.903385e+001 -8.626113e-002 -9.908500e+001 -2.438109e+001 -1.416633e+002
962153625 -2.419605e+001 1.148192e+002 -8.393599e-002 -1.008294e+002 -8.784504e-002 -1.008102e+002 -2.423549e+001 -1.422398e+002
979028250 -2.413470e+001 1.125649e+002 -8.695219e-002 -1.025827e+002 -8.545449e-002 -1.025722e+002 -2.412556e+001 -1.428681e+002
995902875 -2.403695e+001 1.103112e+002 -8.284759e-002 -1.043196e+002 -8.524863e-002 -1.043657e+002 -2.413787e+001 -1.442013e+002
1012777500 -2.384848e+001 1.074869e+002 -8.160455e-002 -1.061208e+002 -9.045889e-002 -1.061064e+002 -2.412737e+001 -1.442364e+002
1029652125 -2.377105e+001 1.048144e+002 -8.692507e-002 -1.079022e+002 -9.034135e-002 -1.078913e+002 -2.412088e+001 -1.447692e+002
1046526750 -2.367670e+001 1.020041e+002 -8.575867e-002 -1.096355e+002 -8.810264e-002 -1.096430e+002 -2.414763e+001 -1.451612e+002
1063401375 -2.359737e+001 9.871259e+001 -8.563139e-002 -1.114378e+002 -8.736749e-002 -1.113828e+002 -2.416278e+001 -1.460125e+002
1080276000 -2.344089e+001 9.552075e+001 -8.627883e-002 -1.131945e+002 -8.872531e-002 -1.131827e+002 -2.417126e+001 -1.477133e+002
1097150625 -2.338898e+001 9.373048e+001 -8.336292e-002 -1.149095e+002 -8.888610e-002 -1.149353e+002 -2.407052e+001 -1.488737e+002
1114025250 -2.333829e+001 9.091682e+001 -8.279718e-002 -1.167097e+002 -9.310103e-002 -1.166772e+002 -2.398825e+001 -1.498528e+002
1130899875 -2.324216e+001 8.864204e+001 -8.718292e-002 -1.184855e+002 -9.307255e-002 -1.184593e+002 -2.387328e+001 -1.512204e+002
1147774500 -2.320441e+001 8.649135e+001 -8.814078e-002 -1.202395e+002 -8.778432e-002 -1.202602e+002 -2.379193e+001 -1.524562e+002
1164649125 -2.308459e+001 8.426623e+001 -9.111777e-002 -1.219980e+002 -8.932725e-002 -1.220086e+002 -2.367710e+001 -1.528773e+002
1181523750 -2.301915e+001 8.167352e+001 -8.851306e-002 -1.237961e+002 -8.963224e-002 -1.237876e+002 -2.358781e+001 -1.527937e+002
1198398375 -2.292900e+001 7.943347e+001 -9.387767e-002 -1.255639e+002 -9.419303e-002 -1.255485e+002 -2.354404e+001 -1.537088e+002
1215273000 -2.287080e+001 7.709857e+001 -9.801396e-002 -1.273336e+002 -9.019244e-002 -1.272971e+002 -2.345294e+001 -1.550974e+002
1232147625 -2.281593e+001 7.443740e+001 -9.407470e-002 -1.290675e+002 -9.513838e-002 -1.290685e+002 -2.339686e+001 -1.556648e+002
1249022250 -2.266337e+001 7.132304e+001 -9.212642e-002 -1.308437e+002 -8.985171e-002 -1.308132e+002 -2.345597e+001 -1.562222e+002
1265896875 -2.256141e+001 6.869341e+001 -9.732953e-002 -1.325966e+002 -9.579641e-002 -1.326014e+002 -2.341747e+001 -1.568185e+002
1282771500 -2.243040e+001 6.579499e+001 -9.556311e-002 -1.343782e+002 -9.871977e-002 -1.343516e+002 -2.325979e+001 -1.581121e+002
1299646125 -2.237721e+001 6.303982e+001 -9.599416e-002 -1.361575e+002 -9.858552e-002 -1.360986e+002 -2.316900e+001 -1.590503e+002
1316520750 -2.230325e+001 6.073628e+001 -9.959808e-002 -1.378989e+002 -9.684860e-002 -1.378999e+002 -2.311215e+001 -1.601689e+002
1333395375 -2.219631e+001 5.850214e+001 -9.653042e-002 -1.396758e+002 -9.701718e-002 -1.396687e+002 -2.299952e+001 -1.609037e+002
1350270000 -2.213982e+001 5.572010e+001 -9.696385e-002 -1.414738e+002 -9.235787e-002 -1.414408e+002 -2.284903e+001 -1.618489e+002
1367144625 -2.206487e+001 5.319413e+001 -9.649719e-002 -1.432139e+002 -9.469655e-002 -1.432123e+002 -2.280431e+001 -1.630865e+002
1384019250 -2.191233e+001 5.085904e+001 -9.916811e-002 -1.450040e+002 -9.668705e-002 -1.449757e+002 -2.266457e+001 -1.631187e+002
1400893875 -2.191971e+001 4.792479e+001 -1.040137e-001 -1.467468e+002 -9.592612e-002 -1.467339e+002 -2.260358e+001 -1.640646e+002
1417768500 -2.182211e+001 4.538600e+001 -9.946876e-002 -1.485176e+002 -9.722375e-002 -1.484970e+002 -2.236455e+001 -1.638882e+002
1434643125 -2.165965e+001 4.321994e+001 -9.898163e-002 -1.502993e+002 -1.017460e-001 -1.502822e+002 -2.234552e+001 -1.649720e+002
1451517750 -2.157861e+001 4.008644e+001 -1.046025e-001 -1.520351e+002 -1.041393e-001 -1.520571e+002 -2.231304e+001 -1.653616e+002
1468392375 -2.148190e+001 3.726270e+001 -9.833374e-002 -1.538329e+002 -1.008934e-001 -1.538257e+002 -2.215699e+001 -1.663468e+002
1485267000 -2.134553e+001 3.433391e+001 -9.691284e-002 -1.555934e+002 -9.652451e-002 -1.555884e+002 -2.207200e+001 -1.672137e+002
1502141625 -2.131988e+001 3.142225e+001 -1.123737e-001 -1.574105e+002 -1.085833e-001 -1.574001e+002 -2.193645e+001 -1.674560e+002
1519016250 -2.120718e+001 2.876933e+001 -1.062860e-001 -1.591445e+002 -1.102519e-001 -1.590993e+002 -2.177116e+001 -1.684238e+002
1535890875 -2.116372e+001 2.574652e+001 -1.128377e-001 -1.608510e+002 -1.063436e-001 -1.608919e+002 -2.164211e+001 -1.696624e+002
1552765500 -2.106742e+001 2.343686e+001 -1.036872e-001 -1.626617e+002 -1.104411e-001 -1.626307e+002 -2.146777e+001 -1.699741e+002
1569640125 -2.098584e+001 2.072805e+001 -1.182871e-001 -1.644361e+002 -1.116683e-001 -1.644256e+002 -2.133792e+001 -1.706762e+002
1586514750 -2.087091e+001 1.889013e+001 -1.151125e-001 -1.661836e+002 -1.115071e-001 -1.661961e+002 -2.117016e+001 -1.723597e+002
1603389375 -2.068859e+001 1.646265e+001 -1.215748e-001 -1.679780e+002 -1.129814e-001 -1.679812e+002 -2.109668e+001 -1.728299e+002
1620264000 -2.056162e+001 1.429862e+001 -1.157420e-001 -1.697567e+002 -1.091055e-001 -1.697371e+002 -2.086609e+001 -1.739113e+002
1637138625 -2.046716e+001 1.090371e+001 -1.256352e-001 -1.714904e+002 -1.160951e-001 -1.715413e+002 -2.071728e+001 -1.741600e+002
1654013250 -2.030585e+001 9.035967e+000 -1.168169e-001 -1.732956e+002 -1.179783e-001 -1.732849e+002 -2.055463e+001 -1.753663e+002
1670887875 -2.018257e+001 5.796299e+000 -1.132389e-001 -1.750417e+002 -1.291239e-001 -1.750680e+002 -2.042035e+001 -1.759837e+002
1687762500 -1.998087e+001 3.208661e+000 -1.219155e-001 -1.768073e+002 -1.238040e-001 -1.768111e+002 -2.024040e+001 -1.772567e+002
1704637125 -1.989295e+001 5.529737e-001 -1.229480e-001 -1.785870e+002 -1.214671e-001 -1.786084e+002 -2.007503e+001 -1.779659e+002
1721511750 -1.971880e+001 -2.106685e+000 -1.269718e-001 1.796420e+002 -1.306481e-001 1.796329e+002 -1.992624e+001 -1.791265e+002
1738386375 -1.962428e+001 -4.505198e+000 -1.309603e-001 1.778612e+002 -1.282979e-001 1.778351e+002 -1.971762e+001 1.799200e+002
1755261000 -1.950398e+001 -7.038568e+000 -1.334785e-001 1.761021e+002 -1.205226e-001 1.760920e+002 -1.956612e+001 1.788736e+002
1772135625 -1.940086e+001 -9.243817e+000 -1.295336e-001 1.743307e+002 -1.341147e-001 1.743222e+002 -1.933393e+001 1.778448e+002
1789010250 -1.928537e+001 -1.153027e+001 -1.364411e-001 1.725652e+002 -1.312674e-001 1.725525e+002 -1.915249e+001 1.767452e+002
1805884875 -1.913078e+001 -1.374952e+001 -1.351648e-001 1.707887e+002 -1.400867e-001 1.707731e+002 -1.898918e+001 1.755224e+002
1822759500 -1.901443e+001 -1.577977e+001 -1.349690e-001 1.690286e+002 -1.389898e-001 1.690051e+002 -1.886373e+001 1.743502e+002
1839634125 -1.885752e+001 -1.788305e+001 -1.376955e-001 1.672407e+002 -1.343206e-001 1.672380e+002 -1.866292e+001 1.732416e+002
1856508750 -1.869099e+001 -2.032822e+001 -1.455654e-001 1.654794e+002 -1.331042e-001 1.654605e+002 -1.850026e+001 1.721614e+002
1873383375 -1.853397e+001 -2.266614e+001 -1.496076e-001 1.636662e+002 -1.417227e-001 1.637094e+002 -1.831787e+001 1.709426e+002
1890258000 -1.835842e+001 -2.521110e+001 -1.477312e-001 1.619484e+002 -1.441191e-001 1.618979e+002 -1.814058e+001 1.697841e+002
1907132625 -1.822804e+001 -2.784023e+001 -1.571552e-001 1.601626e+002 -1.473540e-001 1.601661e+002 -1.799955e+001 1.685799e+002
1924007250 -1.809384e+001 -3.007592e+001 -1.499389e-001 1.584118e+002 -1.527162e-001 1.583985e+002 -1.787698e+001 1.671795e+002
1940881875 -1.796434e+001 -3.217219e+001 -1.531980e-001 1.566330e+002 -1.582450e-001 1.566576e+002 -1.767704e+001 1.655202e+002
1957756500 -1.784892e+001 -3.433512e+001 -1.596127e-001 1.548789e+002 -1.590937e-001 1.548578e+002 -1.754758e+001 1.645390e+002
1974631125 -1.776250e+001 -3.659497e+001 -1.573007e-001 1.531059e+002 -1.641304e-001 1.530778e+002 -1.734923e+001 1.631694e+002
1991505750 -1.767559e+001 -3.839319e+001 -1.675423e-001 1.513303e+002 -1.707472e-001 1.513485e+002 -1.720771e+001 1.617410e+002
2008380375 -1.754218e+001 -4.065734e+001 -1.592313e-001 1.495951e+002 -1.659912e-001 1.495600e+002 -1.703139e+001 1.608248e+002
2025255000 -1.740107e+001 -4.250154e+001 -1.602518e-001 1.478032e+002 -1.741017e-001 1.478004e+002 -1.688158e+001 1.594159e+002
2042129625 -1.726512e+001 -4.502641e+001 -1.666148e-001 1.460470e+002 -1.762215e-001 1.460653e+002 -1.675191e+001 1.578758e+002
2059004250 -1.710573e+001 -4.670731e+001 -1.822242e-001 1.442886e+002 -1.752238e-001 1.442865e+002 -1.665010e+001 1.567724e+002
2075878875 -1.702824e+001 -4.892744e+001 -1.758862e-001 1.425188e+002 -1.864434e-001 1.425067e+002 -1.654728e+001 1.553788e+002
2092753500 -1.683643e+001 -5.147017e+001 -1.845224e-001 1.407504e+002 -1.852535e-001 1.407652e+002 -1.640502e+001 1.541827e+002
2109628125 -1.673213e+001 -5.381809e+001 -1.788383e-001 1.389844e+002 -1.896226e-001 1.389837e+002 -1.628912e+001 1.528661e+002
2126502750 -1.663213e+001 -5.621682e+001 -1.907203e-001 1.372414e+002 -1.824572e-001 1.372405e+002 -1.616012e+001 1.516159e+002
2143377375 -1.655279e+001 -5.833921e+001 -1.926199e-001 1.354881e+002 -1.909800e-001 1.354876e+002 -1.604248e+001 1.498824e+002
2160252000 -1.645638e+001 -6.038111e+001 -1.929615e-001 1.337432e+002 -1.977632e-001 1.337482e+002 -1.594288e+001 1.483890e+002
2177126625 -1.637291e+001 -6.252755e+001 -2.123552e-001 1.319754e+002 -2.074323e-001 1.319619e+002 -1.585273e+001 1.468476e+002
2194001250 -1.632682e+001 -6.434763e+001 -1.907488e-001 1.302188e+002 -2.001021e-001 1.301900e+002 -1.576105e+001 1.455876e+002
2210875875 -1.622363e+001 -6.660518e+001 -1.857662e-001 1.284231e+002 -1.929241e-001 1.284385e+002 -1.563724e+001 1.443474e+002
2227750500 -1.610075e+001 -6.865269e+001 -1.978213e-001 1.266706e+002 -2.021057e-001 1.266749e+002 -1.552486e+001 1.431729e+002
2244625125 -1.605380e+001 -7.112201e+001 -2.087349e-001 1.248996e+002 -2.141274e-001 1.249566e+002 -1.542860e+001 1.416931e+002
2261499750 -1.593783e+001 -7.315509e+001 -2.190586e-001 1.231825e+002 -2.041646e-001 1.231831e+002 -1.535439e+001 1.406439e+002
2278374375 -1.584691e+001 -7.548151e+001 -2.130391e-001 1.214355e+002 -2.132301e-001 1.214175e+002 -1.531476e+001 1.389876e+002
2295249000 -1.576412e+001 -7.767901e+001 -2.231957e-001 1.196593e+002 -2.185993e-001 1.196926e+002 -1.523831e+001 1.375735e+002
2312123625 -1.569127e+001 -7.987986e+001 -2.196268e-001 1.179421e+002 -2.204307e-001 1.179249e+002 -1.517648e+001 1.363607e+002
2328998250 -1.562212e+001 -8.226735e+001 -2.190951e-001 1.161961e+002 -2.287155e-001 1.161786e+002 -1.507732e+001 1.348655e+002
2345872875 -1.555677e+001 -8.476517e+001 -2.281489e-001 1.144170e+002 -2.270066e-001 1.144109e+002 -1.503608e+001 1.337123e+002
2362747500 -1.550792e+001 -8.678010e+001 -2.186770e-001 1.126658e+002 -2.274038e-001 1.126572e+002 -1.492880e+001 1.323343e+002
2379622125 -1.543959e+001 -8.943851e+001 -2.303212e-001 1.109484e+002 -2.264040e-001 1.109240e+002 -1.485995e+001 1.308680e+002
2396496750 -1.540423e+001 -9.146181e+001 -2.385324e-001 1.091901e+002 -2.347596e-001 1.092011e+002 -1.480221e+001 1.294666e+002
2413371375 -1.539286e+001 -9.369666e+001 -2.322674e-001 1.074311e+002 -2.354355e-001 1.074354e+002 -1.476543e+001 1.283673e+002
2430246000 -1.535890e+001 -9.586557e+001 -2.360699e-001 1.056661e+002 -2.371649e-001 1.056668e+002 -1.473025e+001 1.271286e+002
2447120625 -1.530548e+001 -9.814335e+001 -2.384470e-001 1.039094e+002 -2.401462e-001 1.039155e+002 -1.468410e+001 1.259749e+002
2463995250 -1.524718e+001 -1.004541e+002 -2.389845e-001 1.021620e+002 -2.385692e-001 1.021829e+002 -1.463073e+001 1.247752e+002
2480869875 -1.518521e+001 -1.027535e+002 -2.391126e-001 1.004230e+002 -2.393362e-001 1.004218e+002 -1.462535e+001 1.237081e+002
2497744500 -1.515173e+001 -1.052300e+002 -2.386791e-001 9.864642e+001 -2.459474e-001 9.869163e+001 -1.459607e+001 1.224111e+002
2514619125 -1.509805e+001 -1.077652e+002 -2.448990e-001 9.692086e+001 -2.490128e-001 9.691515e+001 -1.460458e+001 1.210254e+002
2531493750 -1.506703e+001 -1.103027e+002 -2.433060e-001 9.515707e+001 -2.525798e-001 9.514708e+001 -1.458166e+001 1.201245e+002
2548368375 -1.507289e+001 -1.126828e+002 -2.487703e-001 9.343456e+001 -2.451799e-001 9.342624e+001 -1.453146e+001 1.183411e+002
