!Agilent Technologies,N5230C,MY48100320,A.08.04.10
!Agilent N5230C: A.08.04.10
!Date: Thursday, August 04, 2016 04:09:42
!Correction: S11(Full 2 Port(1,2)) 
!S21(Full 2 Port(1,2)) 
!S12(Full 2 Port(1,2)) 
!S22(Full 2 Port(1,2)) 
!S2P File: Measurements: S11, S21, S12, S22:
# Hz S  dB   R 50
1350270000 -1.028358e+001 1.018217e+002 -9.590382e-001 -1.150127e+002 -9.589413e-001 -1.150106e+002 -1.020985e+001 -1.704264e+002
1411018650 -9.985131e+000 9.499626e+001 -1.000922e+000 -1.200088e+002 -1.006834e+000 -1.199955e+002 -9.920804e+000 -1.737332e+002
1471767300 -9.739325e+000 8.827741e+001 -1.044640e+000 -1.249448e+002 -1.048392e+000 -1.249432e+002 -9.665716e+000 -1.766417e+002
1532515950 -9.521907e+000 8.125086e+001 -1.090374e+000 -1.299796e+002 -1.093694e+000 -1.299754e+002 -9.458965e+000 -1.795665e+002
1593264600 -9.236208e+000 7.472757e+001 -1.130221e+000 -1.348727e+002 -1.128526e+000 -1.348659e+002 -9.180226e+000 1.772282e+002
1654013250 -8.997990e+000 6.783316e+001 -1.181022e+000 -1.398369e+002 -1.181036e+000 -1.398376e+002 -8.963840e+000 1.744006e+002
1714761900 -8.749133e+000 6.115353e+001 -1.227814e+000 -1.447952e+002 -1.221621e+000 -1.447832e+002 -8.718309e+000 1.714760e+002
1775510550 -8.482945e+000 5.422786e+001 -1.274564e+000 -1.497653e+002 -1.275767e+000 -1.497614e+002 -8.505320e+000 1.684986e+002
1836259200 -8.255559e+000 4.772545e+001 -1.326969e+000 -1.547398e+002 -1.325743e+000 -1.547234e+002 -8.242253e+000 1.655810e+002
1897007850 -8.009926e+000 4.078273e+001 -1.380358e+000 -1.597051e+002 -1.383087e+000 -1.597050e+002 -8.033946e+000 1.627851e+002
1957756500 -7.763470e+000 3.428005e+001 -1.442454e+000 -1.646642e+002 -1.439715e+000 -1.646551e+002 -7.778143e+000 1.598024e+002
2018505150 -7.517399e+000 2.759009e+001 -1.497066e+000 -1.695951e+002 -1.494485e+000 -1.695879e+002 -7.539013e+000 1.568668e+002
2079253800 -7.291687e+000 2.111133e+001 -1.565687e+000 -1.745406e+002 -1.559687e+000 -1.745298e+002 -7.309474e+000 1.538233e+002
2140002450 -7.066405e+000 1.456733e+001 -1.620266e+000 -1.794561e+002 -1.629900e+000 -1.794501e+002 -7.070485e+000 1.509143e+002
2200751100 -6.829720e+000 8.148863e+000 -1.685384e+000 1.756748e+002 -1.683585e+000 1.756843e+002 -6.842855e+000 1.478500e+002
2261499750 -6.638456e+000 1.780511e+000 -1.771120e+000 1.708331e+002 -1.770120e+000 1.708347e+002 -6.635533e+000 1.447364e+002
2322248400 -6.452217e+000 -4.478581e+000 -1.836196e+000 1.659668e+002 -1.836109e+000 1.659775e+002 -6.417461e+000 1.416322e+002
2382997050 -6.232591e+000 -1.078086e+001 -1.907899e+000 1.611972e+002 -1.914361e+000 1.612159e+002 -6.234011e+000 1.385996e+002
2443745700 -6.075115e+000 -1.683467e+001 -1.984020e+000 1.564112e+002 -1.984307e+000 1.564118e+002 -6.038732e+000 1.353715e+002
2504494350 -5.910209e+000 -2.297253e+001 -2.045573e+000 1.516926e+002 -2.053846e+000 1.517007e+002 -5.858140e+000 1.322392e+002
2565243000 -5.749588e+000 -2.901043e+001 -2.123874e+000 1.469645e+002 -2.124260e+000 1.469797e+002 -5.698492e+000 1.291087e+002
2625991650 -5.629854e+000 -3.502345e+001 -2.190515e+000 1.422946e+002 -2.188350e+000 1.423119e+002 -5.545896e+000 1.259112e+002
2686740300 -5.490718e+000 -4.096959e+001 -2.250769e+000 1.376538e+002 -2.242354e+000 1.376572e+002 -5.413382e+000 1.227536e+002
2747488950 -5.369907e+000 -4.689152e+001 -2.314857e+000 1.330337e+002 -2.317923e+000 1.330567e+002 -5.288746e+000 1.195997e+002
2808237600 -5.281517e+000 -5.283001e+001 -2.376644e+000 1.283965e+002 -2.374247e+000 1.284133e+002 -5.181330e+000 1.164611e+002
2868986250 -5.175004e+000 -5.874771e+001 -2.413565e+000 1.238607e+002 -2.433687e+000 1.238777e+002 -5.089435e+000 1.133600e+002
2929734900 -5.106208e+000 -6.471381e+001 -2.464254e+000 1.192379e+002 -2.464008e+000 1.192658e+002 -4.995092e+000 1.102899e+002
2990483550 -5.057194e+000 -7.076361e+001 -2.518231e+000 1.147153e+002 -2.521149e+000 1.147114e+002 -4.950505e+000 1.072935e+002
3051232200 -4.992672e+000 -7.684463e+001 -2.542179e+000 1.101021e+002 -2.543691e+000 1.101137e+002 -4.890586e+000 1.042415e+002
3111980850 -4.956007e+000 -8.301683e+001 -2.575110e+000 1.055297e+002 -2.575396e+000 1.055311e+002 -4.831198e+000 1.013308e+002
3172729500 -4.920639e+000 -8.930537e+001 -2.585963e+000 1.008792e+002 -2.585165e+000 1.009150e+002 -4.792766e+000 9.842986e+001
3233478150 -4.886189e+000 -9.556438e+001 -2.620544e+000 9.631996e+001 -2.625121e+000 9.632543e+001 -4.772639e+000 9.561294e+001
3294226800 -4.858096e+000 -1.020560e+002 -2.641225e+000 9.165962e+001 -2.628213e+000 9.170794e+001 -4.749865e+000 9.283051e+001
3354975450 -4.829192e+000 -1.087152e+002 -2.651363e+000 8.700676e+001 -2.655140e+000 8.700719e+001 -4.745221e+000 9.021589e+001
3415724100 -4.814031e+000 -1.154652e+002 -2.654745e+000 8.234742e+001 -2.654935e+000 8.236876e+001 -4.751770e+000 8.745956e+001
3476472750 -4.785263e+000 -1.224081e+002 -2.672466e+000 7.765705e+001 -2.671982e+000 7.764276e+001 -4.732109e+000 8.499310e+001
3537221400 -4.749662e+000 -1.294667e+002 -2.676577e+000 7.291032e+001 -2.673202e+000 7.293433e+001 -4.722208e+000 8.251354e+001
3597970050 -4.720211e+000 -1.364692e+002 -2.688927e+000 6.810835e+001 -2.689200e+000 6.809635e+001 -4.709249e+000 8.003070e+001
3658718700 -4.672564e+000 -1.436195e+002 -2.712131e+000 6.334101e+001 -2.702945e+000 6.340920e+001 -4.711220e+000 7.761472e+001
3719467350 -4.634822e+000 -1.506849e+002 -2.724760e+000 5.854850e+001 -2.729522e+000 5.854683e+001 -4.698052e+000 7.522127e+001
3780216000 -4.596062e+000 -1.579400e+002 -2.736893e+000 5.369847e+001 -2.744969e+000 5.373162e+001 -4.677540e+000 7.290881e+001
3840964650 -4.545999e+000 -1.651942e+002 -2.780414e+000 4.894391e+001 -2.780684e+000 4.894236e+001 -4.647497e+000 7.059843e+001
3901713300 -4.497358e+000 -1.721719e+002 -2.801929e+000 4.409790e+001 -2.799501e+000 4.412684e+001 -4.618834e+000 6.810214e+001
3962461950 -4.448281e+000 -1.793840e+002 -2.837507e+000 3.928855e+001 -2.833575e+000 3.930104e+001 -4.559659e+000 6.588338e+001
4023210600 -4.372630e+000 1.737281e+002 -2.873196e+000 3.447368e+001 -2.880569e+000 3.449933e+001 -4.532237e+000 6.330383e+001
4083959250 -4.329984e+000 1.667896e+002 -2.920137e+000 2.976736e+001 -2.921350e+000 2.977463e+001 -4.461854e+000 6.088744e+001
4144707900 -4.247123e+000 1.599608e+002 -2.963499e+000 2.500830e+001 -2.968862e+000 2.501228e+001 -4.411241e+000 5.845866e+001
4205456550 -4.186769e+000 1.534260e+002 -3.018457e+000 2.026143e+001 -3.018619e+000 2.027979e+001 -4.337827e+000 5.565831e+001
4266205200 -4.125535e+000 1.469290e+002 -3.058164e+000 1.566723e+001 -3.075582e+000 1.568734e+001 -4.278238e+000 5.305642e+001
4326953850 -4.068026e+000 1.405984e+002 -3.118178e+000 1.099311e+001 -3.126936e+000 1.102177e+001 -4.181898e+000 5.037745e+001
4387702500 -4.023587e+000 1.345166e+002 -3.165843e+000 6.439827e+000 -3.172458e+000 6.476193e+000 -4.118270e+000 4.749252e+001
4448451150 -3.973782e+000 1.283024e+002 -3.217668e+000 1.907878e+000 -3.230594e+000 1.930279e+000 -4.039885e+000 4.469164e+001
4509199800 -3.922013e+000 1.223692e+002 -3.277093e+000 -2.645423e+000 -3.274262e+000 -2.606804e+000 -3.963955e+000 4.185566e+001
4569948450 -3.898608e+000 1.165194e+002 -3.316363e+000 -7.087301e+000 -3.316179e+000 -7.062355e+000 -3.902528e+000 3.883846e+001
4630697100 -3.867103e+000 1.106885e+002 -3.350436e+000 -1.153982e+001 -3.373377e+000 -1.151772e+001 -3.847154e+000 3.573143e+001
4691445750 -3.842788e+000 1.050200e+002 -3.427200e+000 -1.602956e+001 -3.413534e+000 -1.602524e+001 -3.769343e+000 3.275977e+001
4752194400 -3.831291e+000 9.935689e+001 -3.429955e+000 -2.039060e+001 -3.431993e+000 -2.037568e+001 -3.707446e+000 2.962617e+001
4812943050 -3.823049e+000 9.358620e+001 -3.468942e+000 -2.485626e+001 -3.477185e+000 -2.483360e+001 -3.658592e+000 2.650854e+001
4873691700 -3.812366e+000 8.815904e+001 -3.498871e+000 -2.929107e+001 -3.519551e+000 -2.926836e+001 -3.611621e+000 2.329486e+001
4934440350 -3.813868e+000 8.233429e+001 -3.522308e+000 -3.363961e+001 -3.520320e+000 -3.361998e+001 -3.562243e+000 2.026667e+001
4995189000 -3.825363e+000 7.657037e+001 -3.549564e+000 -3.808391e+001 -3.549113e+000 -3.808848e+001 -3.522301e+000 1.711413e+001
5055937650 -3.831510e+000 7.089612e+001 -3.571487e+000 -4.248833e+001 -3.565727e+000 -4.246127e+001 -3.472062e+000 1.405678e+001
5116686300 -3.838197e+000 6.488014e+001 -3.583060e+000 -4.683641e+001 -3.579984e+000 -4.682398e+001 -3.455656e+000 1.101043e+001
5177434950 -3.821033e+000 5.899593e+001 -3.600080e+000 -5.138080e+001 -3.597516e+000 -5.132576e+001 -3.433846e+000 7.966245e+000
5238183600 -3.839678e+000 5.302007e+001 -3.598767e+000 -5.582873e+001 -3.594462e+000 -5.580944e+001 -3.380167e+000 4.988670e+000
5298932250 -3.825116e+000 4.658176e+001 -3.600012e+000 -6.035655e+001 -3.619241e+000 -6.030487e+001 -3.408627e+000 2.066338e+000
5359680900 -3.828859e+000 4.041534e+001 -3.594333e+000 -6.493449e+001 -3.608745e+000 -6.494202e+001 -3.370242e+000 -9.742364e-001
5420429550 -3.843349e+000 3.400983e+001 -3.633751e+000 -6.937003e+001 -3.609878e+000 -6.932723e+001 -3.343797e+000 -3.622730e+000
5481178200 -3.812666e+000 2.732130e+001 -3.598948e+000 -7.404728e+001 -3.618450e+000 -7.405129e+001 -3.392999e+000 -6.476859e+000
5541926850 -3.794496e+000 2.072972e+001 -3.604691e+000 -7.870201e+001 -3.600332e+000 -7.867164e+001 -3.348353e+000 -9.269646e+000
5602675500 -3.776206e+000 1.380911e+001 -3.615808e+000 -8.329733e+001 -3.618329e+000 -8.328867e+001 -3.339379e+000 -1.166865e+001
5663424150 -3.730655e+000 6.976440e+000 -3.618530e+000 -8.807320e+001 -3.617818e+000 -8.802855e+001 -3.367483e+000 -1.439445e+001
5724172800 -3.724694e+000 9.608527e-002 -3.639157e+000 -9.262003e+001 -3.636039e+000 -9.262273e+001 -3.336760e+000 -1.693219e+001
5784921450 -3.664052e+000 -6.966340e+000 -3.669579e+000 -9.744052e+001 -3.658214e+000 -9.738259e+001 -3.344510e+000 -1.925715e+001
5845670100 -3.610996e+000 -1.390039e+001 -3.650452e+000 -1.021156e+002 -3.654351e+000 -1.021200e+002 -3.334400e+000 -2.180688e+001
5906418750 -3.557231e+000 -2.088842e+001 -3.681462e+000 -1.069190e+002 -3.678220e+000 -1.068751e+002 -3.317348e+000 -2.415187e+001
5967167400 -3.519435e+000 -2.791646e+001 -3.714814e+000 -1.115621e+002 -3.716880e+000 -1.115553e+002 -3.310262e+000 -2.647847e+001
6027916050 -3.454681e+000 -3.469509e+001 -3.749782e+000 -1.162713e+002 -3.745191e+000 -1.161884e+002 -3.318542e+000 -2.889411e+001
6088664700 -3.418745e+000 -4.154173e+001 -3.786790e+000 -1.209224e+002 -3.779066e+000 -1.209247e+002 -3.288959e+000 -3.121383e+001
6149413350 -3.351062e+000 -4.831884e+001 -3.809241e+000 -1.256422e+002 -3.820780e+000 -1.255635e+002 -3.279751e+000 -3.360514e+001
6210162000 -3.309753e+000 -5.490984e+001 -3.846002e+000 -1.302397e+002 -3.840302e+000 -1.302443e+002 -3.261083e+000 -3.607866e+001
6270910650 -3.261881e+000 -6.141018e+001 -3.876622e+000 -1.348940e+002 -3.875848e+000 -1.348284e+002 -3.234696e+000 -3.841634e+001
6331659300 -3.223682e+000 -6.779315e+001 -3.920159e+000 -1.394450e+002 -3.928515e+000 -1.394580e+002 -3.232542e+000 -4.092889e+001
6392407950 -3.178203e+000 -7.400063e+001 -3.938934e+000 -1.439390e+002 -3.937419e+000 -1.438751e+002 -3.213810e+000 -4.346719e+001
6453156600 -3.169340e+000 -8.022375e+001 -3.987897e+000 -1.484329e+002 -3.991880e+000 -1.484409e+002 -3.194162e+000 -4.593999e+001
6513905250 -3.135822e+000 -8.632087e+001 -3.998641e+000 -1.530037e+002 -4.005762e+000 -1.529226e+002 -3.207799e+000 -4.852671e+001
6574653900 -3.133807e+000 -9.242577e+001 -4.023640e+000 -1.572822e+002 -4.025449e+000 -1.572947e+002 -3.192363e+000 -5.108749e+001
6635402550 -3.132357e+000 -9.835655e+001 -4.039218e+000 -1.619097e+002 -4.041634e+000 -1.618270e+002 -3.201933e+000 -5.377639e+001
6696151200 -3.134782e+000 -1.043482e+002 -4.040710e+000 -1.662754e+002 -4.049090e+000 -1.662773e+002 -3.208921e+000 -5.637976e+001
6756899850 -3.140269e+000 -1.102902e+002 -4.048132e+000 -1.706546e+002 -4.049654e+000 -1.705777e+002 -3.221485e+000 -5.898987e+001
6817648500 -3.175289e+000 -1.161746e+002 -4.053160e+000 -1.751516e+002 -4.058381e+000 -1.751630e+002 -3.236518e+000 -6.175235e+001
6878397150 -3.190790e+000 -1.220472e+002 -4.037434e+000 -1.795356e+002 -4.040944e+000 -1.794507e+002 -3.253880e+000 -6.442123e+001
6939145800 -3.224255e+000 -1.280146e+002 -4.036949e+000 1.760681e+002 -4.037159e+000 1.760544e+002 -3.284688e+000 -6.708459e+001
6999894450 -3.263209e+000 -1.339601e+002 -3.991881e+000 1.715859e+002 -3.995824e+000 1.716450e+002 -3.323097e+000 -6.988473e+001
7060643100 -3.311883e+000 -1.400707e+002 -3.977508e+000 1.671479e+002 -3.981705e+000 1.671179e+002 -3.351014e+000 -7.246468e+001
7121391750 -3.348431e+000 -1.460991e+002 -3.954077e+000 1.625895e+002 -3.952973e+000 1.626681e+002 -3.399576e+000 -7.521259e+001
7182140400 -3.410259e+000 -1.521873e+002 -3.907821e+000 1.581500e+002 -3.919548e+000 1.581292e+002 -3.432262e+000 -7.804948e+001
7242889050 -3.451777e+000 -1.583526e+002 -3.894127e+000 1.536034e+002 -3.887872e+000 1.536986e+002 -3.469912e+000 -8.069552e+001
7303637700 -3.507417e+000 -1.645989e+002 -3.844160e+000 1.490673e+002 -3.851944e+000 1.490520e+002 -3.524423e+000 -8.337092e+001
7364386350 -3.576971e+000 -1.708645e+002 -3.793805e+000 1.445143e+002 -3.799658e+000 1.445949e+002 -3.552295e+000 -8.623457e+001
7425135000 -3.614850e+000 -1.773237e+002 -3.780341e+000 1.399213e+002 -3.778652e+000 1.398983e+002 -3.597514e+000 -8.873914e+001
7485883650 -3.672651e+000 1.762794e+002 -3.726829e+000 1.352535e+002 -3.734760e+000 1.353350e+002 -3.644121e+000 -9.154573e+001
7546632300 -3.741416e+000 1.698345e+002 -3.682093e+000 1.307454e+002 -3.683081e+000 1.307471e+002 -3.674562e+000 -9.420931e+001
7607380950 -3.750067e+000 1.632743e+002 -3.675209e+000 1.259135e+002 -3.669317e+000 1.260332e+002 -3.739242e+000 -9.677882e+001
7668129600 -3.814112e+000 1.566687e+002 -3.611030e+000 1.213170e+002 -3.623158e+000 1.213151e+002 -3.765769e+000 -9.950006e+001
7728878250 -3.867419e+000 1.500952e+002 -3.591508e+000 1.167030e+002 -3.586838e+000 1.167983e+002 -3.785758e+000 -1.021268e+002
7789626900 -3.872502e+000 1.435371e+002 -3.584724e+000 1.118115e+002 -3.584372e+000 1.117914e+002 -3.854338e+000 -1.046585e+002
7850375550 -3.936687e+000 1.368592e+002 -3.531629e+000 1.071918e+002 -3.533160e+000 1.072519e+002 -3.854317e+000 -1.074701e+002
7911124200 -3.966507e+000 1.302082e+002 -3.523441e+000 1.025211e+002 -3.522447e+000 1.025364e+002 -3.867844e+000 -1.098418e+002
7971872850 -3.962636e+000 1.237736e+002 -3.515641e+000 9.751559e+001 -3.512820e+000 9.760187e+001 -3.938730e+000 -1.124633e+002
8032621500 -4.025250e+000 1.170481e+002 -3.478163e+000 9.310632e+001 -3.484621e+000 9.309940e+001 -3.932057e+000 -1.152334e+002
8093370150 -4.047951e+000 1.104391e+002 -3.481947e+000 8.823367e+001 -3.476748e+000 8.832523e+001 -3.925285e+000 -1.176375e+002
8154118800 -4.059164e+000 1.041285e+002 -3.468389e+000 8.336420e+001 -3.475152e+000 8.336036e+001 -3.985257e+000 -1.201401e+002
8214867450 -4.120913e+000 9.744076e+001 -3.447741e+000 7.894661e+001 -3.444625e+000 7.900614e+001 -3.985089e+000 -1.230622e+002
8275616100 -4.143183e+000 9.089981e+001 -3.452610e+000 7.412213e+001 -3.457938e+000 7.411953e+001 -3.970633e+000 -1.254427e+002
8336364750 -4.166500e+000 8.450903e+001 -3.443003e+000 6.924461e+001 -3.438598e+000 6.932312e+001 -4.002948e+000 -1.279200e+002
8397113400 -4.216183e+000 7.789445e+001 -3.444187e+000 6.488240e+001 -3.452762e+000 6.490009e+001 -4.015499e+000 -1.306945e+002
8457862050 -4.253121e+000 7.148274e+001 -3.446128e+000 6.002195e+001 -3.443352e+000 6.007595e+001 -3.982658e+000 -1.333070e+002
8518610700 -4.290313e+000 6.511672e+001 -3.426495e+000 5.535991e+001 -3.439105e+000 5.537215e+001 -4.014235e+000 -1.357013e+002
8579359350 -4.331139e+000 5.856757e+001 -3.446459e+000 5.090066e+001 -3.443532e+000 5.095373e+001 -4.040395e+000 -1.385703e+002
8640108000 -4.383824e+000 5.218708e+001 -3.427984e+000 4.603886e+001 -3.436225e+000 4.606532e+001 -4.017083e+000 -1.410862e+002
8700856650 -4.432792e+000 4.577082e+001 -3.425500e+000 4.136882e+001 -3.428257e+000 4.141117e+001 -4.046617e+000 -1.436252e+002
8761605300 -4.485004e+000 3.915821e+001 -3.440490e+000 3.686592e+001 -3.444734e+000 3.689502e+001 -4.065958e+000 -1.463051e+002
8822353950 -4.538062e+000 3.275254e+001 -3.414756e+000 3.198951e+001 -3.415782e+000 3.206581e+001 -4.055222e+000 -1.488972e+002
8883102600 -4.597692e+000 2.625803e+001 -3.410480e+000 2.742808e+001 -3.421370e+000 2.744985e+001 -4.089200e+000 -1.513439e+002
8943851250 -4.642697e+000 1.951144e+001 -3.423868e+000 2.273800e+001 -3.421729e+000 2.277035e+001 -4.118658e+000 -1.541355e+002
9004599900 -4.704761e+000 1.313941e+001 -3.390161e+000 1.790375e+001 -3.402563e+000 1.797364e+001 -4.114783e+000 -1.566059e+002
9065348550 -4.748263e+000 6.561582e+000 -3.399596e+000 1.339899e+001 -3.397508e+000 1.338484e+001 -4.153580e+000 -1.591984e+002
9126097200 -4.784636e+000 -7.445698e-003 -3.399993e+000 8.578908e+000 -3.401333e+000 8.627190e+000 -4.184925e+000 -1.619118e+002
9186845850 -4.844142e+000 -6.472358e+000 -3.356994e+000 3.942973e+000 -3.362221e+000 3.970420e+000 -4.190186e+000 -1.643375e+002
9247594500 -4.894522e+000 -1.294430e+001 -3.384561e+000 -6.653664e-001 -3.387324e+000 -6.407053e-001 -4.247088e+000 -1.669302e+002
9308343150 -4.945340e+000 -1.967552e+001 -3.354384e+000 -5.477600e+000 -3.349129e+000 -5.447144e+000 -4.299217e+000 -1.696693e+002
9369091800 -5.003880e+000 -2.605349e+001 -3.339286e+000 -1.018235e+001 -3.348512e+000 -1.012492e+001 -4.311486e+000 -1.722448e+002
9429840450 -5.046394e+000 -3.245972e+001 -3.372894e+000 -1.484669e+001 -3.370013e+000 -1.480993e+001 -4.373233e+000 -1.749654e+002
9490589100 -5.103868e+000 -3.889191e+001 -3.322033e+000 -1.963966e+001 -3.328969e+000 -1.956690e+001 -4.439718e+000 -1.777467e+002
9551337750 -5.154341e+000 -4.507788e+001 -3.324646e+000 -2.424942e+001 -3.331166e+000 -2.420446e+001 -4.474514e+000 1.795872e+002
9612086400 -5.233626e+000 -5.118397e+001 -3.339602e+000 -2.909395e+001 -3.345662e+000 -2.903278e+001 -4.533401e+000 1.767977e+002
9672835050 -5.304267e+000 -5.769633e+001 -3.289364e+000 -3.368792e+001 -3.290956e+000 -3.370243e+001 -4.642453e+000 1.740056e+002
9733583700 -5.375091e+000 -6.349486e+001 -3.292943e+000 -3.854759e+001 -3.301668e+000 -3.847245e+001 -4.691624e+000 1.711014e+002
9794332350 -5.471848e+000 -6.949609e+001 -3.297926e+000 -4.336075e+001 -3.298080e+000 -4.332877e+001 -4.747971e+000 1.682834e+002
9855081000 -5.550893e+000 -7.572332e+001 -3.251530e+000 -4.800727e+001 -3.258574e+000 -4.793599e+001 -4.879407e+000 1.655275e+002
9915829650 -5.639214e+000 -8.134338e+001 -3.263439e+000 -5.275339e+001 -3.264898e+000 -5.273255e+001 -4.937029e+000 1.625713e+002
9976578300 -5.780290e+000 -8.715254e+001 -3.253886e+000 -5.764569e+001 -3.256280e+000 -5.758875e+001 -5.012809e+000 1.598052e+002
10037326950 -5.855872e+000 -9.306467e+001 -3.223366e+000 -6.213834e+001 -3.222031e+000 -6.213539e+001 -5.171937e+000 1.568338e+002
10098075600 -5.997876e+000 -9.838716e+001 -3.230593e+000 -6.708006e+001 -3.229384e+000 -6.700340e+001 -5.226351e+000 1.539447e+002
10158824250 -6.139413e+000 -1.042957e+002 -3.207644e+000 -7.174171e+001 -3.209629e+000 -7.173956e+001 -5.318054e+000 1.512901e+002
10219572900 -6.212350e+000 -1.100945e+002 -3.197970e+000 -7.634655e+001 -3.197347e+000 -7.626565e+001 -5.476205e+000 1.484113e+002
10280321550 -6.320195e+000 -1.155874e+002 -3.195919e+000 -8.108517e+001 -3.197255e+000 -8.109477e+001 -5.517515e+000 1.454425e+002
10341070200 -6.465851e+000 -1.216837e+002 -3.170902e+000 -8.571586e+001 -3.172390e+000 -8.563029e+001 -5.619878e+000 1.428867e+002
10401818850 -6.498670e+000 -1.276843e+002 -3.144621e+000 -9.021876e+001 -3.144590e+000 -9.019971e+001 -5.753593e+000 1.397778e+002
10462567500 -6.598236e+000 -1.335752e+002 -3.115204e+000 -9.506543e+001 -3.114268e+000 -9.499706e+001 -5.807801e+000 1.368195e+002
10523316150 -6.661288e+000 -1.402862e+002 -3.066020e+000 -9.952289e+001 -3.076504e+000 -9.947633e+001 -5.912193e+000 1.340112e+002
