!Agilent Technologies,N5230C,MY48100320,A.08.04.10
!Agilent N5230C: A.08.04.10
!Date: Friday, September 23, 2016 16:38:28
!Correction: S11(Full 2 Port(1,2)) 
!S21(Full 2 Port(1,2)) 
!S12(Full 2 Port(1,2)) 
!S22(Full 2 Port(1,2)) 
!S2P File: Measurements: S11, S21, S12, S22:
# Hz S  dB   R 50
300000 -2.688821e+001 7.823732e+001 -6.952131e-002 -2.801281e+000 -7.296982e-002 -2.781930e+000 -2.534511e+001 7.696140e+001
17174625 -5.316576e+001 1.212023e+002 6.357618e-003 -9.717203e-001 4.221266e-003 -9.872185e-001 -5.178339e+001 9.282578e+001
34049250 -6.431767e+001 1.149226e+002 1.022193e-003 -1.725743e+000 -2.143439e-003 -1.726831e+000 -6.228757e+001 8.597657e+001
50923875 -5.857574e+001 5.654842e+001 -2.272932e-003 -2.566870e+000 -9.486350e-003 -2.536794e+000 -6.073922e+001 2.502986e+001
67798500 -5.753654e+001 4.254929e+001 -1.963831e-003 -3.374509e+000 -5.720794e-003 -3.353896e+000 -6.676353e+001 6.052436e+001
84673125 -5.616202e+001 2.958980e+001 -6.749994e-003 -4.227700e+000 -9.524189e-003 -4.204033e+000 -5.825642e+001 4.817328e+001
101547750 -5.951869e+001 2.179062e+001 -7.572547e-003 -5.063287e+000 -1.363191e-002 -5.068513e+000 -5.735492e+001 5.561322e+001
118422375 -5.676460e+001 2.337145e+001 -7.171923e-003 -5.915115e+000 -1.194489e-002 -5.935686e+000 -5.613350e+001 4.233472e+001
135297000 -5.853242e+001 2.089216e+001 -4.240610e-003 -6.719228e+000 -1.423474e-002 -6.741289e+000 -5.763852e+001 2.331010e+001
152171625 -5.699321e+001 -2.153884e+001 -8.863354e-003 -7.583213e+000 -1.342560e-002 -7.513565e+000 -6.117946e+001 5.616493e+001
169046250 -5.598032e+001 2.918515e+000 -8.472297e-003 -8.371154e+000 -1.075098e-002 -8.431425e+000 -5.637335e+001 4.415171e+001
185920875 -5.745883e+001 4.423784e+001 -8.718390e-003 -9.207337e+000 -1.394176e-002 -9.210176e+000 -5.871766e+001 3.790200e+001
202795500 -5.946663e+001 5.416144e+001 -1.196099e-002 -1.004756e+001 -1.293212e-002 -1.006000e+001 -5.391246e+001 1.890318e+001
219670125 -5.815425e+001 5.324032e+001 -1.443951e-002 -1.087130e+001 -1.358976e-002 -1.088434e+001 -5.474737e+001 1.802180e+001
236544750 -5.887686e+001 3.701252e+001 -1.308066e-002 -1.172383e+001 -1.527411e-002 -1.172990e+001 -5.320599e+001 2.472752e+001
253419375 -5.704675e+001 4.192604e+001 -1.328645e-002 -1.255058e+001 -1.409509e-002 -1.251654e+001 -5.104424e+001 2.168955e+001
270294000 -6.463318e+001 6.295280e+001 -1.129312e-002 -1.335589e+001 -1.052137e-002 -1.336841e+001 -5.072801e+001 2.636162e+001
287168625 -6.050931e+001 6.570943e+001 -1.452699e-002 -1.419362e+001 -1.578137e-002 -1.422107e+001 -4.983805e+001 2.626414e+001
304043250 -6.414486e+001 9.343970e+001 -1.225211e-002 -1.501803e+001 -1.059746e-002 -1.503902e+001 -5.104573e+001 3.572366e+001
320917875 -5.763481e+001 7.269949e+001 -1.331932e-002 -1.585467e+001 -1.243585e-002 -1.587822e+001 -5.132677e+001 2.212979e+001
337792500 -5.826949e+001 6.400284e+001 -1.209596e-002 -1.671614e+001 -1.806378e-002 -1.670109e+001 -4.941441e+001 2.801013e+001
354667125 -5.912650e+001 6.949866e+001 -1.298854e-002 -1.753274e+001 -1.381880e-002 -1.753383e+001 -4.898676e+001 3.989049e+001
371541750 -5.415237e+001 8.089929e+001 -1.140262e-002 -1.837572e+001 -1.809612e-002 -1.834267e+001 -4.746756e+001 3.228078e+001
388416375 -5.431288e+001 7.258110e+001 -1.688848e-002 -1.918876e+001 -1.564426e-002 -1.919600e+001 -4.683397e+001 3.289929e+001
405291000 -5.131559e+001 8.565744e+001 -1.464255e-002 -2.000536e+001 -1.709013e-002 -2.002664e+001 -4.571832e+001 3.447386e+001
422165625 -5.153165e+001 7.972984e+001 -1.907207e-002 -2.083771e+001 -1.723673e-002 -2.082976e+001 -4.540710e+001 4.118650e+001
439040250 -4.883879e+001 8.429436e+001 -1.359173e-002 -2.167586e+001 -2.010273e-002 -2.167190e+001 -4.531515e+001 3.336128e+001
455914875 -4.883417e+001 9.376571e+001 -1.600496e-002 -2.251282e+001 -1.459154e-002 -2.249343e+001 -4.526600e+001 2.361441e+001
472789500 -5.073929e+001 9.134213e+001 -1.603038e-002 -2.332877e+001 -1.974238e-002 -2.332908e+001 -4.486953e+001 2.380213e+001
489664125 -5.163240e+001 1.104684e+002 -1.257843e-002 -2.416192e+001 -1.973706e-002 -2.416552e+001 -4.457462e+001 2.228159e+001
506538750 -5.124298e+001 1.224102e+002 -1.248591e-002 -2.497943e+001 -1.786336e-002 -2.498316e+001 -4.524895e+001 3.393191e+000
523413375 -5.187817e+001 1.486341e+002 -1.778450e-002 -2.581909e+001 -2.194572e-002 -2.581739e+001 -4.511282e+001 -1.858348e+000
540288000 -4.991381e+001 1.580321e+002 -1.457279e-002 -2.666033e+001 -2.089570e-002 -2.662977e+001 -4.429248e+001 -7.568256e+000
557162625 -4.957967e+001 1.536881e+002 -1.951513e-002 -2.749128e+001 -1.866976e-002 -2.747886e+001 -4.369245e+001 -1.126961e+001
574037250 -4.734658e+001 1.525695e+002 -1.836054e-002 -2.830969e+001 -1.929662e-002 -2.830958e+001 -4.431936e+001 -1.685817e+001
590911875 -4.721596e+001 1.558358e+002 -1.897774e-002 -2.913537e+001 -2.060233e-002 -2.914208e+001 -4.344265e+001 -1.970795e+001
607786500 -4.636569e+001 1.457508e+002 -1.931049e-002 -2.997061e+001 -2.391790e-002 -2.995846e+001 -4.258630e+001 -1.120533e+001
624661125 -4.592270e+001 1.389189e+002 -1.784482e-002 -3.079140e+001 -1.982042e-002 -3.079148e+001 -4.212936e+001 -6.776220e+000
641535750 -4.507177e+001 1.337090e+002 -2.161615e-002 -3.163107e+001 -1.995378e-002 -3.162985e+001 -4.197173e+001 -5.917168e+000
658410375 -4.427489e+001 1.229322e+002 -1.797928e-002 -3.245973e+001 -1.722281e-002 -3.245786e+001 -4.097547e+001 -1.645687e+000
675285000 -4.329750e+001 1.247896e+002 -1.383698e-002 -3.327492e+001 -2.256895e-002 -3.327743e+001 -4.062016e+001 -6.232933e+000
692159625 -4.332244e+001 1.213847e+002 -1.829435e-002 -3.413258e+001 -1.819151e-002 -3.409614e+001 -4.027815e+001 -7.267616e+000
709034250 -4.318296e+001 1.200777e+002 -2.035385e-002 -3.499069e+001 -1.975557e-002 -3.497770e+001 -4.030818e+001 -1.047820e+001
725908875 -4.235456e+001 1.161362e+002 -2.110150e-002 -3.580399e+001 -1.880400e-002 -3.581439e+001 -3.987267e+001 -1.040763e+001
742783500 -4.293586e+001 1.201837e+002 -2.051957e-002 -3.663353e+001 -2.575037e-002 -3.662231e+001 -4.021852e+001 -1.315186e+001
759658125 -4.391351e+001 1.189931e+002 -2.786956e-002 -3.746967e+001 -2.436514e-002 -3.745707e+001 -3.988565e+001 -1.161059e+001
776532750 -4.308386e+001 1.213255e+002 -2.466442e-002 -3.830474e+001 -3.056938e-002 -3.827547e+001 -3.962463e+001 -1.342981e+001
793407375 -4.263179e+001 1.168353e+002 -2.822291e-002 -3.912679e+001 -2.726453e-002 -3.911851e+001 -3.951042e+001 -1.334517e+001
810282000 -4.217650e+001 1.100050e+002 -2.556325e-002 -3.996085e+001 -2.763752e-002 -3.995382e+001 -3.940006e+001 -1.452764e+001
827156625 -4.206961e+001 1.128031e+002 -2.665996e-002 -4.078132e+001 -2.447406e-002 -4.078331e+001 -3.975249e+001 -1.303575e+001
844031250 -4.092997e+001 1.056523e+002 -3.188355e-002 -4.158225e+001 -2.679914e-002 -4.159286e+001 -3.931107e+001 -1.232561e+001
860905875 -4.167285e+001 1.039410e+002 -2.758882e-002 -4.244904e+001 -3.037416e-002 -4.239584e+001 -3.873952e+001 -1.359570e+001
877780500 -4.065133e+001 1.010082e+002 -2.686275e-002 -4.323997e+001 -2.989709e-002 -4.325652e+001 -3.892118e+001 -1.144923e+001
894655125 -4.071816e+001 9.957113e+001 -3.221816e-002 -4.406513e+001 -2.850019e-002 -4.406197e+001 -3.853806e+001 -1.310640e+001
911529750 -4.068778e+001 9.590227e+001 -2.997532e-002 -4.493071e+001 -2.701261e-002 -4.492221e+001 -3.810417e+001 -1.325065e+001
928404375 -4.072660e+001 9.371157e+001 -3.304885e-002 -4.572361e+001 -3.107581e-002 -4.572864e+001 -3.783731e+001 -1.700285e+001
945279000 -4.107864e+001 9.884142e+001 -2.535561e-002 -4.655199e+001 -2.787982e-002 -4.657687e+001 -3.835180e+001 -1.675074e+001
962153625 -4.079441e+001 9.982912e+001 -2.793661e-002 -4.738359e+001 -2.766223e-002 -4.738158e+001 -3.825176e+001 -1.715660e+001
979028250 -4.096085e+001 9.700567e+001 -3.073681e-002 -4.821104e+001 -2.893410e-002 -4.820436e+001 -3.829163e+001 -1.843723e+001
995902875 -4.068878e+001 9.961458e+001 -2.385573e-002 -4.904144e+001 -2.858474e-002 -4.904944e+001 -3.912065e+001 -2.207069e+001
1012777500 -4.121968e+001 1.027360e+002 -2.417898e-002 -4.990311e+001 -2.789621e-002 -4.985588e+001 -3.897520e+001 -2.071534e+001
1029652125 -4.114263e+001 9.931882e+001 -2.679601e-002 -5.072914e+001 -2.742598e-002 -5.071616e+001 -3.890810e+001 -2.022871e+001
1046526750 -4.057630e+001 9.376558e+001 -2.163179e-002 -5.151601e+001 -2.686564e-002 -5.153626e+001 -3.884765e+001 -1.754803e+001
1063401375 -4.007651e+001 9.364941e+001 -2.251794e-002 -5.237968e+001 -2.645303e-002 -5.238103e+001 -3.873320e+001 -1.551742e+001
1080276000 -3.932614e+001 9.226379e+001 -2.474084e-002 -5.322523e+001 -2.375112e-002 -5.321785e+001 -3.867649e+001 -1.707659e+001
1097150625 -3.973095e+001 8.490430e+001 -2.221223e-002 -5.402892e+001 -2.513547e-002 -5.402989e+001 -3.820983e+001 -1.763948e+001
1114025250 -3.886644e+001 8.261675e+001 -2.388293e-002 -5.486639e+001 -2.883822e-002 -5.486562e+001 -3.763227e+001 -1.583363e+001
1130899875 -3.892101e+001 8.025535e+001 -2.165933e-002 -5.569462e+001 -3.065173e-002 -5.570129e+001 -3.768810e+001 -1.690605e+001
1147774500 -3.865494e+001 7.847954e+001 -2.970048e-002 -5.653324e+001 -2.723481e-002 -5.655203e+001 -3.774983e+001 -1.809102e+001
1164649125 -3.917558e+001 7.869418e+001 -2.528644e-002 -5.736399e+001 -2.849624e-002 -5.734643e+001 -3.782946e+001 -1.478176e+001
1181523750 -3.901509e+001 7.861279e+001 -2.396702e-002 -5.819852e+001 -2.881091e-002 -5.820107e+001 -3.792871e+001 -1.155549e+001
1198398375 -3.921146e+001 7.887704e+001 -2.773623e-002 -5.903710e+001 -2.828610e-002 -5.901801e+001 -3.827889e+001 -1.237221e+001
1215273000 -3.936576e+001 7.736126e+001 -2.632212e-002 -5.986535e+001 -2.576829e-002 -5.984577e+001 -3.838150e+001 -1.652921e+001
1232147625 -3.935531e+001 7.331836e+001 -2.886493e-002 -6.067306e+001 -2.648170e-002 -6.067475e+001 -3.824517e+001 -1.675807e+001
1249022250 -3.930151e+001 7.144075e+001 -2.701749e-002 -6.153714e+001 -2.720540e-002 -6.150212e+001 -3.861644e+001 -1.602618e+001
1265896875 -3.905040e+001 6.950311e+001 -2.691930e-002 -6.231531e+001 -2.953944e-002 -6.235160e+001 -3.861438e+001 -1.327920e+001
1282771500 -3.936055e+001 6.750089e+001 -2.366710e-002 -6.318250e+001 -3.226379e-002 -6.316535e+001 -3.812392e+001 -1.454678e+001
1299646125 -3.880753e+001 6.363800e+001 -2.436575e-002 -6.402370e+001 -2.766102e-002 -6.399147e+001 -3.787199e+001 -1.333790e+001
1316520750 -3.865089e+001 6.027764e+001 -2.786159e-002 -6.482490e+001 -2.705719e-002 -6.482330e+001 -3.800447e+001 -1.261018e+001
1333395375 -3.898603e+001 5.753199e+001 -2.302743e-002 -6.563432e+001 -2.997103e-002 -6.567269e+001 -3.813426e+001 -9.596590e+000
1350270000 -3.858718e+001 5.615211e+001 -2.643978e-002 -6.651331e+001 -2.652222e-002 -6.647506e+001 -3.792485e+001 -9.435225e+000
1367144625 -3.866667e+001 5.544815e+001 -2.636655e-002 -6.734235e+001 -2.613086e-002 -6.734423e+001 -3.844343e+001 -1.150209e+001
1384019250 -3.955875e+001 5.784676e+001 -2.430234e-002 -6.818771e+001 -2.813212e-002 -6.814040e+001 -3.864677e+001 -7.770904e+000
1400893875 -3.884999e+001 5.805631e+001 -2.882637e-002 -6.900001e+001 -2.389092e-002 -6.897916e+001 -3.928017e+001 -9.817348e+000
1417768500 -3.941914e+001 5.436357e+001 -2.400248e-002 -6.982616e+001 -2.654778e-002 -6.980479e+001 -3.856651e+001 -6.205421e+000
1434643125 -3.997703e+001 5.049374e+001 -1.990473e-002 -7.064849e+001 -3.358512e-002 -7.060172e+001 -3.936053e+001 -1.021039e+001
1451517750 -3.944131e+001 5.088902e+001 -2.767729e-002 -7.145255e+001 -2.833389e-002 -7.146934e+001 -3.946584e+001 -7.897628e+000
1468392375 -3.937748e+001 4.677074e+001 -1.945529e-002 -7.230573e+001 -2.515428e-002 -7.230306e+001 -3.904137e+001 -7.980156e+000
1485267000 -3.913357e+001 4.551876e+001 -1.787372e-002 -7.314391e+001 -2.248056e-002 -7.313203e+001 -3.902739e+001 -9.039618e+000
1502141625 -3.868060e+001 4.029912e+001 -3.529727e-002 -7.402328e+001 -3.296892e-002 -7.398091e+001 -3.877531e+001 -4.050063e+000
1519016250 -3.887072e+001 3.588282e+001 -2.498946e-002 -7.480325e+001 -2.585714e-002 -7.476849e+001 -3.845995e+001 8.941553e-002
1535890875 -3.835493e+001 3.751571e+001 -3.005855e-002 -7.559599e+001 -2.926550e-002 -7.562756e+001 -3.815401e+001 -1.287508e+000
1552765500 -3.829139e+001 3.328241e+001 -2.912341e-002 -7.645974e+001 -3.586703e-002 -7.644034e+001 -3.812854e+001 3.062996e+000
1569640125 -3.852902e+001 3.226321e+001 -3.076206e-002 -7.727680e+001 -3.327832e-002 -7.726891e+001 -3.823511e+001 6.222872e+000
1586514750 -3.881054e+001 2.785698e+001 -3.779849e-002 -7.811379e+001 -3.346774e-002 -7.810612e+001 -3.851886e+001 3.506748e+000
1603389375 -3.957098e+001 2.594105e+001 -2.636870e-002 -7.895481e+001 -2.901037e-002 -7.891482e+001 -3.942414e+001 8.561040e+000
1620264000 -4.016285e+001 2.065721e+001 -3.105479e-002 -7.979010e+001 -2.853993e-002 -7.975701e+001 -3.918534e+001 5.813775e+000
1637138625 -3.957135e+001 2.377504e+001 -2.768822e-002 -8.059953e+001 -3.095990e-002 -8.062120e+001 -3.932051e+001 1.086677e+001
1654013250 -3.991148e+001 1.421810e+001 -3.030376e-002 -8.142929e+001 -3.134419e-002 -8.145433e+001 -3.941383e+001 1.121965e+001
1670887875 -3.975591e+001 1.595946e+001 -2.105043e-002 -8.226829e+001 -3.718011e-002 -8.226421e+001 -3.946888e+001 1.351771e+001
1687762500 -4.016384e+001 1.171311e+001 -3.062279e-002 -8.309890e+001 -3.268152e-002 -8.310190e+001 -3.904316e+001 1.164981e+001
1704637125 -3.895827e+001 5.996507e+000 -2.552482e-002 -8.392254e+001 -3.076944e-002 -8.394517e+001 -3.897111e+001 1.576075e+001
1721511750 -3.918789e+001 5.034692e+000 -3.628711e-002 -8.477726e+001 -3.333438e-002 -8.475824e+001 -3.874458e+001 1.517864e+001
1738386375 -3.870750e+001 2.094513e+000 -3.508213e-002 -8.560445e+001 -2.664997e-002 -8.558876e+001 -3.840417e+001 1.869725e+001
1755261000 -3.859972e+001 2.082721e+000 -3.141282e-002 -8.642516e+001 -3.269352e-002 -8.643489e+001 -3.831032e+001 2.013375e+001
1772135625 -3.838826e+001 -2.594155e+000 -2.676339e-002 -8.724948e+001 -3.155810e-002 -8.723889e+001 -3.780038e+001 2.243521e+001
1789010250 -3.867884e+001 -2.731772e+000 -3.058167e-002 -8.809902e+001 -3.356561e-002 -8.808433e+001 -3.788794e+001 2.490444e+001
1805884875 -3.901075e+001 -4.310228e+000 -2.893579e-002 -8.891826e+001 -3.757134e-002 -8.892597e+001 -3.777847e+001 2.501340e+001
1822759500 -3.889284e+001 -9.095094e+000 -3.988489e-002 -8.973103e+001 -2.754314e-002 -8.975384e+001 -3.830187e+001 2.665809e+001
1839634125 -3.858389e+001 -1.471859e+001 -2.908153e-002 -9.058901e+001 -3.500749e-002 -9.058917e+001 -3.805391e+001 2.996555e+001
1856508750 -3.907087e+001 -1.653072e+001 -3.016688e-002 -9.142399e+001 -3.117016e-002 -9.139803e+001 -3.820996e+001 3.089488e+001
1873383375 -3.891832e+001 -2.127344e+001 -3.224756e-002 -9.228604e+001 -3.087871e-002 -9.222732e+001 -3.775999e+001 3.182663e+001
1890258000 -3.896074e+001 -2.250270e+001 -2.983057e-002 -9.308184e+001 -2.717614e-002 -9.308139e+001 -3.752175e+001 3.258436e+001
1907132625 -3.890881e+001 -2.377238e+001 -3.499245e-002 -9.391972e+001 -3.240166e-002 -9.391361e+001 -3.742136e+001 3.215754e+001
1924007250 -3.839863e+001 -2.595097e+001 -3.282139e-002 -9.474725e+001 -2.860737e-002 -9.473763e+001 -3.765330e+001 3.292973e+001
1940881875 -3.832805e+001 -3.094653e+001 -3.274176e-002 -9.557378e+001 -3.289029e-002 -9.554115e+001 -3.719445e+001 3.018781e+001
1957756500 -3.809093e+001 -3.334118e+001 -3.025321e-002 -9.639636e+001 -3.348973e-002 -9.640464e+001 -3.713836e+001 3.297895e+001
1974631125 -3.827209e+001 -3.359912e+001 -2.893207e-002 -9.723738e+001 -3.187808e-002 -9.725861e+001 -3.679592e+001 3.389530e+001
1991505750 -3.768653e+001 -3.691893e+001 -2.853876e-002 -9.807017e+001 -3.805368e-002 -9.804822e+001 -3.667356e+001 3.426953e+001
2008380375 -3.794051e+001 -3.818937e+001 -3.071546e-002 -9.888891e+001 -3.630675e-002 -9.889576e+001 -3.638893e+001 3.820053e+001
2025255000 -3.773399e+001 -4.386573e+001 -3.343508e-002 -9.973502e+001 -3.745800e-002 -9.971387e+001 -3.623821e+001 3.912006e+001
2042129625 -3.849393e+001 -4.339677e+001 -2.635802e-002 -1.005618e+002 -3.684300e-002 -1.005400e+002 -3.640564e+001 3.626354e+001
2059004250 -3.794987e+001 -5.261457e+001 -2.738966e-002 -1.013788e+002 -3.453235e-002 -1.013793e+002 -3.643703e+001 3.935939e+001
2075878875 -3.732223e+001 -5.188951e+001 -2.454517e-002 -1.022317e+002 -3.582593e-002 -1.022097e+002 -3.652065e+001 4.045904e+001
2092753500 -3.795458e+001 -5.692065e+001 -3.590797e-002 -1.030572e+002 -3.814261e-002 -1.030651e+002 -3.616301e+001 4.192921e+001
2109628125 -3.762230e+001 -5.731089e+001 -3.025968e-002 -1.038876e+002 -3.291222e-002 -1.038999e+002 -3.594551e+001 4.296084e+001
2126502750 -3.787862e+001 -5.876650e+001 -3.307886e-002 -1.047235e+002 -3.443112e-002 -1.046942e+002 -3.596786e+001 4.443555e+001
2143377375 -3.725814e+001 -5.973974e+001 -3.441373e-002 -1.055511e+002 -2.938113e-002 -1.055172e+002 -3.566025e+001 4.101339e+001
2160252000 -3.716468e+001 -6.173841e+001 -3.495456e-002 -1.063637e+002 -3.511941e-002 -1.063548e+002 -3.562910e+001 3.985167e+001
2177126625 -3.710670e+001 -6.671649e+001 -4.191260e-002 -1.072095e+002 -3.179730e-002 -1.072049e+002 -3.563055e+001 3.753449e+001
2194001250 -3.641092e+001 -6.636783e+001 -2.473390e-002 -1.080266e+002 -3.727138e-002 -1.080515e+002 -3.586546e+001 4.007057e+001
2210875875 -3.666026e+001 -6.895863e+001 -1.974212e-002 -1.088716e+002 -2.567919e-002 -1.088520e+002 -3.558018e+001 4.023434e+001
2227750500 -3.645719e+001 -7.398475e+001 -2.880881e-002 -1.097111e+002 -3.209928e-002 -1.097148e+002 -3.502012e+001 4.169327e+001
2244625125 -3.683318e+001 -7.321747e+001 -2.652059e-002 -1.105468e+002 -3.695092e-002 -1.105172e+002 -3.486881e+001 4.127616e+001
2261499750 -3.680219e+001 -7.818602e+001 -3.965754e-002 -1.113630e+002 -3.134432e-002 -1.113429e+002 -3.476741e+001 4.493094e+001
2278374375 -3.676573e+001 -7.929247e+001 -4.211091e-002 -1.121833e+002 -3.055383e-002 -1.121780e+002 -3.503425e+001 4.354809e+001
2295249000 -3.668695e+001 -8.297536e+001 -3.792785e-002 -1.130510e+002 -3.711524e-002 -1.129855e+002 -3.494284e+001 4.349216e+001
2312123625 -3.629555e+001 -8.329484e+001 -3.037987e-002 -1.138455e+002 -4.224418e-002 -1.138374e+002 -3.503759e+001 4.654582e+001
2328998250 -3.649654e+001 -8.467774e+001 -3.199593e-002 -1.146747e+002 -4.080272e-002 -1.146635e+002 -3.478171e+001 4.411857e+001
2345872875 -3.638587e+001 -8.742768e+001 -3.792540e-002 -1.155211e+002 -3.343940e-002 -1.155044e+002 -3.483273e+001 4.630372e+001
2362747500 -3.586994e+001 -8.819872e+001 -2.695006e-002 -1.163570e+002 -3.168777e-002 -1.163459e+002 -3.466588e+001 4.539738e+001
2379622125 -3.626206e+001 -9.242030e+001 -3.483800e-002 -1.171498e+002 -3.524414e-002 -1.171674e+002 -3.458436e+001 4.365078e+001
2396496750 -3.617076e+001 -9.321622e+001 -3.654731e-002 -1.179942e+002 -3.358488e-002 -1.179846e+002 -3.470115e+001 4.140229e+001
2413371375 -3.605733e+001 -9.338616e+001 -3.336886e-002 -1.188148e+002 -3.778086e-002 -1.188227e+002 -3.473109e+001 4.325019e+001
2430246000 -3.625459e+001 -9.535338e+001 -3.185942e-002 -1.196617e+002 -4.102253e-002 -1.196523e+002 -3.472442e+001 4.307119e+001
2447120625 -3.634546e+001 -9.786194e+001 -3.443339e-002 -1.204973e+002 -4.329488e-002 -1.204899e+002 -3.460692e+001 4.502250e+001
2463995250 -3.639178e+001 -9.991366e+001 -3.745737e-002 -1.213235e+002 -3.793075e-002 -1.212994e+002 -3.446137e+001 4.407663e+001
2480869875 -3.627994e+001 -1.028526e+002 -3.477613e-002 -1.221447e+002 -3.531363e-002 -1.221217e+002 -3.458806e+001 4.695633e+001
2497744500 -3.656554e+001 -1.024714e+002 -3.535113e-002 -1.229919e+002 -3.973691e-002 -1.229640e+002 -3.457993e+001 4.637711e+001
2514619125 -3.627451e+001 -1.068338e+002 -3.598911e-002 -1.238150e+002 -3.617788e-002 -1.238082e+002 -3.524715e+001 4.524865e+001
2531493750 -3.613739e+001 -1.089004e+002 -3.766538e-002 -1.246290e+002 -3.971051e-002 -1.246413e+002 -3.547181e+001 4.830133e+001
2548368375 -3.631098e+001 -1.083077e+002 -3.307094e-002 -1.254635e+002 -4.131635e-002 -1.254509e+002 -3.527344e+001 4.108334e+001
