!Agilent Technologies,N5230C,MY48100320,A.08.04.10
!Agilent N5230C: A.08.04.10
!Date: Wednesday, October 05, 2016 20:55:54
!Correction: S11(Full 2 Port(1,2)) 
!S21(Full 2 Port(1,2)) 
!S12(Full 2 Port(1,2)) 
!S22(Full 2 Port(1,2)) 
!S2P File: Measurements: S11, S21, S12, S22:
# Hz S  dB   R 50
300000 -2.700560e+001 7.866351e+001 -6.623476e-002 -2.789722e+000 -6.801828e-002 -2.694291e+000 -2.541122e+001 7.738588e+001
17174625 -5.248228e+001 1.563054e+002 1.791865e-002 1.476836e+000 1.306763e-002 1.474243e+000 -5.400443e+001 1.256058e+002
34049250 -5.607655e+001 -1.611820e+002 1.262896e-002 3.138596e+000 8.378544e-003 3.131391e+000 -5.679208e+001 -1.644823e+002
50923875 -5.923248e+001 1.762580e+002 9.706487e-003 4.661150e+000 9.792289e-003 4.670936e+000 -5.848816e+001 -1.321460e+002
67798500 -6.244674e+001 -1.773833e+002 1.432771e-002 6.202461e+000 1.048814e-002 6.230168e+000 -5.455607e+001 -1.544470e+002
84673125 -6.473630e+001 1.721311e+002 1.308032e-002 7.708890e+000 1.309153e-002 7.743752e+000 -5.655252e+001 -1.612482e+002
101547750 -5.965236e+001 -1.469508e+002 1.432886e-002 9.238937e+000 1.132039e-002 9.256084e+000 -5.389965e+001 -1.693046e+002
118422375 -6.023236e+001 -1.655805e+002 1.758095e-002 1.080787e+001 1.311087e-002 1.075417e+001 -5.478907e+001 -1.622823e+002
135297000 -5.822226e+001 -1.548010e+002 1.854727e-002 1.233648e+001 1.355163e-002 1.230953e+001 -5.496763e+001 -1.483115e+002
152171625 -5.748643e+001 -1.178701e+002 2.147883e-002 1.385774e+001 1.315050e-002 1.386108e+001 -5.093462e+001 -1.497337e+002
169046250 -5.868270e+001 -1.464307e+002 2.254803e-002 1.543066e+001 2.141575e-002 1.537115e+001 -5.275056e+001 -1.538485e+002
185920875 -5.400510e+001 -1.644101e+002 2.425336e-002 1.694936e+001 1.981797e-002 1.694363e+001 -5.086712e+001 -1.427793e+002
202795500 -5.349463e+001 -1.566314e+002 1.933909e-002 1.844560e+001 1.916417e-002 1.847441e+001 -5.471189e+001 -1.512114e+002
219670125 -5.330091e+001 -1.639619e+002 2.079180e-002 1.999052e+001 2.018372e-002 2.000445e+001 -5.282534e+001 -1.331276e+002
236544750 -5.546013e+001 -1.537294e+002 2.336663e-002 2.151993e+001 1.906183e-002 2.151046e+001 -5.367224e+001 -1.427345e+002
253419375 -5.540842e+001 -1.567828e+002 2.695559e-002 2.304969e+001 2.396547e-002 2.306566e+001 -5.410769e+001 -1.403119e+002
270294000 -5.428819e+001 -1.331657e+002 2.723414e-002 2.458361e+001 2.574112e-002 2.459729e+001 -5.313654e+001 -1.340869e+002
287168625 -5.452431e+001 -1.412224e+002 2.711373e-002 2.611564e+001 2.061055e-002 2.612114e+001 -5.289194e+001 -1.362461e+002
304043250 -5.260559e+001 -1.250258e+002 2.990631e-002 2.766879e+001 2.668992e-002 2.766403e+001 -5.045338e+001 -1.252072e+002
320917875 -5.274052e+001 -1.264196e+002 2.738665e-002 2.918293e+001 2.914756e-002 2.917932e+001 -5.137399e+001 -1.069338e+002
337792500 -5.334480e+001 -1.208862e+002 3.060486e-002 3.071040e+001 2.325133e-002 3.070992e+001 -5.146177e+001 -1.125616e+002
354667125 -5.318389e+001 -1.001367e+002 3.208498e-002 3.226245e+001 2.707435e-002 3.223236e+001 -4.941707e+001 -1.085668e+002
371541750 -5.252064e+001 -1.014783e+002 3.539946e-002 3.377641e+001 2.756972e-002 3.380322e+001 -5.074849e+001 -1.133652e+002
388416375 -5.577801e+001 -8.441079e+001 2.987033e-002 3.532570e+001 3.140222e-002 3.529940e+001 -5.131647e+001 -1.128313e+002
405291000 -5.529203e+001 -9.426572e+001 3.434224e-002 3.682317e+001 2.844778e-002 3.686251e+001 -5.140716e+001 -1.256156e+002
422165625 -5.827834e+001 -8.599167e+001 3.250146e-002 3.838089e+001 3.032355e-002 3.838007e+001 -4.919252e+001 -1.254246e+002
439040250 -5.756900e+001 -1.188884e+002 3.433981e-002 3.991137e+001 3.142140e-002 3.990488e+001 -5.048192e+001 -1.303917e+002
455914875 -6.112650e+001 -9.948046e+001 3.424723e-002 4.142439e+001 3.307399e-002 4.144117e+001 -5.204544e+001 -1.313444e+002
472789500 -6.767197e+001 1.484817e+002 3.791590e-002 4.298512e+001 3.048976e-002 4.296407e+001 -5.052609e+001 -1.329068e+002
489664125 -7.451456e+001 6.587331e+001 3.794088e-002 4.450838e+001 3.182751e-002 4.449075e+001 -4.869376e+001 -1.329572e+002
506538750 -6.548865e+001 2.485056e+001 3.651377e-002 4.602709e+001 3.443685e-002 4.602888e+001 -5.074040e+001 -1.196291e+002
523413375 -6.031609e+001 -2.342076e+000 3.677033e-002 4.756717e+001 3.342785e-002 4.754629e+001 -4.977490e+001 -1.047523e+002
540288000 -5.529215e+001 -7.228785e+000 4.016762e-002 4.907979e+001 3.838497e-002 4.908225e+001 -4.818997e+001 -9.578100e+001
557162625 -5.275016e+001 -2.613559e+001 3.924567e-002 5.059386e+001 3.688096e-002 5.061708e+001 -4.794290e+001 -9.201603e+001
574037250 -4.829560e+001 -3.544075e+001 3.601798e-002 5.211855e+001 3.643134e-002 5.215092e+001 -4.608167e+001 -7.286881e+001
590911875 -4.659300e+001 -2.766880e+001 3.882992e-002 5.366258e+001 3.670282e-002 5.370315e+001 -4.540890e+001 -6.573061e+001
607786500 -4.555473e+001 -3.014524e+001 4.080373e-002 5.521519e+001 3.374116e-002 5.520123e+001 -4.429230e+001 -6.423420e+001
624661125 -4.510234e+001 -2.975586e+001 3.700556e-002 5.673350e+001 3.729385e-002 5.673072e+001 -4.341140e+001 -6.021995e+001
641535750 -4.438206e+001 -2.567988e+001 3.806177e-002 5.828136e+001 4.009585e-002 5.827065e+001 -4.309296e+001 -5.372565e+001
658410375 -4.474528e+001 -2.670098e+001 3.970297e-002 5.977817e+001 3.642525e-002 5.980219e+001 -4.293401e+001 -5.336963e+001
675285000 -4.367857e+001 -2.313774e+001 4.372725e-002 6.130459e+001 3.904950e-002 6.133255e+001 -4.444182e+001 -5.155938e+001
692159625 -4.440908e+001 -2.076275e+001 4.021290e-002 6.284941e+001 3.887225e-002 6.286471e+001 -4.470752e+001 -4.758282e+001
709034250 -4.481607e+001 -2.031496e+001 4.410897e-002 6.434946e+001 4.180059e-002 6.435181e+001 -4.526230e+001 -4.414324e+001
725908875 -4.421865e+001 -2.676174e+001 4.284636e-002 6.589817e+001 3.699562e-002 6.587343e+001 -4.518704e+001 -4.792810e+001
742783500 -4.492845e+001 -1.888621e+001 3.934824e-002 6.742921e+001 3.594445e-002 6.739745e+001 -4.473674e+001 -4.628366e+001
759658125 -4.597438e+001 -1.765972e+001 3.555067e-002 6.895203e+001 3.528973e-002 6.894566e+001 -4.381606e+001 -4.904351e+001
776532750 -4.371282e+001 -1.450956e+001 4.366439e-002 7.047662e+001 3.096156e-002 7.049487e+001 -4.316556e+001 -5.126789e+001
793407375 -4.258791e+001 -1.689049e+001 3.698071e-002 7.201876e+001 3.830308e-002 7.201260e+001 -4.233650e+001 -4.625912e+001
810282000 -4.187874e+001 -2.032281e+001 3.963671e-002 7.351842e+001 3.168864e-002 7.352911e+001 -4.197282e+001 -4.625257e+001
827156625 -4.116961e+001 -1.046394e+001 3.982941e-002 7.508197e+001 3.952466e-002 7.507385e+001 -4.090204e+001 -4.162414e+001
844031250 -4.037770e+001 -1.468310e+001 3.542824e-002 7.662020e+001 3.893249e-002 7.660996e+001 -4.060695e+001 -3.878410e+001
860905875 -4.085979e+001 -1.369086e+001 4.291229e-002 7.812415e+001 3.888481e-002 7.817144e+001 -4.061723e+001 -3.988496e+001
877780500 -4.020449e+001 -1.253120e+001 3.960571e-002 7.969080e+001 3.833899e-002 7.965891e+001 -4.050526e+001 -3.547871e+001
894655125 -4.013993e+001 -1.184369e+001 4.019901e-002 8.121370e+001 3.760133e-002 8.120542e+001 -4.037894e+001 -3.602973e+001
911529750 -4.078336e+001 -1.487239e+001 4.161792e-002 8.272483e+001 3.826647e-002 8.272620e+001 -4.044159e+001 -3.636793e+001
928404375 -4.067333e+001 -1.424695e+001 4.045497e-002 8.427821e+001 3.830107e-002 8.428201e+001 -4.108200e+001 -3.980003e+001
945279000 -4.159338e+001 -9.637232e+000 4.765567e-002 8.581986e+001 4.430192e-002 8.577448e+001 -4.131445e+001 -3.791282e+001
962153625 -4.124777e+001 -6.043048e+000 4.570890e-002 8.732750e+001 3.950956e-002 8.732533e+001 -4.094135e+001 -3.868544e+001
979028250 -4.097257e+001 -5.834781e+000 4.231303e-002 8.885624e+001 4.522103e-002 8.887473e+001 -4.069616e+001 -3.843495e+001
995902875 -4.093133e+001 -2.554455e+000 4.454453e-002 9.040865e+001 4.710810e-002 9.038497e+001 -4.129475e+001 -3.477118e+001
1012777500 -4.089806e+001 3.911159e+000 4.970704e-002 9.188457e+001 4.629102e-002 9.191296e+001 -4.045959e+001 -3.307551e+001
1029652125 -4.070191e+001 3.230642e+000 4.597423e-002 9.342757e+001 4.290980e-002 9.343593e+001 -3.998398e+001 -3.098805e+001
1046526750 -3.970099e+001 4.737853e+000 4.741113e-002 9.497074e+001 4.653831e-002 9.498302e+001 -3.934368e+001 -2.765056e+001
1063401375 -3.914320e+001 8.197664e+000 4.782040e-002 9.647431e+001 4.950604e-002 9.648578e+001 -3.882949e+001 -2.493039e+001
1080276000 -3.872982e+001 1.222747e+001 5.105287e-002 9.800610e+001 4.767824e-002 9.800895e+001 -3.903191e+001 -2.401819e+001
1097150625 -3.877265e+001 8.663096e+000 5.273363e-002 9.955109e+001 4.666957e-002 9.955109e+001 -3.862745e+001 -2.435175e+001
1114025250 -3.819253e+001 1.075223e+001 5.373938e-002 1.010724e+002 4.492061e-002 1.010727e+002 -3.816722e+001 -2.287482e+001
1130899875 -3.842285e+001 1.154281e+001 4.860492e-002 1.025850e+002 4.501523e-002 1.025967e+002 -3.844662e+001 -2.396130e+001
1147774500 -3.869782e+001 1.236238e+001 4.382428e-002 1.041156e+002 4.564960e-002 1.041145e+002 -3.884870e+001 -2.416755e+001
1164649125 -3.927104e+001 1.443888e+001 5.009879e-002 1.056517e+002 4.901206e-002 1.056687e+002 -3.871593e+001 -2.077012e+001
1181523750 -3.943905e+001 1.733551e+001 5.385579e-002 1.071944e+002 4.978256e-002 1.071885e+002 -3.873659e+001 -1.658142e+001
1198398375 -3.977735e+001 1.985714e+001 5.290746e-002 1.086905e+002 4.744902e-002 1.087081e+002 -3.900787e+001 -1.903111e+001
1215273000 -4.008095e+001 2.025185e+001 4.786634e-002 1.102314e+002 4.855876e-002 1.102521e+002 -3.937490e+001 -2.244311e+001
1232147625 -3.994970e+001 2.023473e+001 5.014712e-002 1.117914e+002 5.025544e-002 1.117737e+002 -3.919345e+001 -2.317161e+001
1249022250 -3.997784e+001 2.371984e+001 5.765204e-002 1.133016e+002 4.775939e-002 1.132920e+002 -3.951966e+001 -2.230663e+001
1265896875 -3.981589e+001 2.498272e+001 5.033165e-002 1.148583e+002 4.879199e-002 1.148067e+002 -3.936687e+001 -1.811757e+001
1282771500 -3.997635e+001 2.685654e+001 5.380141e-002 1.163496e+002 4.774820e-002 1.163677e+002 -3.878278e+001 -1.801792e+001
1299646125 -3.969094e+001 2.806521e+001 5.635480e-002 1.178767e+002 4.649517e-002 1.179051e+002 -3.871709e+001 -1.670723e+001
1316520750 -3.959632e+001 2.887671e+001 5.479468e-002 1.194152e+002 4.854493e-002 1.194326e+002 -3.891252e+001 -1.600710e+001
1333395375 -3.979027e+001 2.885510e+001 5.787461e-002 1.209633e+002 4.998526e-002 1.209571e+002 -3.920385e+001 -1.167433e+001
1350270000 -3.971627e+001 3.154787e+001 5.481595e-002 1.224516e+002 5.391550e-002 1.224919e+002 -3.915350e+001 -1.109555e+001
1367144625 -4.039744e+001 3.467753e+001 5.623896e-002 1.239724e+002 5.406709e-002 1.239950e+002 -3.979178e+001 -1.562135e+001
1384019250 -4.195341e+001 3.687922e+001 5.207331e-002 1.255108e+002 5.537328e-002 1.255492e+002 -4.026972e+001 -1.216814e+001
1400893875 -4.195315e+001 4.738079e+001 5.002736e-002 1.270508e+002 5.200304e-002 1.270468e+002 -4.075092e+001 -1.829417e+001
1417768500 -4.287801e+001 4.763638e+001 5.822528e-002 1.285921e+002 5.536790e-002 1.285952e+002 -4.077365e+001 -1.199906e+001
1434643125 -4.382852e+001 4.758143e+001 6.194373e-002 1.301108e+002 5.287960e-002 1.301339e+002 -4.109872e+001 -2.125342e+001
1451517750 -4.413459e+001 5.768316e+001 5.436973e-002 1.316428e+002 4.982051e-002 1.316395e+002 -4.159306e+001 -2.405373e+001
1468392375 -4.447763e+001 6.212437e+001 6.060247e-002 1.331456e+002 5.370318e-002 1.331800e+002 -4.105502e+001 -2.276773e+001
1485267000 -4.471185e+001 6.586964e+001 6.349625e-002 1.346813e+002 6.144549e-002 1.347085e+002 -4.082901e+001 -2.564532e+001
1502141625 -4.401458e+001 7.100748e+001 4.634760e-002 1.361869e+002 5.187702e-002 1.362241e+002 -4.146961e+001 -2.389475e+001
1519016250 -4.468111e+001 7.105111e+001 5.649442e-002 1.377285e+002 5.524506e-002 1.377769e+002 -4.182881e+001 -2.033534e+001
1535890875 -4.406452e+001 8.539483e+001 5.789723e-002 1.393066e+002 5.746989e-002 1.393077e+002 -4.106362e+001 -1.921486e+001
1552765500 -4.413027e+001 8.519924e+001 6.035626e-002 1.408047e+002 4.811218e-002 1.408383e+002 -4.197963e+001 -1.826786e+001
1569640125 -4.451549e+001 9.390106e+001 5.278872e-002 1.423530e+002 5.069400e-002 1.423749e+002 -4.244403e+001 -1.990176e+001
1586514750 -4.468998e+001 9.418881e+001 5.564713e-002 1.438882e+002 5.180848e-002 1.438740e+002 -4.192752e+001 -2.048236e+001
1603389375 -4.682390e+001 1.012263e+002 6.073412e-002 1.453830e+002 6.336735e-002 1.454128e+002 -4.224922e+001 -2.987727e+001
1620264000 -4.817097e+001 1.057061e+002 5.966661e-002 1.469254e+002 5.849770e-002 1.469453e+002 -4.261052e+001 -2.739393e+001
1637138625 -4.703988e+001 1.376068e+002 5.734474e-002 1.484631e+002 5.154300e-002 1.484601e+002 -4.319603e+001 -3.717281e+001
1654013250 -4.849860e+001 1.353910e+002 6.145825e-002 1.499793e+002 6.159031e-002 1.499976e+002 -4.296972e+001 -3.866330e+001
1670887875 -4.694244e+001 1.557902e+002 6.507330e-002 1.515011e+002 4.756808e-002 1.514995e+002 -4.262031e+001 -4.618057e+001
1687762500 -4.698043e+001 1.715741e+002 6.366573e-002 1.530271e+002 5.678733e-002 1.530392e+002 -4.217969e+001 -4.418878e+001
1704637125 -4.602080e+001 1.662647e+002 5.980994e-002 1.545735e+002 5.916907e-002 1.545689e+002 -4.199426e+001 -5.136777e+001
1721511750 -4.612828e+001 1.743446e+002 6.048080e-002 1.560777e+002 5.831538e-002 1.561064e+002 -4.161131e+001 -4.999409e+001
1738386375 -4.522791e+001 1.756417e+002 5.477359e-002 1.576176e+002 6.249280e-002 1.576323e+002 -4.154856e+001 -5.214370e+001
1755261000 -4.423546e+001 1.788797e+002 5.415653e-002 1.591368e+002 5.567029e-002 1.591564e+002 -4.118395e+001 -5.029361e+001
1772135625 -4.412998e+001 -1.794177e+002 6.458076e-002 1.606776e+002 5.162634e-002 1.606950e+002 -4.149171e+001 -5.334411e+001
1789010250 -4.351588e+001 -1.728159e+002 6.279039e-002 1.621985e+002 5.575376e-002 1.622080e+002 -4.137643e+001 -5.250305e+001
1805884875 -4.316183e+001 -1.662323e+002 5.977673e-002 1.637271e+002 5.794115e-002 1.637292e+002 -4.133961e+001 -5.167781e+001
1822759500 -4.288473e+001 -1.644122e+002 5.985017e-002 1.652766e+002 5.849935e-002 1.652572e+002 -4.079328e+001 -4.914031e+001
1839634125 -4.277607e+001 -1.618342e+002 6.059950e-002 1.667680e+002 5.673506e-002 1.667996e+002 -4.078980e+001 -5.271640e+001
1856508750 -4.228212e+001 -1.540271e+002 5.953009e-002 1.683070e+002 5.884492e-002 1.683370e+002 -4.055806e+001 -5.436388e+001
1873383375 -4.210689e+001 -1.517755e+002 6.317715e-002 1.698012e+002 5.692718e-002 1.698579e+002 -4.060095e+001 -5.684862e+001
1890258000 -4.127769e+001 -1.444567e+002 6.449702e-002 1.713770e+002 5.870963e-002 1.713789e+002 -4.019745e+001 -5.990014e+001
1907132625 -4.061565e+001 -1.402710e+002 6.022387e-002 1.728682e+002 6.302530e-002 1.729110e+002 -3.982993e+001 -5.879633e+001
1924007250 -4.039521e+001 -1.385655e+002 6.562734e-002 1.744096e+002 6.090279e-002 1.744247e+002 -3.946582e+001 -5.605866e+001
1940881875 -4.044196e+001 -1.377401e+002 6.176132e-002 1.759330e+002 6.086922e-002 1.759661e+002 -3.988527e+001 -5.728953e+001
1957756500 -4.018269e+001 -1.354006e+002 7.052260e-002 1.774641e+002 5.921189e-002 1.774877e+002 -3.888945e+001 -5.499167e+001
1974631125 -3.976632e+001 -1.311239e+002 6.711494e-002 1.790084e+002 5.602891e-002 1.789803e+002 -3.905249e+001 -5.578500e+001
1991505750 -3.977794e+001 -1.339678e+002 6.007567e-002 -1.794900e+002 6.074876e-002 -1.794340e+002 -3.918061e+001 -5.356931e+001
2008380375 -3.969977e+001 -1.288043e+002 6.703459e-002 -1.779258e+002 5.537929e-002 -1.779227e+002 -3.853243e+001 -5.288297e+001
2025255000 -3.993146e+001 -1.302054e+002 6.674943e-002 -1.764179e+002 5.768856e-002 -1.764059e+002 -3.874311e+001 -5.217165e+001
2042129625 -3.984346e+001 -1.228190e+002 7.104249e-002 -1.748787e+002 5.830036e-002 -1.748571e+002 -3.953502e+001 -5.151908e+001
2059004250 -4.044152e+001 -1.273310e+002 6.696614e-002 -1.733651e+002 6.458747e-002 -1.733577e+002 -3.921585e+001 -4.820981e+001
2075878875 -3.947873e+001 -1.263604e+002 6.821222e-002 -1.718353e+002 5.918923e-002 -1.718291e+002 -3.934545e+001 -4.640844e+001
2092753500 -4.004256e+001 -1.197835e+002 6.274899e-002 -1.703185e+002 6.126439e-002 -1.703054e+002 -3.869176e+001 -4.762340e+001
2109628125 -3.952730e+001 -1.156096e+002 6.112330e-002 -1.687922e+002 6.118387e-002 -1.687863e+002 -3.849949e+001 -4.666322e+001
2126502750 -3.933387e+001 -1.111834e+002 6.705293e-002 -1.672577e+002 6.370906e-002 -1.672499e+002 -3.813100e+001 -4.539865e+001
2143377375 -3.882009e+001 -1.103997e+002 6.558185e-002 -1.657296e+002 6.219930e-002 -1.657113e+002 -3.812032e+001 -4.577718e+001
2160252000 -3.903976e+001 -1.094402e+002 6.552661e-002 -1.642018e+002 5.875131e-002 -1.641665e+002 -3.834761e+001 -4.565635e+001
2177126625 -3.948835e+001 -1.079253e+002 5.582764e-002 -1.626663e+002 5.999472e-002 -1.626568e+002 -3.828413e+001 -4.402232e+001
2194001250 -3.884700e+001 -1.093492e+002 7.022107e-002 -1.611515e+002 5.785789e-002 -1.611581e+002 -3.866073e+001 -3.755861e+001
2210875875 -3.920778e+001 -1.058560e+002 7.879504e-002 -1.596300e+002 7.498373e-002 -1.596098e+002 -3.854499e+001 -3.316053e+001
2227750500 -3.987606e+001 -1.075484e+002 7.043806e-002 -1.581100e+002 6.742070e-002 -1.580781e+002 -3.804085e+001 -3.120431e+001
2244625125 -3.992543e+001 -1.023822e+002 6.744618e-002 -1.565873e+002 6.066376e-002 -1.565507e+002 -3.828962e+001 -2.996623e+001
2261499750 -4.059040e+001 -1.046741e+002 6.712798e-002 -1.550441e+002 6.756604e-002 -1.550015e+002 -3.833451e+001 -2.320057e+001
2278374375 -4.056532e+001 -1.007756e+002 6.454130e-002 -1.534881e+002 6.446481e-002 -1.534939e+002 -3.930453e+001 -2.261902e+001
2295249000 -4.074987e+001 -1.001763e+002 6.804228e-002 -1.520108e+002 6.090732e-002 -1.519440e+002 -3.928552e+001 -2.201494e+001
2312123625 -4.033500e+001 -1.003760e+002 6.859123e-002 -1.504445e+002 6.056146e-002 -1.504350e+002 -3.951675e+001 -1.555822e+001
2328998250 -4.069350e+001 -9.497198e+001 7.202716e-002 -1.489333e+002 6.059211e-002 -1.489095e+002 -3.939494e+001 -1.993352e+001
2345872875 -4.102225e+001 -9.396293e+001 6.707855e-002 -1.474166e+002 6.361038e-002 -1.473898e+002 -3.939484e+001 -1.135965e+001
2362747500 -4.043525e+001 -9.457583e+001 7.469162e-002 -1.458870e+002 6.741971e-002 -1.458603e+002 -3.922406e+001 -1.076270e+001
2379622125 -4.188752e+001 -8.969297e+001 6.835295e-002 -1.443223e+002 6.798131e-002 -1.443279e+002 -3.920713e+001 -1.045967e+001
2396496750 -4.195559e+001 -9.082468e+001 6.325588e-002 -1.428136e+002 6.273375e-002 -1.427936e+002 -3.931715e+001 -1.067000e+001
2413371375 -4.177621e+001 -8.666094e+001 6.599282e-002 -1.412700e+002 6.357156e-002 -1.412675e+002 -3.965805e+001 -3.691821e+000
2430246000 -4.219163e+001 -8.709085e+001 7.078294e-002 -1.397763e+002 6.712846e-002 -1.397267e+002 -3.957274e+001 -1.695333e+000
2447120625 -4.290619e+001 -8.627927e+001 7.311944e-002 -1.382312e+002 5.893415e-002 -1.382268e+002 -3.976059e+001 5.665278e+000
2463995250 -4.341566e+001 -8.707195e+001 6.564892e-002 -1.366992e+002 6.345987e-002 -1.366806e+002 -3.942072e+001 7.700792e+000
2480869875 -4.374209e+001 -9.114026e+001 7.427993e-002 -1.351762e+002 7.159178e-002 -1.351296e+002 -3.999928e+001 1.700945e+001
2497744500 -4.422532e+001 -8.454117e+001 6.905337e-002 -1.336657e+002 6.246281e-002 -1.336032e+002 -3.982956e+001 1.934822e+001
2514619125 -4.487794e+001 -9.057828e+001 6.867998e-002 -1.321190e+002 6.359345e-002 -1.321133e+002 -4.113427e+001 1.848284e+001
2531493750 -4.471009e+001 -8.971394e+001 7.029136e-002 -1.305755e+002 6.749702e-002 -1.305902e+002 -4.152703e+001 2.907838e+001
2548368375 -4.522774e+001 -8.669755e+001 7.646875e-002 -1.290710e+002 6.542490e-002 -1.290445e+002 -4.088146e+001 1.920996e+001
2565243000 -4.706617e+001 -7.904703e+001 6.807932e-002 -1.275277e+002 6.607781e-002 -1.275186e+002 -4.037835e+001 3.008334e+001
2582117625 -4.626004e+001 -8.695041e+001 6.970119e-002 -1.260151e+002 6.511183e-002 -1.259992e+002 -4.054270e+001 3.137084e+001
2598992250 -4.834713e+001 -9.413515e+001 6.695770e-002 -1.244974e+002 6.743408e-002 -1.244654e+002 -4.032838e+001 3.650495e+001
