!Agilent Technologies,N5230C,MY48100320,A.08.04.10
!Agilent N5230C: A.08.04.10
!Date: Thursday, August 04, 2016 04:01:41
!Correction: S11(Full 2 Port(1,2)) 
!S21(Full 2 Port(1,2)) 
!S12(Full 2 Port(1,2)) 
!S22(Full 2 Port(1,2)) 
!S2P File: Measurements: S11, S21, S12, S22:
# Hz S  dB   R 50
1350270000 -1.223671e+001 -1.766915e+002 -4.742599e-001 -1.390706e+002 -4.785700e-001 -1.390748e+002 -1.364336e+001 7.467606e+001
1411018650 -1.229548e+001 -1.798682e+002 -3.952149e-001 -1.454076e+002 -3.975255e-001 -1.453921e+002 -1.278058e+001 6.667574e+001
1471767300 -1.205451e+001 1.772906e+002 -3.857428e-001 -1.517669e+002 -3.908926e-001 -1.517477e+002 -1.241716e+001 5.748167e+001
1532515950 -1.181819e+001 1.741370e+002 -4.070230e-001 -1.580983e+002 -4.067922e-001 -1.580885e+002 -1.216313e+001 4.783920e+001
1593264600 -1.161804e+001 1.704787e+002 -4.156350e-001 -1.643035e+002 -4.167308e-001 -1.642897e+002 -1.181544e+001 3.915001e+001
1654013250 -1.142358e+001 1.673157e+002 -4.314761e-001 -1.705549e+002 -4.301092e-001 -1.705409e+002 -1.163058e+001 3.002516e+001
1714761900 -1.118105e+001 1.637533e+002 -4.464930e-001 -1.767764e+002 -4.415600e-001 -1.767707e+002 -1.139736e+001 2.113526e+001
1775510550 -1.099864e+001 1.604138e+002 -4.616854e-001 1.769716e+002 -4.571140e-001 1.769852e+002 -1.113880e+001 1.186670e+001
1836259200 -1.075922e+001 1.567109e+002 -4.805470e-001 1.707456e+002 -4.891545e-001 1.707680e+002 -1.093583e+001 3.401098e+000
1897007850 -1.055318e+001 1.536121e+002 -5.087742e-001 1.645130e+002 -5.045075e-001 1.645311e+002 -1.074855e+001 -5.879612e+000
1957756500 -1.031088e+001 1.496365e+002 -5.220745e-001 1.583105e+002 -5.236019e-001 1.583362e+002 -1.049115e+001 -1.449359e+001
2018505150 -1.010801e+001 1.462373e+002 -5.516353e-001 1.520554e+002 -5.507054e-001 1.520717e+002 -1.025203e+001 -2.313086e+001
2079253800 -9.831955e+000 1.425666e+002 -5.700368e-001 1.458560e+002 -5.688750e-001 1.458802e+002 -1.001261e+001 -3.162744e+001
2140002450 -9.587114e+000 1.386640e+002 -6.029938e-001 1.396283e+002 -6.096282e-001 1.396465e+002 -9.767737e+000 -4.032725e+001
2200751100 -9.326226e+000 1.347505e+002 -6.214291e-001 1.333826e+002 -6.282110e-001 1.334146e+002 -9.476134e+000 -4.845198e+001
2261499750 -9.081667e+000 1.308785e+002 -6.787604e-001 1.271697e+002 -6.695084e-001 1.271906e+002 -9.256399e+000 -5.653833e+001
2322248400 -8.814573e+000 1.263820e+002 -7.077784e-001 1.210136e+002 -7.124776e-001 1.210428e+002 -9.015554e+000 -6.471348e+001
2382997050 -8.613032e+000 1.223141e+002 -7.566462e-001 1.148233e+002 -7.459288e-001 1.148418e+002 -8.750487e+000 -7.276704e+001
2443745700 -8.350514e+000 1.175913e+002 -7.853832e-001 1.086996e+002 -7.926266e-001 1.087135e+002 -8.550124e+000 -8.024426e+001
2504494350 -8.140091e+000 1.130796e+002 -8.373113e-001 1.025888e+002 -8.370225e-001 1.026071e+002 -8.345935e+000 -8.813879e+001
2565243000 -7.953951e+000 1.082742e+002 -8.664317e-001 9.648666e+001 -8.794674e-001 9.650870e+001 -8.137953e+000 -9.570820e+001
2625991650 -7.797822e+000 1.034085e+002 -9.299694e-001 9.043982e+001 -9.265221e-001 9.044303e+001 -7.976286e+000 -1.031148e+002
2686740300 -7.644700e+000 9.860713e+001 -9.573582e-001 8.444756e+001 -9.701433e-001 8.446577e+001 -7.860651e+000 -1.106356e+002
2747488950 -7.572619e+000 9.381641e+001 -1.003391e+000 7.839340e+001 -9.967193e-001 7.842158e+001 -7.710410e+000 -1.179188e+002
2808237600 -7.466742e+000 8.874505e+001 -1.023291e+000 7.232479e+001 -1.038195e+000 7.235260e+001 -7.594579e+000 -1.251995e+002
2868986250 -7.432399e+000 8.397371e+001 -1.087633e+000 6.617019e+001 -1.096679e+000 6.619891e+001 -7.486066e+000 -1.328846e+002
2929734900 -7.393842e+000 7.961211e+001 -1.142576e+000 6.003591e+001 -1.154545e+000 6.005663e+001 -7.345589e+000 -1.412754e+002
2990483550 -6.873296e+000 7.464230e+001 -1.331432e+000 5.314715e+001 -1.331723e+000 5.314204e+001 -7.159567e+000 -1.515536e+002
3051232200 -7.495746e+000 5.168466e+001 -2.446889e+000 5.361362e+001 -2.457173e+000 5.363392e+001 -9.209386e+000 -1.742590e+002
3111980850 -9.096688e+000 6.698654e+001 -9.090964e-001 4.732699e+001 -9.040923e-001 4.735607e+001 -9.205196e+000 -1.581545e+002
3172729500 -8.552005e+000 6.419362e+001 -8.478384e-001 3.953137e+001 -8.677806e-001 3.955677e+001 -8.676512e+000 -1.662770e+002
3233478150 -8.499772e+000 6.051889e+001 -8.305299e-001 3.286733e+001 -8.348925e-001 3.288672e+001 -8.670975e+000 -1.745061e+002
3294226800 -8.552867e+000 5.629313e+001 -8.201098e-001 2.649067e+001 -8.293613e-001 2.651634e+001 -8.822083e+000 1.768978e+002
3354975450 -8.723576e+000 5.262254e+001 -8.064664e-001 2.019203e+001 -8.005189e-001 2.020617e+001 -9.061178e+000 1.681382e+002
3415724100 -8.949222e+000 4.896589e+001 -7.908375e-001 1.386061e+001 -8.057431e-001 1.388546e+001 -9.376402e+000 1.595042e+002
3476472750 -9.201722e+000 4.562815e+001 -8.118740e-001 7.594969e+000 -7.961171e-001 7.609430e+000 -9.881232e+000 1.505899e+002
3537221400 -9.433827e+000 4.216996e+001 -8.227963e-001 1.451190e+000 -8.254393e-001 1.462043e+000 -1.047737e+001 1.424906e+002
3597970050 -9.774245e+000 3.922384e+001 -8.378686e-001 -4.395801e+000 -8.300349e-001 -4.375483e+000 -1.091796e+001 1.362265e+002
3658718700 -1.007246e+001 3.575124e+001 -7.897813e-001 -1.009903e+001 -7.979793e-001 -1.006115e+001 -1.105703e+001 1.289697e+002
3719467350 -1.052019e+001 3.292094e+001 -7.083057e-001 -1.609955e+001 -7.015726e-001 -1.607907e+001 -1.109734e+001 1.193898e+002
3780216000 -1.095331e+001 3.026999e+001 -6.121268e-001 -2.241336e+001 -6.262186e-001 -2.237949e+001 -1.126873e+001 1.088388e+002
3840964650 -1.135600e+001 2.815730e+001 -5.658620e-001 -2.881596e+001 -5.630145e-001 -2.880376e+001 -1.156082e+001 9.775089e+001
3901713300 -1.181215e+001 2.635303e+001 -5.184414e-001 -3.535959e+001 -5.241501e-001 -3.533112e+001 -1.187236e+001 8.666444e+001
3962461950 -1.225794e+001 2.497661e+001 -4.982755e-001 -4.181922e+001 -4.888616e-001 -4.178850e+001 -1.214883e+001 7.559696e+001
4023210600 -1.255403e+001 2.406165e+001 -4.915875e-001 -4.840823e+001 -4.992001e-001 -4.836631e+001 -1.248378e+001 6.497569e+001
4083959250 -1.289121e+001 2.397078e+001 -5.056003e-001 -5.480656e+001 -5.045722e-001 -5.477560e+001 -1.270523e+001 5.480226e+001
4144707900 -1.287637e+001 2.318337e+001 -5.411584e-001 -6.099981e+001 -5.444634e-001 -6.097533e+001 -1.277118e+001 4.464866e+001
4205456550 -1.272910e+001 2.151757e+001 -5.332306e-001 -6.702439e+001 -5.334741e-001 -6.698892e+001 -1.272452e+001 3.466566e+001
4266205200 -1.265668e+001 1.750747e+001 -4.994718e-001 -7.308040e+001 -5.115896e-001 -7.304446e+001 -1.274782e+001 2.353143e+001
4326953850 -1.276531e+001 1.360315e+001 -4.522636e-001 -7.935720e+001 -4.666966e-001 -7.932136e+001 -1.281902e+001 1.316955e+001
4387702500 -1.289468e+001 9.437341e+000 -4.094445e-001 -8.572910e+001 -4.307020e-001 -8.569524e+001 -1.296540e+001 3.510135e+000
4448451150 -1.306056e+001 5.144274e+000 -3.986194e-001 -9.205009e+001 -4.072587e-001 -9.202061e+001 -1.309793e+001 -5.608308e+000
4509199800 -1.320704e+001 -2.245624e-001 -3.848114e-001 -9.839998e+001 -3.983094e-001 -9.838615e+001 -1.328381e+001 -1.428804e+001
4569948450 -1.343587e+001 -4.079483e+000 -3.617474e-001 -1.047259e+002 -3.652028e-001 -1.046868e+002 -1.342186e+001 -2.202061e+001
4630697100 -1.361949e+001 -9.972691e+000 -3.639313e-001 -1.110955e+002 -3.695314e-001 -1.110539e+002 -1.369718e+001 -2.967733e+001
4691445750 -1.385991e+001 -1.543583e+001 -3.482662e-001 -1.173548e+002 -3.461086e-001 -1.173481e+002 -1.390307e+001 -3.651924e+001
4752194400 -1.418048e+001 -2.123750e+001 -3.217691e-001 -1.237501e+002 -3.347260e-001 -1.237008e+002 -1.420462e+001 -4.366079e+001
4812943050 -1.459190e+001 -2.710666e+001 -3.244727e-001 -1.300819e+002 -3.132101e-001 -1.300537e+002 -1.451222e+001 -5.010366e+001
4873691700 -1.492916e+001 -3.439200e+001 -2.890542e-001 -1.364418e+002 -3.084550e-001 -1.364013e+002 -1.507266e+001 -5.602970e+001
4934440350 -1.557320e+001 -4.066182e+001 -2.663913e-001 -1.428259e+002 -2.654071e-001 -1.427965e+002 -1.551509e+001 -6.208479e+001
4995189000 -1.627271e+001 -4.870590e+001 -2.537334e-001 -1.493198e+002 -2.688776e-001 -1.493166e+002 -1.630969e+001 -6.706275e+001
5055937650 -1.716000e+001 -5.675012e+001 -2.261842e-001 -1.559431e+002 -2.422474e-001 -1.559158e+002 -1.731712e+001 -7.044626e+001
5116686300 -1.905569e+001 -7.044498e+001 -2.371579e-001 -1.631177e+002 -2.448419e-001 -1.630920e+002 -1.877557e+001 -7.099612e+001
5177434950 -2.186270e+001 1.505411e+001 -1.352849e+000 -1.687146e+002 -1.355675e+000 -1.686774e+002 -1.353384e+001 -6.103256e+001
5238183600 -1.917072e+001 -6.439683e+001 -2.672371e-001 -1.731142e+002 -2.709666e-001 -1.730888e+002 -1.905789e+001 -9.393847e+001
5298932250 -2.189333e+001 -7.846485e+001 -1.973615e-001 1.797052e+002 -2.008689e-001 1.797430e+002 -2.162814e+001 -9.511890e+001
5359680900 -2.451640e+001 -9.617004e+001 -1.624139e-001 1.728790e+002 -1.776773e-001 1.728912e+002 -2.482101e+001 -8.988093e+001
5420429550 -2.929762e+001 -1.229239e+002 -1.600704e-001 1.661760e+002 -1.689249e-001 1.662078e+002 -2.857599e+001 -6.743485e+001
5481178200 -3.088593e+001 1.770043e+002 -1.554431e-001 1.594549e+002 -1.718917e-001 1.594667e+002 -2.952208e+001 -2.964747e+001
5541926850 -2.701508e+001 1.304257e+002 -1.642810e-001 1.527392e+002 -1.688070e-001 1.527670e+002 -2.525829e+001 -5.953142e+000
5602675500 -2.252517e+001 1.078053e+002 -1.807603e-001 1.460210e+002 -1.746524e-001 1.460618e+002 -2.149162e+001 1.913998e+000
5663424150 -1.958972e+001 9.655960e+001 -2.124810e-001 1.392673e+002 -2.136504e-001 1.392978e+002 -1.880490e+001 -6.963684e-001
5724172800 -1.716397e+001 8.748943e+001 -2.434687e-001 1.325657e+002 -2.509299e-001 1.325925e+002 -1.652804e+001 -4.050954e+000
5784921450 -1.526995e+001 7.932723e+001 -3.006984e-001 1.257983e+002 -3.159644e-001 1.258451e+002 -1.479456e+001 -1.123362e+001
5845670100 -1.373968e+001 7.375743e+001 -3.465256e-001 1.191519e+002 -3.542828e-001 1.191683e+002 -1.325846e+001 -1.715410e+001
5906418750 -1.242822e+001 6.751170e+001 -4.255935e-001 1.124125e+002 -4.174164e-001 1.124451e+002 -1.207454e+001 -2.477035e+001
5967167400 -1.132321e+001 6.206308e+001 -5.096207e-001 1.058284e+002 -5.152681e-001 1.058590e+002 -1.100994e+001 -3.237764e+001
6027916050 -1.038540e+001 5.702572e+001 -6.083227e-001 9.932210e+001 -6.082282e-001 9.936794e+001 -1.006137e+001 -4.034072e+001
6088664700 -9.590188e+000 5.224498e+001 -7.083239e-001 9.281731e+001 -6.925182e-001 9.284370e+001 -9.303336e+000 -4.823270e+001
6149413350 -8.897284e+000 4.772768e+001 -8.006890e-001 8.642385e+001 -8.123438e-001 8.646732e+001 -8.657511e+000 -5.672270e+001
6210162000 -8.314446e+000 4.364408e+001 -9.011326e-001 8.015491e+001 -8.859583e-001 8.018958e+001 -8.052015e+000 -6.495149e+001
6270910650 -7.809408e+000 3.962906e+001 -9.935697e-001 7.382375e+001 -9.977033e-001 7.387742e+001 -7.574829e+000 -7.337193e+001
6331659300 -7.310781e+000 3.593987e+001 -1.102025e+000 6.777574e+001 -1.108760e+000 6.781767e+001 -7.163586e+000 -8.161305e+001
6392407950 -7.004933e+000 3.231484e+001 -1.198352e+000 6.166302e+001 -1.199497e+000 6.171790e+001 -6.754641e+000 -9.035463e+001
6453156600 -6.652195e+000 2.888647e+001 -1.278426e+000 5.564466e+001 -1.282066e+000 5.569118e+001 -6.479330e+000 -9.851124e+001
6513905250 -6.386693e+000 2.578758e+001 -1.382573e+000 4.974342e+001 -1.396453e+000 4.979340e+001 -6.223982e+000 -1.072653e+002
6574653900 -6.213061e+000 2.253708e+001 -1.434162e+000 4.387149e+001 -1.436987e+000 4.390393e+001 -5.999254e+000 -1.157983e+002
6635402550 -6.002110e+000 1.972267e+001 -1.512914e+000 3.796568e+001 -1.520443e+000 3.802974e+001 -5.833424e+000 -1.244347e+002
6696151200 -5.851292e+000 1.689113e+001 -1.573415e+000 3.227239e+001 -1.578444e+000 3.230907e+001 -5.687458e+000 -1.330318e+002
6756899850 -5.786520e+000 1.407534e+001 -1.596307e+000 2.643340e+001 -1.600878e+000 2.647677e+001 -5.574132e+000 -1.418007e+002
6817648500 -5.650299e+000 1.138537e+001 -1.643832e+000 2.066915e+001 -1.647025e+000 2.071977e+001 -5.508170e+000 -1.505318e+002
6878397150 -5.646889e+000 8.907564e+000 -1.664384e+000 1.488957e+001 -1.672973e+000 1.489082e+001 -5.467517e+000 -1.591748e+002
6939145800 -5.602705e+000 6.176898e+000 -1.665394e+000 9.143308e+000 -1.662559e+000 9.194025e+000 -5.499750e+000 -1.680709e+002
6999894450 -5.604284e+000 3.855476e+000 -1.688272e+000 3.212564e+000 -1.696902e+000 3.239254e+000 -5.484754e+000 -1.771039e+002
7060643100 -5.628781e+000 1.524091e+000 -1.684296e+000 -2.729011e+000 -1.681304e+000 -2.670082e+000 -5.599256e+000 1.737628e+002
7121391750 -5.651771e+000 -5.435822e-001 -1.717536e+000 -9.021361e+000 -1.718864e+000 -8.988329e+000 -5.819635e+000 1.641679e+002
7182140400 -4.913999e+000 -1.298163e+000 -2.568451e+000 -1.462294e+001 -2.574243e+000 -1.454600e+001 -7.775041e+000 1.629507e+002
7242889050 -5.798882e+000 -8.130173e+000 -1.618614e+000 -1.893776e+001 -1.621201e+000 -1.889433e+001 -5.633091e+000 1.510311e+002
7303637700 -5.464356e+000 -9.589703e+000 -1.803352e+000 -2.359112e+001 -1.803961e+000 -2.351787e+001 -5.477720e+000 1.443852e+002
7364386350 -5.724953e+000 -1.361256e+001 -1.591240e+000 -3.012759e+001 -1.600664e+000 -3.010425e+001 -5.597713e+000 1.331359e+002
7425135000 -5.899613e+000 -1.691010e+001 -1.516045e+000 -3.615660e+001 -1.506706e+000 -3.609861e+001 -5.768669e+000 1.239778e+002
7485883650 -6.039280e+000 -2.013643e+001 -1.466753e+000 -4.230162e+001 -1.481009e+000 -4.225447e+001 -5.895258e+000 1.151433e+002
7546632300 -6.155312e+000 -2.361337e+001 -1.437940e+000 -4.840515e+001 -1.434147e+000 -4.830166e+001 -6.079870e+000 1.068102e+002
7607380950 -6.382647e+000 -2.740658e+001 -1.344823e+000 -5.431803e+001 -1.346094e+000 -5.428801e+001 -6.204426e+000 9.825013e+001
7668129600 -6.534670e+000 -3.133154e+001 -1.307783e+000 -6.053440e+001 -1.311725e+000 -6.042933e+001 -6.381856e+000 9.005522e+001
7728878250 -6.703097e+000 -3.545197e+001 -1.250581e+000 -6.667050e+001 -1.252016e+000 -6.665501e+001 -6.618222e+000 8.226907e+001
7789626900 -6.978376e+000 -4.027604e+001 -1.168949e+000 -7.268147e+001 -1.164108e+000 -7.259368e+001 -6.787725e+000 7.422375e+001
7850375550 -7.156993e+000 -4.479566e+001 -1.119981e+000 -7.900598e+001 -1.129871e+000 -7.899909e+001 -7.038176e+000 6.684036e+001
7911124200 -7.405218e+000 -5.004205e+001 -1.056959e+000 -8.531221e+001 -1.048631e+000 -8.519720e+001 -7.347455e+000 5.966346e+001
7971872850 -7.762381e+000 -5.579119e+001 -9.754131e-001 -9.141484e+001 -9.788464e-001 -9.142654e+001 -7.561176e+000 5.232147e+001
8032621500 -8.014936e+000 -6.146849e+001 -9.265125e-001 -9.802976e+001 -9.263736e-001 -9.790819e+001 -7.951175e+000 4.617050e+001
8093370150 -8.374756e+000 -6.759309e+001 -8.497252e-001 -1.042776e+002 -8.503861e-001 -1.042813e+002 -8.369615e+000 3.939022e+001
8154118800 -8.838457e+000 -7.494424e+001 -7.782068e-001 -1.106977e+002 -7.756090e-001 -1.105787e+002 -8.716266e+000 3.313027e+001
8214867450 -9.241047e+000 -8.144459e+001 -7.172994e-001 -1.173707e+002 -7.217154e-001 -1.173928e+002 -9.248137e+000 2.799898e+001
8275616100 -9.802360e+000 -8.937835e+001 -6.419977e-001 -1.240044e+002 -6.394492e-001 -1.239003e+002 -9.861809e+000 2.264362e+001
8336364750 -1.043561e+001 -9.804418e+001 -5.777976e-001 -1.306137e+002 -5.818367e-001 -1.306342e+002 -1.044458e+001 1.753794e+001
8397113400 -1.111763e+001 -1.068258e+002 -5.210414e-001 -1.376541e+002 -5.250615e-001 -1.375507e+002 -1.118406e+001 1.442714e+001
8457862050 -1.192090e+001 -1.169566e+002 -4.545531e-001 -1.444434e+002 -4.582188e-001 -1.444487e+002 -1.205643e+001 1.099435e+001
8518610700 -1.278137e+001 -1.294379e+002 -4.119129e-001 -1.517354e+002 -4.219855e-001 -1.516129e+002 -1.275547e+001 9.119243e+000
8579359350 -1.371300e+001 -1.422264e+002 -3.832732e-001 -1.591831e+002 -3.883372e-001 -1.591502e+002 -1.365171e+001 9.793331e+000
8640108000 -1.435157e+001 -1.660360e+002 -3.957110e-001 -1.679155e+002 -4.015488e-001 -1.678008e+002 -1.386867e+001 1.452180e+001
8700856650 -1.380528e+001 -1.784432e+002 -4.466849e-001 -1.756163e+002 -4.546553e-001 -1.755879e+002 -1.346580e+001 8.884118e+000
8761605300 -7.755447e+000 1.421737e+002 -1.753997e+000 1.640194e+002 -1.757653e+000 1.641138e+002 -7.755141e+000 -1.135208e+001
8822353950 -1.877281e+001 2.050256e+001 -3.610883e-001 -1.740557e+002 -3.647418e-001 -1.739772e+002 -2.055894e+001 1.706586e+002
8883102600 -2.205265e+001 5.951705e+001 -2.448905e-001 1.728206e+002 -2.558880e-001 1.728659e+002 -2.068336e+001 9.351991e+001
8943851250 -1.933581e+001 5.688091e+001 -2.861054e-001 1.641192e+002 -2.800485e-001 1.641997e+002 -1.756818e+001 8.323187e+001
9004599900 -1.680115e+001 5.024385e+001 -3.272114e-001 1.563400e+002 -3.378334e-001 1.564015e+002 -1.597081e+001 7.752163e+001
9065348550 -1.560886e+001 3.830849e+001 -4.054040e-001 1.486118e+002 -4.024203e-001 1.487054e+002 -1.473051e+001 7.749297e+001
9126097200 -1.537925e+001 6.659740e+001 -1.472228e+000 1.405266e+002 -1.472773e+000 1.405589e+002 -1.204508e+001 9.493172e+001
9186845850 -1.141485e+001 2.714110e+001 -5.678527e-001 1.373225e+002 -5.715555e-001 1.374453e+002 -1.115524e+001 6.664733e+001
9247594500 -1.093428e+001 1.659500e+001 -5.869768e-001 1.302112e+002 -5.947497e-001 1.302112e+002 -1.061314e+001 6.156911e+001
9308343150 -1.043993e+001 8.510937e+000 -6.423779e-001 1.233835e+002 -6.367585e-001 1.234866e+002 -1.017521e+001 5.714589e+001
9369091800 -9.952908e+000 1.476952e+000 -6.727357e-001 1.169455e+002 -6.890272e-001 1.169664e+002 -9.881577e+000 5.227121e+001
9429840450 -9.781600e+000 -7.110484e+000 -7.172526e-001 1.104987e+002 -7.117612e-001 1.106398e+002 -9.537689e+000 4.765484e+001
9490589100 -9.561231e+000 -1.317148e+001 -7.187351e-001 1.042239e+002 -7.283601e-001 1.042705e+002 -9.489007e+000 4.237748e+001
9551337750 -9.633754e+000 -2.035110e+001 -7.203074e-001 9.792473e+001 -7.257451e-001 9.804131e+001 -9.515452e+000 3.782190e+001
9612086400 -9.771010e+000 -2.799084e+001 -7.094114e-001 9.174972e+001 -7.221688e-001 9.175378e+001 -9.643205e+000 3.294852e+001
9672835050 -1.012139e+001 -3.452081e+001 -6.745526e-001 8.519818e+001 -6.730603e-001 8.530617e+001 -1.001351e+001 2.826663e+001
9733583700 -1.062929e+001 -4.210103e+001 -6.234517e-001 7.886220e+001 -6.362194e-001 7.888111e+001 -1.053381e+001 2.393808e+001
9794332350 -1.140024e+001 -5.098635e+001 -5.948973e-001 7.224342e+001 -5.920688e-001 7.234478e+001 -1.115839e+001 2.033939e+001
9855081000 -1.239751e+001 -5.816289e+001 -5.216779e-001 6.547926e+001 -5.331762e-001 6.549474e+001 -1.224073e+001 1.692543e+001
9915829650 -1.392923e+001 -6.878388e+001 -4.771290e-001 5.866800e+001 -4.798968e-001 5.873830e+001 -1.317423e+001 1.568163e+001
9976578300 -1.569392e+001 -8.097277e+001 -4.318340e-001 5.152651e+001 -4.390646e-001 5.152913e+001 -1.468124e+001 1.572551e+001
10037326950 -1.540182e+001 -8.307621e+001 -5.673227e-001 4.748154e+001 -5.671947e-001 4.755460e+001 -1.377477e+001 1.687591e+001
10098075600 -1.950798e+001 -1.151959e+002 -3.542699e-001 3.815334e+001 -3.554834e-001 3.817385e+001 -1.697962e+001 2.227094e+001
10158824250 -2.124882e+001 -1.515588e+002 -3.235087e-001 3.054861e+001 -3.279144e-001 3.056880e+001 -1.811194e+001 3.500839e+001
10219572900 -2.111237e+001 1.712718e+002 -3.118854e-001 2.289135e+001 -3.137960e-001 2.293085e+001 -1.815891e+001 5.067522e+001
10280321550 -1.862891e+001 1.456120e+002 -3.637675e-001 1.462224e+001 -3.674966e-001 1.462416e+001 -1.763882e+001 5.322327e+001
10341070200 -1.611793e+001 1.238922e+002 -3.934657e-001 8.339423e+000 -3.971834e-001 8.435227e+000 -1.487553e+001 6.786797e+001
10401818850 -1.506456e+001 1.115207e+002 -3.974042e-001 -2.012903e-001 -4.011562e-001 -1.746129e-001 -1.420777e+001 6.072126e+001
10462567500 -1.530312e+001 1.054882e+002 -4.091051e-001 -1.012281e+001 -4.079451e-001 -1.003442e+001 -1.477405e+001 4.893112e+001
10523316150 -1.279795e+001 -1.654512e+002 -1.303477e+000 -3.893946e+001 -1.316328e+000 -3.889143e+001 -1.482647e+001 -1.360040e+002
10584064800 -6.869704e+000 9.466519e+001 -1.447315e+000 -8.692972e+000 -1.446676e+000 -8.529430e+000 -6.732547e+000 6.875116e+001
